# HZ S RI R 50
2000000000 0.014536848291754723 -0.7245364934206009
2000990344 -0.0029374512378126383 -0.7217331975698471
2001980688 -0.025887547060847282 -0.7179748117923737
2002971032 -0.04597534704953432 -0.7129731625318527
2003961376 -0.06407314352691174 -0.7096845209598541
2004951720 -0.08506190776824951 -0.7035212367773056
2005942064 -0.10404857620596886 -0.6979221403598785
2006932408 -0.1220365222543478 -0.6923917680978775
2007922752 -0.14306288957595825 -0.6861483007669449
2008913096 -0.16139715164899826 -0.6780500262975693
2009903440 -0.1797419637441635 -0.670502096414566
2010893784 -0.1998162642121315 -0.662406787276268
2011884128 -0.2177884615957737 -0.6536699533462524
2012874472 -0.23727552965283394 -0.6437529772520065
2013864816 -0.2555151805281639 -0.6331729143857956
2014855160 -0.2722710594534874 -0.6236884444952011
2015845504 -0.2910769358277321 -0.6122231036424637
2016835848 -0.3079225793480873 -0.6004553735256195
2017826192 -0.32599104940891266 -0.5876447260379791
2018816536 -0.3415972590446472 -0.57600437104702
2019806880 -0.3583943620324135 -0.5632151514291763
2020797224 -0.3743273466825485 -0.5489166676998138
2021787568 -0.3904591351747513 -0.5342410057783127
2022777912 -0.40609949827194214 -0.5196847766637802
2023768256 -0.4207649305462837 -0.5033160895109177
2024758600 -0.4357065036892891 -0.4887539967894554
2025748944 -0.44979042559862137 -0.4724400267004967
2026739288 -0.4621250480413437 -0.4577227085828781
2027729632 -0.47603805363178253 -0.4393638148903847
2028719976 -0.48858654499053955 -0.4225039407610893
2029710320 -0.5018134266138077 -0.4039449915289879
2030700664 -0.5130064487457275 -0.38646144419908524
2031691008 -0.5237616002559662 -0.36827635020017624
2032681352 -0.5341735780239105 -0.35057520866394043
2033671696 -0.5445721596479416 -0.3307635113596916
2034662040 -0.5538345128297806 -0.31198979914188385
2035652384 -0.5628862977027893 -0.29230502247810364
2036642728 -0.5711054652929306 -0.2731919288635254
2037633072 -0.5785342901945114 -0.25354432314634323
2038623416 -0.5849173665046692 -0.23385288938879967
2039613760 -0.5924517661333084 -0.2118711844086647
2040604104 -0.5980379730463028 -0.19262732565402985
2041594448 -0.6035526990890503 -0.17174695804715157
2042584792 -0.6079520732164383 -0.15165403857827187
2043575136 -0.612557128071785 -0.12930842489004135
2044565480 -0.6157559603452682 -0.10910646058619022
2045555824 -0.6186754554510117 -0.08874563686549664
2046546168 -0.6209631115198135 -0.06644225120544434
2047536512 -0.6227816194295883 -0.04504499677568674
2048526856 -0.6237993687391281 -0.024098864290863276
2049517200 -0.6244141608476639 -0.00393650378100574
2050507544 -0.624008908867836 0.017363460268825293
2051497888 -0.6233351975679398 0.03893808927386999
2052488232 -0.6218571811914444 0.06032260041683912
2053478576 -0.6200109273195267 0.08053983561694622
2054468920 -0.6174725890159607 0.10135233588516712
2055459264 -0.6141675561666489 0.1225894745439291
2056449608 -0.6108406335115433 0.1417790874838829
2057439952 -0.6062862426042557 0.1619524285197258
2058430296 -0.6013732552528381 0.18282363936305046
2059420640 -0.5963336527347565 0.20244579762220383
2060410984 -0.5903022885322571 0.22213996574282646
2061401328 -0.5831218808889389 0.24084408953785896
2062391672 -0.5765376389026642 0.26073016226291656
2063382016 -0.5694437026977539 0.27907829731702805
2064372360 -0.5605098158121109 0.29716378450393677
2065362704 -0.5530279725790024 0.31609776616096497
2066353048 -0.5434388071298599 0.3352016881108284
2067343392 -0.5340116173028946 0.35309015214443207
2068333736 -0.5246934592723846 0.36929653584957123
2069324080 -0.5139500945806503 0.3868703991174698
2070314424 -0.502729058265686 0.4040459021925926
2071304768 -0.49207621812820435 0.42027631402015686
2072295112 -0.4805537164211273 0.43622928857803345
2073285456 -0.4682065546512604 0.45241762697696686
2074275800 -0.4563792422413826 0.4669500142335892
2075266144 -0.44258543848991394 0.48264506459236145
2076256488 -0.43102000653743744 0.49637801200151443
2077246832 -0.4159514009952545 0.5108994990587234
2078237176 -0.40205591171979904 0.5249031186103821
2079227520 -0.3881903737783432 0.5376800894737244
2080217864 -0.3737463504076004 0.5502321720123291
2081208208 -0.35828205198049545 0.5633792579174042
2082198552 -0.34476422518491745 0.5742745250463486
2083188896 -0.32949741184711456 0.5858123004436493
2084179240 -0.3140781745314598 0.5967420190572739
2085169584 -0.2987621948122978 0.6072479635477066
2086159928 -0.28192607313394547 0.617716908454895
2087150272 -0.2670031785964966 0.6267327666282654
2088140616 -0.2506031058728695 0.6362921595573425
2089130960 -0.23397621884942055 0.6449161320924759
2090121304 -0.21817494928836823 0.6532246768474579
2091111648 -0.20125078782439232 0.6610531806945801
2092101992 -0.18452933430671692 0.6685608178377151
2093092336 -0.16745435446500778 0.6757820695638657
2094082680 -0.15079468116164207 0.6816933900117874
2095073024 -0.1339789777994156 0.6874286234378815
2096063368 -0.11848004348576069 0.6932059228420258
2097053712 -0.09917806833982468 0.6977683305740356
2098044056 -0.08358841203153133 0.7027144730091095
2099034400 -0.06675009615719318 0.7068193405866623
2100024744 -0.045498767867684364 0.7108155488967896
2101015088 -0.03178258705884218 0.7140960693359375
2102005432 -0.013030880130827427 0.7169557511806488
2102995776 0.003429234027862549 0.7190266698598862
2103986120 0.021378261502832174 0.7210019081830978
2104976464 0.03986550960689783 0.7227409034967422
2105966808 0.05603174585849047 0.723812460899353
2106957152 0.07299129292368889 0.7242275178432465
2107947496 0.09073003195226192 0.7246259152889252
2108937840 0.10613859817385674 0.7241079956293106
2109928184 0.12303983978927135 0.7244842350482941
2110918528 0.14079922065138817 0.7230541110038757
2111908872 0.1594541259109974 0.7218355685472488
2112899216 0.17380596697330475 0.7202399671077728
2113889560 0.19023576006293297 0.7178422808647156
2114879904 0.20809338614344597 0.7152286469936371
2115870248 0.22427638247609138 0.7121613323688507
2116860592 0.2407400868833065 0.7092037796974182
2117850936 0.2572529837489128 0.7053402215242386
2118841280 0.2732391953468323 0.7013228237628937
2119831624 0.2887125685811043 0.6969965249300003
2120821968 0.304258793592453 0.6929102689027786
2121812312 0.32054316997528076 0.6868713945150375
2122802656 0.3363616392016411 0.6825867146253586
2123793000 0.3519061580300331 0.6753110587596893
2124783344 0.36560483276844025 0.6702706217765808
2125773688 0.38023996353149414 0.6638523191213608
2126764032 0.3954639360308647 0.6566637009382248
2127754376 0.41116466373205185 0.6488799303770065
2128744720 0.42416848987340927 0.6418217569589615
2129735064 0.43788420408964157 0.634803056716919
2130725408 0.4536726027727127 0.6255743205547333
2131715752 0.4644512012600899 0.6187081933021545
2132706096 0.4788614362478256 0.6094896048307419
2133696440 0.4922863692045212 0.600475400686264
2134686784 0.504933625459671 0.5910839885473251
2135677128 0.5173569917678833 0.5819571763277054
2136667472 0.5302978157997131 0.5720151662826538
2137657816 0.5426815450191498 0.5623571276664734
2138648160 0.554863229393959 0.5510988831520081
2139638504 0.5658043473958969 0.5421268939971924
2140628848 0.5776481181383133 0.530306875705719
2141619192 0.5891299992799759 0.5184352397918701
2142609536 0.5997999310493469 0.5078060030937195
2143599880 0.6097709685564041 0.49725666642189026
2144590224 0.621080219745636 0.4845643565058708
2145580568 0.6309195458889008 0.47313012927770615
2146570912 0.6421242356300354 0.45827704668045044
2147561256 0.6503080725669861 0.44865863770246506
2148551600 0.6594192981719971 0.4348594397306442
2149541944 0.6690531522035599 0.4215511679649353
2150532288 0.6775257587432861 0.40891654044389725
2151522632 0.6859891414642334 0.39518892019987106
2152512976 0.6934274584054947 0.3829588145017624
2153503320 0.7012227475643158 0.36915168166160583
2154493664 0.7082078754901886 0.355819933116436
2155484008 0.7154310494661331 0.34170227497816086
2156474352 0.7224582582712173 0.3274756968021393
2157464696 0.7285743057727814 0.31359799951314926
2158455040 0.734541654586792 0.2990194857120514
2159445384 0.7400113046169281 0.2860550880432129
2160435728 0.7462802529335022 0.2691355049610138
2161426072 0.7511770129203796 0.2543617710471153
2162416416 0.7559182941913605 0.24068357795476913
2163406760 0.7598686069250107 0.22548645362257957
2164397104 0.7641652524471283 0.2100280448794365
2165387448 0.767591580748558 0.19474352523684502
2166377792 0.7709438055753708 0.1794281080365181
2167368136 0.7737777680158615 0.16531997546553612
2168358480 0.7765981256961823 0.14819461852312088
2169348824 0.778818815946579 0.1321071945130825
2170339168 0.7805999666452408 0.11836107075214386
2171329512 0.7821190357208252 0.10120658949017525
2172319856 0.7834240347146988 0.08445676229894161
2173310200 0.7839579433202744 0.0696994848549366
2174300544 0.7842543870210648 0.05351131875067949
2175290888 0.7842793166637421 0.03819896746426821
2176281232 0.7841321527957916 0.021813973784446716
2177271576 0.7831705510616302 0.006603487068787217
2178261920 0.7820688188076019 -0.010263793170452118
2179252264 0.7805154174566269 -0.02565196342766285
2180242608 0.7786037921905518 -0.04214388597756624
2181232952 0.7763614654541016 -0.05746902711689472
2182223296 0.7741692960262299 -0.07288747280836105
2183213640 0.7708596289157867 -0.0890963040292263
2184203984 0.7674322128295898 -0.10521319508552551
2185194328 0.7634754329919815 -0.11991669796407223
2186184672 0.759639322757721 -0.13768786191940308
2187175016 0.7547690719366074 -0.15204525366425514
2188165360 0.7502760887145996 -0.16767358779907227
2189155704 0.744658961892128 -0.1835579164326191
2190146048 0.7385997474193573 -0.1987956538796425
2191136392 0.7329142540693283 -0.21422923728823662
2192126736 0.7260774523019791 -0.230252493172884
2193117080 0.7194387018680573 -0.24289125949144363
2194107424 0.7121526300907135 -0.25973276793956757
2195097768 0.703511044383049 -0.2754448503255844
2196088112 0.6961022317409515 -0.28853294998407364
2197078456 0.687386766076088 -0.3031976819038391
2198068800 0.6782929003238678 -0.31815771758556366
2199059144 0.6691441833972931 -0.3321971148252487
2200049488 0.6594226807355881 -0.3468039855360985
2201039832 0.6498681753873825 -0.35959485173225403
2202030176 0.638766273856163 -0.37423428893089294
2203020520 0.6274577379226685 -0.3880610838532448
2204010864 0.6166509240865707 -0.4005918428301811
2205001208 0.6048488467931747 -0.41376200318336487
2205991552 0.5922543704509735 -0.42682216316461563
2206981896 0.5804537683725357 -0.4377257227897644
2207972240 0.5678780972957611 -0.45177900046110153
2208962584 0.5540975034236908 -0.4628678187727928
2209952928 0.5418764799833298 -0.4728008657693863
2210943272 0.5264460295438766 -0.48572611063718796
2211933616 0.5136150419712067 -0.4955103322863579
2212923960 0.49845175445079803 -0.5061828047037125
2213914304 0.48439372330904007 -0.5163438022136688
2214904648 0.468369297683239 -0.5268131196498871
2215894992 0.45460624247789383 -0.5358343869447708
2216885336 0.4375293105840683 -0.5446690022945404
2217875680 0.4218183159828186 -0.5530783534049988
2218866024 0.406338706612587 -0.5605354756116867
2219856368 0.38834619522094727 -0.5691206306219101
2220846712 0.3721987381577492 -0.5764254033565521
2221837056 0.3541993126273155 -0.5841567516326904
2222827400 0.3369077518582344 -0.5907677263021469
2223817744 0.3200199007987976 -0.595542311668396
2224808088 0.3013097196817398 -0.6017351448535919
2225798432 0.2822030335664749 -0.6069105863571167
2226788776 0.26453855633735657 -0.6115835756063461
2227779120 0.24679960310459137 -0.6153309494256973
2228769464 0.2273460254073143 -0.618896946310997
2229759808 0.209123395383358 -0.6219162493944168
2230750152 0.1886691153049469 -0.6248043030500412
2231740496 0.17032019793987274 -0.6264414638280869
2232730840 0.15081846341490746 -0.6280081421136856
2233721184 0.13220113143324852 -0.628909707069397
2234711528 0.11249098554253578 -0.6290818452835083
2235701872 0.09360877797007561 -0.6284626126289368
2236692216 0.0718553252518177 -0.6277910023927689
2237682560 0.05533237662166357 -0.6262807995080948
2238672904 0.0337018882855773 -0.6243153065443039
2239663248 0.014273845590651035 -0.6219542622566223
2240653592 -0.004358172649517655 -0.6187732666730881
2241643936 -0.023999992292374372 -0.614989385008812
2242634280 -0.042143010534346104 -0.6103130578994751
2243624624 -0.06249499134719372 -0.6058304309844971
2244614968 -0.08221263252198696 -0.6001764237880707
2245605312 -0.10068138130009174 -0.5950888991355896
2246595656 -0.11856378987431526 -0.5875849723815918
2247586000 -0.13856074213981628 -0.5803791284561157
2248576344 -0.15727271512150764 -0.5725916624069214
2249566688 -0.17566969245672226 -0.5645028203725815
2250557032 -0.19177040457725525 -0.5558306872844696
2251547376 -0.20951035991311073 -0.5466826260089874
2252537720 -0.22635576874017715 -0.5367091000080109
2253528064 -0.2445613220334053 -0.5261446982622147
2254518408 -0.2596115842461586 -0.5157606303691864
2255508752 -0.27651989459991455 -0.5033676028251648
2256499096 -0.29221776127815247 -0.4923098757863045
2257489440 -0.30557931214571 -0.4808126911520958
2258479784 -0.32239749282598495 -0.46735935658216476
2259470128 -0.3365800455212593 -0.4547667130827904
2260460472 -0.3513757511973381 -0.4410173147916794
2261450816 -0.36661193519830704 -0.4260278046131134
2262441160 -0.3799610137939453 -0.4122326672077179
2263431504 -0.39412714540958405 -0.3962988629937172
2264421848 -0.40713105350732803 -0.38042524456977844
2265412192 -0.4185589700937271 -0.36593905091285706
2266402536 -0.43152521550655365 -0.349241241812706
2267392880 -0.4433409348130226 -0.33212652802467346
2268383224 -0.4534652680158615 -0.31618300825357437
2269373568 -0.4643283039331436 -0.2986379861831665
2270363912 -0.47542934119701385 -0.2792026847600937
2271354256 -0.4835321754217148 -0.26381829380989075
2272344600 -0.49366218596696854 -0.24357130751013756
2273334944 -0.5008004009723663 -0.2278938926756382
2274325288 -0.5088538825511932 -0.2080582231283188
2275315632 -0.5168612450361252 -0.18799155578017235
2276305976 -0.5227434635162354 -0.1712980903685093
2277296320 -0.5288960188627243 -0.15148473158478737
2278286664 -0.534546822309494 -0.13207052648067474
2279277008 -0.5392873585224152 -0.11306957341730595
2280267352 -0.5438551306724548 -0.09392663277685642
2281257696 -0.5472789704799652 -0.07466606795787811
2282248040 -0.5506036132574081 -0.05467071384191513
2283238384 -0.5531776696443558 -0.035573685541749
2284228728 -0.5552536994218826 -0.01608879305422306
2285219072 -0.5567983835935593 0.0027148197405040264
2286209416 -0.557606890797615 0.022755336947739124
2287199760 -0.5578837245702744 0.04223142936825752
2288190104 -0.5579496920108795 0.06117476150393486
2289180448 -0.5569510608911514 0.0814120452851057
2290170792 -0.5556823760271072 0.10037929378449917
2291161136 -0.5538004785776138 0.11897742003202438
2292151480 -0.5513653457164764 0.13801782950758934
2293141824 -0.5481919795274734 0.1574043296277523
2294132168 -0.5450029075145721 0.17568181827664375
2295122512 -0.5404842495918274 0.19510378688573837
2296112856 -0.536653533577919 0.21243218332529068
2297103200 -0.5313533395528793 0.2311905175447464
2298093544 -0.5256043672561646 0.24954937025904655
2299083888 -0.5204313844442368 0.2657374441623688
2300074232 -0.5115042626857758 0.28982557356357574
2301064576 -0.5048820972442627 0.3058142885565758
2302054920 -0.49765798449516296 0.322099044919014
2303045264 -0.4902455359697342 0.3375277817249298
2304035608 -0.4823105037212372 0.35444052517414093
2305025952 -0.47310150414705276 0.3703058511018753
2306016296 -0.46394026279449463 0.38639117032289505
2307006640 -0.45409710705280304 0.40241315215826035
2307996984 -0.4454888626933098 0.4154598042368889
2308987328 -0.43495605140924454 0.4311676099896431
2309977672 -0.42335043102502823 0.4468149468302727
2310968016 -0.4134439378976822 0.46000442653894424
2311958360 -0.4015854150056839 0.47396721690893173
2312948704 -0.39128442853689194 0.4866736903786659
2313939048 -0.37892119586467743 0.5002105832099915
2314929392 -0.3660520017147064 0.5134809911251068
2315919736 -0.3549797609448433 0.5249034762382507
2316910080 -0.3401816710829735 0.5386238843202591
2317900424 -0.32878240942955017 0.5493648052215576
2318890768 -0.31557631492614746 0.5603192001581192
2319881112 -0.30035414546728134 0.5721455216407776
2320871456 -0.2859753593802452 0.5823890417814255
2321861800 -0.27324481308460236 0.5920024663209915
2322852144 -0.25904345512390137 0.6016101688146591
2323842488 -0.24505189061164856 0.6106621325016022
2324832832 -0.23133451119065285 0.6185821443796158
2325823176 -0.21474172919988632 0.628057450056076
2326813520 -0.20148522779345512 0.6357283592224121
2327803864 -0.18736479803919792 0.6425404995679855
2328794208 -0.17034000530838966 0.6504404693841934
2329784552 -0.15599966794252396 0.6567786931991577
2330774896 -0.14201482757925987 0.6630827933549881
2331765240 -0.12460526078939438 0.6695657968521118
2332755584 -0.10977647081017494 0.67497618496418
2333745928 -0.09441974572837353 0.6798411011695862
2334736272 -0.07883603125810623 0.6836338043212891
2335726616 -0.06648932211101055 0.6881443113088608
2336716960 -0.04765183851122856 0.6920724362134933
2337707304 -0.0330691603012383 0.6959228962659836
2338697648 -0.018423615023493767 0.6990357488393784
2339687992 -0.0022544418461620808 0.7014112025499344
2340678336 0.013510850723832846 0.7039766758680344
2341668680 0.027009880635887384 0.7057114392518997
2342659024 0.04662824794650078 0.7069509774446487
2343649368 0.05902180075645447 0.7082845121622086
2344639712 0.07644376717507839 0.7093492746353149
2345630056 0.09178356640040874 0.7097247093915939
2346620400 0.10766969993710518 0.7098297774791718
2347610744 0.12443102151155472 0.7089574187994003
2348601088 0.1393059864640236 0.7082953006029129
2349591432 0.1522766500711441 0.7076366990804672
2350581776 0.17028427496552467 0.7057642638683319
2351572120 0.18625246733427048 0.7040604799985886
2352562464 0.20218593627214432 0.7018293738365173
2353552808 0.21803707256913185 0.6989796012639999
2354543152 0.23243923485279083 0.6962741762399673
2355533496 0.24791688844561577 0.6930720061063766
2356523840 0.26289594918489456 0.6887739151716232
2357514184 0.2773626670241356 0.6846529543399811
2358504528 0.2922798693180084 0.6806432753801346
2359494872 0.308318555355072 0.6749905645847321
2360485216 0.3212175816297531 0.670330747961998
2361475560 0.33477283269166946 0.6655034273862839
2362465904 0.3494386076927185 0.6598964333534241
2363456248 0.3633268103003502 0.6537333577871323
2364446592 0.37687577307224274 0.6474861651659012
2365436936 0.3903202936053276 0.6408472210168839
2366427280 0.40444448590278625 0.633735865354538
2367417624 0.41658492386341095 0.627292737364769
2368407968 0.43006186932325363 0.6193407326936722
2369398312 0.4426386132836342 0.6119658499956131
2370388656 0.4546118453145027 0.6040149927139282
2371379000 0.46967998892068863 0.5942530930042267
2372369344 0.4786343276500702 0.5879410654306412
2373359688 0.4930083379149437 0.5771260261535645
2374350032 0.5058673024177551 0.5669545382261276
2375340376 0.5148689150810242 0.559809222817421
2376330720 0.5285874009132385 0.5479343831539154
2377321064 0.5384698957204819 0.5399156957864761
2378311408 0.5497866421937943 0.5286350548267365
2379301752 0.5613448172807693 0.5171079635620117
2380292096 0.5706584751605988 0.5074210464954376
2381282440 0.5817527323961258 0.496028371155262
2382272784 0.5922144949436188 0.48357514292001724
2383263128 0.6010939180850983 0.4727609157562256
2384253472 0.6112334877252579 0.45997363328933716
2385243816 0.6201921701431274 0.44829700142145157
2386234160 0.6280253678560257 0.4372701570391655
2387224504 0.6378489434719086 0.4229055345058441
2388214848 0.6461067348718643 0.41071875393390656
2389205192 0.6535739302635193 0.39787349104881287
2390195536 0.6619517952203751 0.38383055478334427
