# HZ S RI R 50
5000000000 -0.8003885620518735 -0.024600801009096597
5000495295 -0.7989739618803325 -0.01513289861184986
5000990590 -0.797513601027037 -0.007722440714898862
5001485885 -0.7959410767806204 0.00014298472945627414
5001981180 -0.7943848277393141 0.0073033922695015605
5002476475 -0.7925371496300948 0.01880795263538235
5002971770 -0.7905602580622623 0.02524948473039426
5003467065 -0.788562209982621 0.03134251454550969
5003962360 -0.7861905474411813 0.042686675136026586
5004457655 -0.7837433438552054 0.050802216129867656
5004952950 -0.7812506336914865 0.05762269210658575
5005448245 -0.7789338105603268 0.06609166766467847
5005943540 -0.7759199330681249 0.07231215309155614
5006438835 -0.7727816669564498 0.08316011530788321
5006934130 -0.7701104659783212 0.09021525712389696
5007429425 -0.7665941652498747 0.09798122236603185
5007924720 -0.763313425214667 0.10601566810356944
5008420015 -0.7598931099239149 0.11451720289493862
5008915310 -0.7563255554751346 0.12161058461979816
5009410605 -0.7526592894604331 0.12914309768300308
5009905900 -0.7485764246237906 0.1382543656386827
5010401195 -0.7451360727611341 0.1453888149637925
5010896490 -0.7410061202551189 0.1526086550009878
5011391785 -0.7367794294106332 0.1605715916344994
5011887080 -0.7319154300187763 0.16843815461585396
5012382375 -0.7276504353473061 0.1753385419908323
5012877670 -0.7228231179086786 0.18280935601184242
5013372965 -0.7180332321869699 0.19111613301854385
5013868260 -0.7131891595689874 0.19787760863178655
5014363555 -0.7085172314392892 0.2052230144801893
5014858850 -0.7031916599524649 0.21203015587831797
5015354145 -0.6974900113908868 0.22018216236641533
5015849440 -0.692541916119425 0.2262902667647914
5016344735 -0.6870890479338797 0.23316230977836408
5016840030 -0.6813064468534369 0.24058120658523158
5017335325 -0.6756698269593088 0.24770021673880124
5017830620 -0.6695078360406976 0.2544421584982621
5018325915 -0.6638331695606834 0.2606007174441689
5018821210 -0.6582524588233546 0.2666986318011033
5019316505 -0.6515566110610962 0.27313923678900065
5019811800 -0.6454525150750813 0.2798587773975573
5020307095 -0.6393125151333056 0.28556573390960693
5020802390 -0.631922113267999 0.2928654002515893
5021297685 -0.6256458665195265 0.2985434108658841
5021792980 -0.6185445409072073 0.3050164360749094
5022288275 -0.611962870547646 0.3101918697357178
5022783570 -0.6051409966067264 0.31580858638412074
5023278865 -0.5978081791024459 0.32155789670191315
5023774160 -0.5905652830475255 0.32796447528036016
5024269455 -0.5833046718647605 0.3327467347446241
5024764750 -0.5764208655608328 0.3374848506952587
5025260045 -0.5684008378731576 0.3438312834814975
5025755340 -0.5613169419138055 0.34801458371312993
5026250635 -0.5537826669843573 0.35218755979287
5026745930 -0.545015181365766 0.35876646794770894
5027241225 -0.5374906345417625 0.36262587967671844
5027736520 -0.5297237979738336 0.36749767943432454
5028231815 -0.5229927207294264 0.3704220197702709
5028727110 -0.5136001800235949 0.37657619306915685
5029222405 -0.5056250597301283 0.3799843960686734
5029717700 -0.4967343211174011 0.38498487441163315
5030212995 -0.48942204839304876 0.3872812562867215
5030708290 -0.4805594447411989 0.3931031462393309
5031203585 -0.4716533469526391 0.39639348575943395
5031698880 -0.46246067473762914 0.4005113604821657
5032194175 -0.45587231297242015 0.40179883492620366
5032689470 -0.4456887747112073 0.4066578432133323
5033184765 -0.4370765340955634 0.4090788285983236
5033680060 -0.42861841854296234 0.41210032293671056
5034175355 -0.4189896003196114 0.4150880308527696
5034670650 -0.41025420239097193 0.4175347105452889
5035165945 -0.4005852780844036 0.42072860033888565
5035661240 -0.3916716669735156 0.42256971095737655
5036156535 -0.3828280081874446 0.4248457300035577
5036651830 -0.3734937702354632 0.4265956423784557
5037147125 -0.3642019017746574 0.42792327780472605
5037642420 -0.35560629242344904 0.4298262580444938
5038137715 -0.34543333869231374 0.4316735173526563
5038633010 -0.33622881456425313 0.4329668910879838
5039128305 -0.3268074471699564 0.43424887719907257
5039623600 -0.31804334176214116 0.43506748268478795
5040118895 -0.3083180016592929 0.43638280347773906
5040614190 -0.29863324290827703 0.4368814496617568
5041109485 -0.28913615565550954 0.437504148796985
5041604780 -0.2795346238111195 0.4377031922340393
5042100075 -0.27050924928564773 0.43749165378118815
5042595370 -0.26091270227181285 0.4375635479625903
5043090665 -0.2510447227641156 0.4378284200241691
5043585960 -0.2419886643949308 0.43707623764088277
5044081255 -0.232694442334928 0.43641121293369095
5044576550 -0.22361011646295847 0.43570227372018916
5045071845 -0.21381033408014397 0.4353937741957213
5045567140 -0.20471054237139852 0.4340146874126635
5046062435 -0.19539138361027367 0.43315004047594574
5046557730 -0.1858835463461123 0.4317381146707033
5047053025 -0.1770825778183184 0.4304511578459489
5047548320 -0.16806622947517194 0.42827187400115163
5048043615 -0.1585697774824343 0.4272118085309079
5048538910 -0.1497266002391514 0.42517923995068196
5049034205 -0.14038264359298505 0.42308155643312556
5049529500 -0.13075325912550875 0.42101991490313884
5050024795 -0.12316076418286875 0.4185817539691925
5050520090 -0.11303529378614928 0.41660684817715693
5051015385 -0.10429134533593529 0.4135606869270927
5051510680 -0.09530647099018097 0.4108163918319501
5052005975 -0.08644810436587584 0.4077764906381306
5052501270 -0.07760537768665113 0.4048873029257122
5052996565 -0.0689000773586725 0.4016399163948862
5053491860 -0.0611710832699349 0.3979308746362987
5053987155 -0.05158263170405438 0.39479898779015793
5054482450 -0.04315654404069248 0.3912079616596824
5054977745 -0.034999266855026544 0.38769450783729553
5055473040 -0.025833477903353542 0.38345774380784287
5055968335 -0.018219096292006343 0.37925572771775096
5056463630 -0.009819444759111656 0.37494921997973796
5056958925 -0.0014121439307928085 0.3705098425087176
5057454220 0.006585824205295036 0.36637621176870244
5057949515 0.014514475129544735 0.3613763796655755
5058444810 0.022604334511254962 0.35685982515937403
5058940105 0.030650939400258818 0.3516953509104879
5059435400 0.03856468749673743 0.34720639178627416
5059930695 0.04591377961792444 0.3418024872478686
5060425990 0.05333821181403963 0.3364041024132779
5060921285 0.061147715112096386 0.33097019321040105
5061416580 0.06821427807996147 0.32520661228581477
5061911875 0.07558945213493548 0.3194579419336821
5062407170 0.08353606454635921 0.3139074413399947
5062902465 0.089547036117629 0.3078628574547015
5063397760 0.09730402380228043 0.3018874228000641
5063893055 0.10336557187532124 0.29608765558192607
5064388350 0.11094794736096733 0.28936959567822906
5064883645 0.1171082834664144 0.28338853465883357
5065378940 0.12382918478626954 0.2768473013451225
5065874235 0.1304132977598592 0.2699948972777316
5066369530 0.1364455356409675 0.2634539384590952
5066864825 0.14286935643145912 0.25653230359679774
5067360120 0.14863523213486923 0.2498674180946852
5067855415 0.15504804567286842 0.2427595367557124
5068350710 0.1600784282935293 0.236197187712318
5068846005 0.16564362770632693 0.22922283724734657
5069341300 0.17186888973963887 0.22120467220482073
5069836595 0.17646053198136782 0.21462726514590413
5070331890 0.1813686544957914 0.20750550690450167
5070827185 0.18678882404377586 0.19994944412457316
5071322480 0.1920555492765025 0.19194615593082026
5071817775 0.19631761783047727 0.1852141210907384
5072313070 0.20141592151240298 0.1773412353114078
5072808365 0.20567898138573296 0.16980234964897759
5073303660 0.21000875767908597 0.16199925541877747
5073798955 0.2143044722707648 0.15430161356925964
5074294250 0.21873396086065391 0.146486706639591
5074789545 0.22278810331695958 0.13864010650860636
5075284840 0.22615813267858406 0.13137910083720558
5075780135 0.2302641672523398 0.12277296263920634
5076275430 0.23328445224385513 0.1155238057437696
5076770725 0.23713487700412147 0.10733555414174732
5077266020 0.24029981776287682 0.10002378139056657
5077761315 0.24336843976849004 0.09203832596540451
5078256610 0.24668269016240774 0.08295350443375737
5078751905 0.24959366886239304 0.07523261677277715
5079247200 0.25229681949866445 0.06733013375809319
5079742495 0.2550473573960756 0.058861085850941505
5080237790 0.257442350450315 0.05093291695964964
5080733085 0.2597900315334922 0.04290846637205074
5081228380 0.26194317246738236 0.03484099554388147
5081723675 0.26437597055184214 0.026254500017354365
5082218970 0.26643449381778117 0.01805124902411511
5082714265 0.26821656446707876 0.009986985621875838
5083209560 0.2698368979127784 0.0023244259094721393
5083704855 0.2713979953213742 -0.006357579541049506
5084200150 0.27287620149160685 -0.014678635830549817
5084695445 0.27415542696651657 -0.022980550990292902
5085190740 0.27553440238300125 -0.030978779259480928
5085686035 0.27662874209253413 -0.03944679486908411
5086181330 0.2776982141168494 -0.04763252954733999
5086676625 0.27838203938383804 -0.05557775634684061
5087171920 0.27886973870427983 -0.06395385453575536
5087667215 0.2798102278458445 -0.0720773370642411
5088162510 0.2800362266992268 -0.08022984234910262
5088657805 0.2803950497978612 -0.08801585749575966
5089153100 0.2804805730518542 -0.09649642831400822
5089648395 0.2811402270668431 -0.1045672387668961
5090143690 0.28075999962656123 -0.11259534053112331
5090638985 0.2803931659773776 -0.12059118912408226
5091134280 0.2803467731726797 -0.1287991569230431
5091629575 0.27990632778719854 -0.13673621572946248
5092124870 0.27939937930358083 -0.1449432710283681
5092620165 0.27895417182069077 -0.15221711914790303
5093115460 0.27803067941414683 -0.16054444407161914
5093610755 0.27683511846943903 -0.16875726376709185
5094106050 0.2760169694298192 -0.17649057115379133
5094601345 0.27500050789431524 -0.1841474497004559
5095096640 0.2739764530407755 -0.19171587887563205
5095591935 0.27250683621356364 -0.1998270404966254
5096087230 0.27128660051446213 -0.2073589186919363
5096582525 0.26955069993671615 -0.2152488372827831
5097077820 0.26828113982551977 -0.2224151374478089
5097573115 0.2655439078807831 -0.23131577043156876
5098068410 0.26462700806165995 -0.23767361986009697
5098563705 0.2626523971557617 -0.2452757052685085
5099059000 0.260041743516922 -0.25324129744579915
5099554295 0.2574530636009417 -0.26060888798613296
5100049590 0.25615539048847397 -0.2700028388123763
5100544885 0.2546050046619616 -0.2764861317057359
5101040180 0.25195164115805374 -0.28388319046873794
5101535475 0.24965866929606387 -0.2904669187570873
5102030770 0.2462616319719114 -0.29842427529786764
5102526065 0.24360368675307223 -0.30511628640325444
5103021360 0.24098379361002067 -0.31201880542855515
5103516655 0.23832331519377858 -0.31858532209145396
5104011950 0.23248483632740222 -0.3271927425735875
5104507245 0.23193779744599996 -0.332254874078851
5105002540 0.22827120517429553 -0.3392566756198281
5105497835 0.224711664413151 -0.34608189055794164
5105993130 0.22052101477196343 -0.3530767277667397
5106488425 0.21814784250761332 -0.3588126097854815
5106983720 0.2138784347396148 -0.3655299356109218
5107479015 0.2098165091715361 -0.3723803131203902
5107974310 0.20712384581565857 -0.37806027186544316
5108469605 0.20234773896242442 -0.3840872614007247
5108964900 0.19848629753840596 -0.3907188694728048
5109460195 0.19480303871004204 -0.3963460592847121
5109955490 0.19076008624152133 -0.4027556635831532
5110450785 0.18620853988747849 -0.40831049806193304
5110946080 0.1822325359833868 -0.41407610868152817
5111441375 0.1779321424270931 -0.4199252803074686
5111936670 0.1734139982022737 -0.4256622336412731
5112431965 0.16890148426357068 -0.4308823096124749
5112927260 0.16432153394347743 -0.4365999290817662
5113422555 0.15977510809898376 -0.4423123880436546
5113917850 0.1554923779086063 -0.4476066937572078
5114413145 0.1508013417846278 -0.4529345631599426
5114908440 0.14579082162756668 -0.45794640089336197
5115403735 0.14161586683047445 -0.4627697765827179
5115899030 0.13684217474962534 -0.4685662467228739
5116394325 0.13179521890063034 -0.47330430306886373
5116889620 0.12656646653225548 -0.4779321739548131
5117384915 0.12182022239032544 -0.4827399300901513
5117880210 0.11721512361576683 -0.4877064181001563
5118375505 0.11154197862273768 -0.4924349518198716
5118870800 0.1061502522543857 -0.4971462347005543
5119366095 0.10147358202620556 -0.5007826513365695
5119861390 0.09589297089137529 -0.5061031799567374
5120356685 0.09031879470536583 -0.5103889829234073
5120851980 0.08459980236856561 -0.5151512277753729
5121347275 0.0801645889878273 -0.5184125743414226
5121842570 0.07454084879473637 -0.5228634037469563
5122337865 0.0691749457465975 -0.5266183583359969
5122833160 0.06285895171918367 -0.530363424828178
5123328455 0.05774170474002236 -0.5344806188031247
5123823750 0.052610497725637334 -0.5380955934524536
5124319045 0.04686216951200837 -0.5418458486858168
5124814340 0.04052722297216717 -0.5454061909725791
5125309635 0.03534135947886266 -0.5489321100084406
5125804930 0.02956898922198697 -0.5521868561443529
5126300225 0.023896498409541028 -0.5556089909453141
5126795520 0.01759076187093007 -0.5583738433687311
5127290815 0.011877680883595818 -0.5617352786817049
5127786110 0.006238641756537713 -0.5651304125785828
5128281405 -5.5482464009209685e-05 -0.5675620028847143
5128776700 -0.005639104172587395 -0.570631670324426
5129271995 -0.012124411026506047 -0.573395101647628
5129767290 -0.017883234216194404 -0.5761834979057312
5130262585 -0.024300109497026393 -0.5786069066900956
5130757880 -0.030080123559424753 -0.5811725290198075
5131253175 -0.03621199805485575 -0.5831861464600814
5131748470 -0.042575220332333914 -0.5854514241218567
5132243765 -0.048521575174833596 -0.5877416667185331
5132739060 -0.0548235264263655 -0.5901995489471837
5133234355 -0.05986455102500163 -0.5919859095623619
5133729650 -0.06712983431000459 -0.5938204715126439
5134224945 -0.07266813398976076 -0.5959727136712325
5134720240 -0.07907971857409728 -0.5973178838428698
5135215535 -0.0852321982383728 -0.5991286415802805
5135710830 -0.09102838721714522 -0.6003420854869642
5136206125 -0.10011436005956248 -0.6014223694801331
5136701420 -0.10429603724103224 -0.6035116503113195
5137196715 -0.10969860381201695 -0.6047266502129404
5137692010 -0.11560199801859103 -0.6061754477651495
5138187305 -0.12376798807006133 -0.606932050303409
5138682600 -0.12762625437033803 -0.6083322261509142
5139177895 -0.1349362346686815 -0.6094610283249303
5139673190 -0.1421397234264173 -0.609734268564927
5140168485 -0.14601207485324458 -0.6106290660406414
5140663780 -0.15534802408594833 -0.6111339644381875
5141159075 -0.1593920525751616 -0.6118659941773665
5141654370 -0.16430263534972542 -0.613061082990546
5142149665 -0.1736527814676887 -0.6121698523822584
5142644960 -0.1788758949229592 -0.6133708326440108
5143140255 -0.1848415559843967 -0.6136553914923417
5143635550 -0.19083189180022792 -0.6137675423371164
5144130845 -0.19626928630628085 -0.6133131541703877
5144626140 -0.20341370764531588 -0.613440425772416
5145121435 -0.20937364509231166 -0.6134592545659918
5145616730 -0.21552600358661853 -0.613449143735986
5146112025 -0.2220300239951987 -0.61311915359999
5146607320 -0.22740642726421356 -0.6128849606764945
5147102615 -0.2318625387392546 -0.6131284080053631
5147597910 -0.240785204266247 -0.6113077778565256
5148093205 -0.24521137695563466 -0.6113938438264948
5148588500 -0.252399775542711 -0.6091781415437397
5149083795 -0.2579723925966966 -0.6096144914627075
5149579090 -0.2617992554840289 -0.6097466192747417
5150074385 -0.2731621186984213 -0.6067482766352201
5150569680 -0.2760990277716988 -0.6070931020535921
5151064975 -0.281724823148627 -0.605860710144043
5151560270 -0.2875732654019406 -0.6044639474467227
5152055565 -0.2934186317418751 -0.603148479210703
5152550860 -0.2989735650388818 -0.6019483522364968
5153046155 -0.30501273744984675 -0.6004371643066406
5153541450 -0.31126637207834346 -0.5986353472659462
5154036745 -0.3168585394558154 -0.5969480464332982
5154532040 -0.3227452118145792 -0.5952868273383692
5155027335 -0.3279649207466527 -0.5933878421783447
5155522630 -0.3345744766687092 -0.5914929948355022
5156017925 -0.3397900822915529 -0.5896863780523601
5156513220 -0.34506689090477793 -0.5881449611563432
5157008515 -0.3502160624453896 -0.5854209755596361
5157503810 -0.35588915881357697 -0.582918013397016
5157999105 -0.3612591969339471 -0.5805738380080775
5158494400 -0.3670078594433634 -0.5784033066348025
5158989695 -0.3721706365284167 -0.5762851897038912
5159484990 -0.3777271446428801 -0.573050928743262
5159980285 -0.3828965754885423 -0.5707652160995885
5160475580 -0.38817296686925384 -0.5680299965958846
5160970875 -0.39295655175259236 -0.5655261340894198
5161466170 -0.39825685714420517 -0.5624948740005493
5161961465 -0.40289794928149175 -0.5595469066971227
5162456760 -0.4083387616433595 -0.5563791958909285
5162952055 -0.41305125543945714 -0.5537002714056718
5163447350 -0.4184593197546507 -0.5499174218428763
5163942645 -0.42380132800654363 -0.5468519361395585
5164437940 -0.4271388508771595 -0.5441986510628148
5164933235 -0.43222467993435104 -0.5404915119472303
5165428530 -0.4371165554774435 -0.5372012947735033
5165923825 -0.4424265497609189 -0.53345556321897
5166419120 -0.44539217729317515 -0.5306800164674458
5166914415 -0.45243922660225316 -0.5252753778507835
5167409710 -0.45424478461867884 -0.5237572099033155
5167905005 -0.46047968613473994 -0.518029018452293
5168400300 -0.4632038928960499 -0.515789690770601
5168895595 -0.46890077779167577 -0.5105343931599667
5169390890 -0.472791850566864 -0.5069522512586493
5169886185 -0.4752434021548221 -0.5047639137820193
5170381480 -0.4813432724852311 -0.49911244605716903
5170876775 -0.4839669544445841 -0.49575670612485784
5171372070 -0.48832674246085317 -0.4911810991011168
5171867365 -0.49227644424689443 -0.48682752722188044
5172362660 -0.496655169286226 -0.482164486458427
5172857955 -0.49940468606195954 -0.4786000314511751
5173353250 -0.5029226635631762 -0.47391833600245026
5173848545 -0.5066216148828205 -0.4699394514686183
5174343840 -0.510328986142811 -0.46513830203759043
5174839135 -0.515479746617769 -0.4581659671507384
5175334430 -0.5170658732715406 -0.45595679314512955
5175829725 -0.5198933356686642 -0.45196548574849177
5176325020 -0.5238778402930812 -0.44653580220122085
5176820315 -0.526785533679159 -0.44172227853222895
5177315610 -0.529321363097743 -0.437166408488625
5177810905 -0.5335061487398649 -0.43152685855564316
5178306200 -0.5348014423721715 -0.4282205387165672
5178801495 -0.5384701929594341 -0.4222696219619952
5179296790 -0.54099692796406 -0.41798892930934306
5179792085 -0.5445740756235624 -0.41145537401500504
5180287380 -0.5463467867750871 -0.407424553444511
5180782675 -0.5482539409085324 -0.4028683304786682
5181277970 -0.5514730717006483 -0.3967739390699487
5181773265 -0.5531960568929973 -0.39248529076576233
5182268560 -0.5552903821593836 -0.3876305849928605
5182763855 -0.5572781280467385 -0.3821848756388614
5183259150 -0.5597909249757466 -0.3764242655352542
5183754445 -0.561498827055881 -0.37077255782328156
5184249740 -0.5639939465020832 -0.3658705934097892
5184745035 -0.565432093645397 -0.3601969715796019
5185240330 -0.5673876153795343 -0.3549740565450568
5185735625 -0.5689219205003035 -0.3491400543012117
5186230920 -0.570233194451583 -0.34450479714494003
5186726215 -0.5707234740257263 -0.3384534951887633
5187221510 -0.5728167295455933 -0.3338711136265805
5187716805 -0.5740662373994526 -0.3281765799773367
5188212100 -0.5753677926565471 -0.32232270429008886
5188707395 -0.5764556401654294 -0.31659990235378865
5189202690 -0.5772578747648942 -0.3112183872022127
5189697985 -0.577680092108877 -0.3065722474926396
5190193280 -0.578863009026176 -0.3002292215824127
5190688575 -0.5796259359309548 -0.2940338991190258
5191183870 -0.5794806198069924 -0.2895779045004594
5191679165 -0.5804135548441034 -0.2835520411792554
5192174460 -0.5807743888152274 -0.2774088868969365
5192669755 -0.5808544221677279 -0.2721783299195139
5193165050 -0.5814335220738461 -0.26642047731499924
