# HZ S RI R 50
5000000000 0.3084358086711482 0.41433591591684443
5000495295 0.31690855088986847 0.40584695966620193
5000990590 0.3248303705140164 0.397142607914774
5001485885 0.3326667798192878 0.3884649135564503
5001981180 0.34024976742895024 0.3794305089272951
5002476475 0.34685764187260676 0.37142031600600794
5002971770 0.3551053985169059 0.36181077204252543
5003467065 0.36249493611486333 0.35219074707282216
5003962360 0.36835931790502446 0.3442587695623699
5004457655 0.3749663171015288 0.3347424111868206
5004952950 0.38243666448091207 0.32505236017076594
5005448245 0.3882418698386142 0.31647692542327077
5005943540 0.3948379425626052 0.30647122859954834
5006438835 0.4016641645055068 0.2963417893961856
5006934130 0.40700954669400263 0.2874046344506113
5007429425 0.4133343947561164 0.27792479333124664
5007924720 0.4189235724900898 0.2676586555807214
5008420015 0.42414742237643194 0.2583974631209123
5008915310 0.4299324546989642 0.24734157245410116
5009410605 0.43480913576326874 0.23836843983123177
5009905900 0.4396346964334187 0.22806371277884432
5010401195 0.44450972425310237 0.21822533638853775
5010896490 0.44936707929561015 0.20771463058496775
5011391785 0.4536601148153606 0.1982187071913167
5011887080 0.45830822147821126 0.18760263998257487
5012382375 0.46241242164059687 0.17786596558595957
5012877670 0.4667467114172484 0.16711207204743436
5013372965 0.470639915842759 0.15660906151721352
5013868260 0.4740875818227467 0.14636140042229703
5014363555 0.4777459188511497 0.1360979997798016
5014858850 0.4810031730877726 0.1258393553526778
5015354145 0.48412812854114334 0.1157482297796952
5015849440 0.48727445382820933 0.10453538596630096
5016344735 0.4902772574048293 0.0952447495962444
5016840030 0.4931834810658505 0.08377606186427568
5017335325 0.49549605971888494 0.07326093120010276
5017830620 0.4980351375906091 0.06307278730367359
5018325915 0.5001218334624642 0.05284394853209194
5018821210 0.5023108720779419 0.04188454523682594
5019316505 0.5040277650481776 0.03202750347554684
5019811800 0.505699264375787 0.021443199072229236
5020307095 0.5074795327688518 0.010662020331150606
5020802390 0.5089979673686781 0.0006415140079824548
5021297685 0.5104708671569824 -0.009890328994707057
5021792980 0.5112433151194924 -0.020423920236920055
5022288275 0.5123476009619864 -0.031247617284718313
5022783570 0.5132015002401251 -0.04139765842180503
5023278865 0.5139142055260507 -0.051334804021998456
5023774160 0.514515895592539 -0.06134448808274771
5024269455 0.5150487642539175 -0.07254249014352497
5024764750 0.5151059376566034 -0.08220184045402627
5025260045 0.5154445453693992 -0.0925105300388838
5025755340 0.5152812286427146 -0.10343339843185324
5026250635 0.514843087447317 -0.11300932263073168
5026745930 0.5149075075199729 -0.12302177948387046
5027241225 0.5138492333261591 -0.1342652126362449
5027736520 0.5138174954213595 -0.1432288281227413
5028231815 0.51277273265939 -0.15468909787504295
5028727110 0.512043413363005 -0.16318187823421076
5029222405 0.5111782080248782 -0.1730932216895254
5029717700 0.5094960457400272 -0.18435119170891612
5030212995 0.5084306597709656 -0.19347871840000153
5030708290 0.5070475998677706 -0.20305863728648738
5031203585 0.5057106614112854 -0.21336572656505987
5031698880 0.5042564210138822 -0.22252318106199565
5032194175 0.5024940089175576 -0.23219734351885946
5032689470 0.5006187636601297 -0.24158772355631777
5033184765 0.4988409045495485 -0.25122883210056707
5033680060 0.49591714771170364 -0.2613920647847025
5034175355 0.49405836274749354 -0.2697976137462415
5034670650 0.49200437257164403 -0.27932750080761154
5035165945 0.48955286960852773 -0.2883251858384986
5035661240 0.48594422873697785 -0.2985017738844219
5036156535 0.48403939134196233 -0.30713017833860295
5036651830 0.4818387768770519 -0.3160964438789769
5037147125 0.478403870996676 -0.32575695295082896
5037642420 0.47541336323085587 -0.33382630505059896
5038137715 0.4719365992044148 -0.34342614757387263
5038633010 0.46896380970352575 -0.3522427129118066
5039128305 0.465910604125575 -0.3603973357301009
5039623600 0.4621264746314601 -0.3699408393157156
5040118895 0.45896657203373153 -0.37805616228204025
5040614190 0.45542742860944646 -0.38711461424827576
5041109485 0.4515177246771361 -0.39578708222037867
5041604780 0.4482786169177608 -0.40335550276856674
5042100075 0.44368693389390645 -0.41259831660672236
5042595370 0.4396231409750487 -0.42085064555469315
5043090665 0.43624614100707204 -0.42856706600440175
5043585960 0.4319926249353509 -0.4368404746055603
5044081255 0.4280332624912262 -0.4452335614907114
5044576550 0.4234472717109479 -0.45291359487332794
5045071845 0.4191329667442723 -0.4615349722535987
5045567140 0.4148713475779483 -0.4691028830252196
5046062435 0.4100661920873742 -0.4763369293589341
5046557730 0.4049670962910903 -0.4851158951458178
5047053025 0.4009148917700115 -0.49195207577002675
5047548320 0.39512153361973007 -0.49907606369570684
5048043615 0.3904479334228917 -0.5075256824493408
5048538910 0.38601071426742956 -0.514626283394663
5049034205 0.38121224233978673 -0.5216809511184692
5049529500 0.37549054152087163 -0.5291981665711654
5050024795 0.37356452408589813 -0.5338679206998724
5050520090 0.3658101903764825 -0.5429152689482036
5051015385 0.36059202175391347 -0.5493818270532709
5051510680 0.35493957055242437 -0.5570374005719235
5052005975 0.34984645718022395 -0.5634267047831887
5052501270 0.3441627213829442 -0.5703570717259457
5052996565 0.3380025327205658 -0.5772869335977655
5053491860 0.3327573428028508 -0.5844041956098456
5053987155 0.32734631237230805 -0.5903132495127226
5054482450 0.3213767048559691 -0.5965844424147355
5054977745 0.3146725406772212 -0.6034943335934689
5055473040 0.3093061211862062 -0.6090620348328039
5055968335 0.3027838060730382 -0.6160044105429399
5056463630 0.2972343218953986 -0.6218784953418531
5056958925 0.29125940799713135 -0.6277423187306053
5057454220 0.28480283053297745 -0.6334718873626307
5057949515 0.27856954461649847 -0.6397518860666376
5058444810 0.27248236380125346 -0.6451651579455325
5058940105 0.2660837440114272 -0.6508087390347531
5059435400 0.2602500241053732 -0.6563273511434856
5059930695 0.2538045676130998 -0.6616911103850917
5060425990 0.24716892289487938 -0.6678879574725503
5060921285 0.24044212620509298 -0.672636236015119
5061416580 0.23336610903865412 -0.6778065436764767
5061911875 0.22701190725753181 -0.6834252006129214
5062407170 0.2207624763250351 -0.6878876748837923
5062902465 0.21363503995694613 -0.6931923125919542
5063397760 0.2071440886510046 -0.6980050206184387
5063893055 0.2008401084887354 -0.7027594353023329
5064388350 0.19365423290353073 -0.7080712914466858
5064883645 0.185856147032035 -0.7126928536515487
5065378940 0.17997669310946213 -0.7166972756385803
5065874235 0.17166975689561745 -0.7215035651859484
5066369530 0.16615859928884005 -0.7254146117913095
5066864825 0.15950273526342293 -0.7294277642902575
5067360120 0.15051483402126714 -0.7347125003212377
5067855415 0.14524270201984205 -0.7383109425243578
5068350710 0.13814652201376462 -0.7421895014612299
5068846005 0.13046545888248243 -0.746667808608005
5069341300 0.12434727345642291 -0.7498773869715238
5069836595 0.11284572709547847 -0.7543622223954451
5070331890 0.10917841015677703 -0.7574415802955627
5070827185 0.10344627421153219 -0.7608559790410494
5071322480 0.09304345712849968 -0.7651431497774626
5071817775 0.08651815590105559 -0.7681926269280283
5072313070 0.08097002027850402 -0.7709836081454629
5072808365 0.07011394124282033 -0.7748081433145624
5073303660 0.065660260617733 -0.7779253815349779
5073798955 0.05922155219473337 -0.7804201559016579
5074294250 0.046818779683426806 -0.7838910943583438
5074789545 0.04354966647530857 -0.7867034422723871
5075284840 0.03573402125192316 -0.789147298586996
5075780135 0.02666501171494785 -0.7926131079071447
5076275430 0.02030555217673904 -0.794624504290129
5076770725 0.011758121416756981 -0.7975415869763023
5077266020 0.004282163112963501 -0.800045226749621
5077761315 -0.003312175652306331 -0.8026415235117862
5078256610 -0.011022491674674185 -0.8049001756467318
5078751905 -0.018464769089692516 -0.807115912437439
5079247200 -0.02534854725787514 -0.8090712365351225
5079742495 -0.0332103724542417 -0.810965961531589
5080237790 -0.04042827004664823 -0.814058034043563
5080733085 -0.04932683431788495 -0.8152414466205397
5081228380 -0.05827218999988154 -0.8167848492923536
5081723675 -0.06361867350183036 -0.8182906100624486
5082218970 -0.07225942415626425 -0.8205699795170834
5082714265 -0.0808239096873685 -0.8214389650445235
5083209560 -0.08594327223928351 -0.8229522328627737
5083704855 -0.09520668693278965 -0.8248902214200873
5084200150 -0.10384664606106908 -0.8252769049845243
5084695445 -0.11066379594175439 -0.8269542894865337
5085190740 -0.11946473584363335 -0.8275851795547887
5085686035 -0.12705662689710917 -0.8284706912542644
5086181330 -0.13493276505093826 -0.8291855674040945
5086676625 -0.14217903582673325 -0.8306904999833358
5087171920 -0.14969241619110107 -0.8313435912132263
5087667215 -0.15680953389719912 -0.8321289200531808
5088162510 -0.16624552717334345 -0.8326796105033473
5088657805 -0.17332518963437332 -0.8335581045401724
5089153100 -0.18122398853302002 -0.8336647247013292
5089648395 -0.18944922403285377 -0.8341732840788992
5090143690 -0.19751326975069547 -0.8340534724687275
5090638985 -0.20448385728032967 -0.8338945194294578
5091134280 -0.212717017060832 -0.8339790607753553
5091629575 -0.22113681623810216 -0.8338771462440491
5092124870 -0.2282855189160297 -0.8337584326141759
5092620165 -0.23734125024393984 -0.8332148758988631
5093115460 -0.24400563067511508 -0.8332363680789345
5093610755 -0.2522217741138057 -0.8326415701916343
5094106050 -0.260025093429967 -0.8321796028237594
5094601345 -0.2677215337753296 -0.8313976024326525
5095096640 -0.275905778533534 -0.830629144844256
5095591935 -0.2834621197298953 -0.8294710328704432
5096087230 -0.28991693728848505 -0.828801547226153
5096582525 -0.2974611222743988 -0.8277479661138434
5097077820 -0.30853453278541565 -0.8262458067191275
5097573115 -0.31525564193725586 -0.8248350306561119
5098068410 -0.3218509931313364 -0.8241406804636905
5098563705 -0.32936294768985946 -0.8229588991717288
5099059000 -0.336208523888337 -0.821294693570388
5099554295 -0.3459805971697757 -0.8192725965851232
5100049590 -0.3521037148801904 -0.8187347399561029
5100544885 -0.36118870189315394 -0.8169114056386446
5101040180 -0.3687464751695332 -0.8145991155975744
5101535475 -0.37820190975540563 -0.8115399260269968
5102030770 -0.38303276739622416 -0.8113037410535311
5102526065 -0.3925156107074336 -0.8079177298043904
5103021360 -0.39572300409015854 -0.8074145160223308
5103516655 -0.40524772593849584 -0.8041884899139404
5104011950 -0.41205821539226334 -0.8021951945204484
5104507245 -0.420064146581449 -0.7992655540767469
5105002540 -0.42953809468369736 -0.7954417247521249
5105497835 -0.43546770277776214 -0.7939269291727167
5105993130 -0.442355719051863 -0.7911159458913302
5106488425 -0.44906842708587646 -0.7886282895740709
5106983720 -0.45592223813659266 -0.7861843705177307
5107479015 -0.4637485052409925 -0.7823660028608221
5107974310 -0.4730288072636253 -0.7779333277752525
5108469605 -0.477634155436566 -0.7764118784352353
5108964900 -0.4846634598154771 -0.7727354043408444
5109460195 -0.4934393340035489 -0.7686608810173837
5109955490 -0.49968859553337097 -0.7658698276469582
5110450785 -0.5074880217251024 -0.7612657923447458
5110946080 -0.5147221966793663 -0.757476103933234
5111441375 -0.5206122837568584 -0.7545937770291379
5111936670 -0.527751480278216 -0.7506732909302962
5112431965 -0.5343783874260751 -0.7471781498507449
5112927260 -0.5402372134359259 -0.743510691743148
5113422555 -0.54710369674783 -0.7390110712302359
5113917850 -0.5538730370370966 -0.7350762172749168
5114413145 -0.5608208430440802 -0.7307397064409757
5114908440 -0.5679147557208413 -0.7261925622036582
5115403735 -0.5735682249069214 -0.7223853813974481
5115899030 -0.5800110101699829 -0.7180303805752805
5116394325 -0.5864927894190738 -0.7133015864773801
5116889620 -0.592584562929053 -0.709131469852046
5117384915 -0.5990663296297977 -0.703781479283383
5117880210 -0.6063777365182575 -0.698537572434074
5118375505 -0.6111432847223783 -0.6945593859020033
5118870800 -0.6182839243035567 -0.6895289577935871
5119366095 -0.624584646601426 -0.6831216780762923
5119861390 -0.6295980717006483 -0.6794048735969945
5120356685 -0.6356444358825684 -0.6740726326641283
5120851980 -0.6402871796959325 -0.6702340496213812
5121347275 -0.6464335228267469 -0.6642035904683565
5121842570 -0.6538989230206138 -0.6579469254142359
5122337865 -0.6583795233776695 -0.6533322020580894
5122833160 -0.6645872875263816 -0.6467212062132986
5123328455 -0.6698482569895292 -0.6423762503423189
5123823750 -0.6751037836074829 -0.6365218852695665
5124319045 -0.6803003486834074 -0.631501411136828
5124814340 -0.6867561214848569 -0.6246453460894132
5125309635 -0.6911428162926122 -0.6195107165135836
5125804930 -0.6967322198968184 -0.6135467949666475
5126300225 -0.7020792553299352 -0.6071768904987135
5126795520 -0.7071925370316756 -0.6011390623293424
5127290815 -0.7121963061784443 -0.5951358205393741
5127786110 -0.7168952195267928 -0.5889689985074495
5128281405 -0.7218258537744221 -0.5829994678497314
5128776700 -0.7274306855703655 -0.5758210765688043
5129271995 -0.7314361710297433 -0.5700186836092096
5129767290 -0.7364901429728458 -0.5632207895580091
5130262585 -0.7412750971944708 -0.556562392335189
5130757880 -0.7453756740218714 -0.5510413740810595
5131253175 -0.7504525435598273 -0.54327581744445
5131748470 -0.7542916724556371 -0.5367310047149658
5132243765 -0.7576742580062464 -0.5315750366763065
5132739060 -0.763109100492377 -0.5235841901678788
5133234355 -0.7670670088968778 -0.5160506587279471
5133729650 -0.7704393016664606 -0.5102570245140478
5134224945 -0.7752040091313814 -0.5021190392343622
5134720240 -0.7786796249841389 -0.49564378669387416
5135215535 -0.7826523718081022 -0.4884899462524213
5135710830 -0.786445699240032 -0.48089061912737396
5136206125 -0.7902529208283675 -0.4742089164884467
5136701420 -0.7942996181939778 -0.4658984306611513
5137196715 -0.7961130581404033 -0.46020879870966863
5137692010 -0.8007828342287164 -0.4510943277886039
5138187305 -0.8037637440781844 -0.4447063286053507
5138682600 -0.8076474133290743 -0.435510305981887
5139177895 -0.8097900277689883 -0.4297172286008534
5139673190 -0.8126928869046663 -0.4223895512129131
5140168485 -0.8166198040309706 -0.41241472802664103
5140663780 -0.8184112780972531 -0.40764132142066956
5141159075 -0.8228354924603513 -0.3958304163656737
5141654370 -0.8247204705288536 -0.3889912962913513
5142149665 -0.824815056825939 -0.38592993428832606
5142644960 -0.8304384789968792 -0.3726766172208284
5143140255 -0.8318270037048742 -0.3655998769559358
5143635550 -0.8342732347940144 -0.35809408990960373
5144130845 -0.836110748742756 -0.3489360197594291
5144626140 -0.8384580078877901 -0.3417315451722396
5145121435 -0.8399043240045246 -0.33385321654771505
5145616730 -0.8420713857600564 -0.3247415297909787
5146112025 -0.8445116030542474 -0.314862880267595
5146607320 -0.8445982682077509 -0.30981351513611644
5147102615 -0.8483518707124811 -0.29662466362902995
5147597910 -0.8478680378512332 -0.2918812554133566
5148093205 -0.8494940462865328 -0.28265663824583354
5148588500 -0.8510340954128065 -0.2727332491623728
5149083795 -0.8509851694107056 -0.2672298205526252
5149579090 -0.8524890636142931 -0.2565439861071737
5150074385 -0.8549159514276605 -0.24419590360239932
5150569680 -0.8544525504112244 -0.2382737586372777
5151064975 -0.8546795719548276 -0.23023522919730136
5151560270 -0.8543733295641447 -0.223662279154125
5152055565 -0.855456104404048 -0.21189214289188385
5152550860 -0.8553608310850043 -0.20368309083737826
5153046155 -0.855533872780047 -0.19508693955446543
5153541450 -0.8549793550842687 -0.18720281359396482
5154036745 -0.8547057697647497 -0.17780656798889763
5154532040 -0.8548466029920077 -0.16874424093648008
5155027335 -0.8540466302319577 -0.1592298659839128
5155522630 -0.8536066507038317 -0.1502578344784285
5156017925 -0.8527165337612754 -0.14068380233488584
5156513220 -0.8517254653729891 -0.13294482936984614
5157008515 -0.8506506869667455 -0.12389218689579713
5157503810 -0.8494299650192261 -0.11493733721344095
5157999105 -0.8483054920246726 -0.10482506689272429
5158494400 -0.8464198175229525 -0.09634145506118473
5158989695 -0.8446707223591051 -0.0871631903083701
5159484990 -0.8431475978148611 -0.07831717400174391
5159980285 -0.8409690825562728 -0.06987604342008892
5160475580 -0.8390696676153886 -0.060433499907192434
5160970875 -0.8368404507637024 -0.051729758319101836
5161466170 -0.8343440984424791 -0.042092709753074144
5161961465 -0.8316042611473485 -0.033573820990951436
5162456760 -0.829197667146984 -0.024254983094962018
5162952055 -0.8263722250336095 -0.015367002030344386
5163447350 -0.8234307201285112 -0.007231412259371657
5163942645 -0.8204497004810133 0.0021074141718839343
5164437940 -0.8170688999326605 0.010319632919211136
5164933235 -0.8135091631036055 0.01899096556007862
5165428530 -0.8101046932371039 0.029075738042593002
5165923825 -0.8063135241207323 0.03736397447554689
5166419120 -0.8026728096761202 0.04559237529572688
5166914415 -0.7985240126910963 0.054589992487116865
5167409710 -0.7944109126141197 0.06330226440178721
5167905005 -0.7901599093487388 0.07162525661681828
5168400300 -0.7856035671736065 0.08069854425756555
5168895595 -0.781054205016086 0.08919358724041988
5169390890 -0.7766859625515184 0.09592012355202123
5169886185 -0.7716553368066487 0.10593930749516738
5170381480 -0.7665396238628187 0.11430678751907851
5170876775 -0.7617503843809429 0.12020446164043326
5171372070 -0.7560213647390667 0.13133866222281204
5171867365 -0.7510008811950684 0.13806396644366414
5172362660 -0.7451761019857306 0.14638707355449074
5172857955 -0.7390442051385578 0.15647219592019132
5173353250 -0.7337327662267183 0.16191427017513074
5173848545 -0.7276867910435325 0.17009133649499794
5174343840 -0.7213616277042189 0.17931557015368813
5174839135 -0.7160699210668865 0.18384212804468056
5175334430 -0.7095083562951339 0.19231867947076497
5175829725 -0.7008745858543798 0.2047026227963598
5176325020 -0.695919836822309 0.20743220260268763
5176820315 -0.6887031448514838 0.21571471424479233
5177315610 -0.6824607033478586 0.22131437612207314
5177810905 -0.6750052790892752 0.22944655857588114
5178306200 -0.6663598010414525 0.24015283349313235
5178801495 -0.6599954680392617 0.24477597286826686
5179296790 -0.6533617690989846 0.24908901437332756
5179792085 -0.6448761538455361 0.25809849877106517
5180287380 -0.6375848211740193 0.2632059172580117
5180782675 -0.6284431375955281 0.27238154725024577
5181277970 -0.6208156660983437 0.2772669227499711
5181773265 -0.6123342168958563 0.2846273466160423
5182268560 -0.6057671245775724 0.2876764237880707
5182763855 -0.5966790914535522 0.2950466353642313
5183259150 -0.5882657734971297 0.30078218798888356
5183754445 -0.5792511670212996 0.30651208130936874
5184249740 -0.5713699773738259 0.31170478149464254
5184745035 -0.5617164969444275 0.3181376708181281
5185240330 -0.5535484771979483 0.3221239039772435
5185735625 -0.5440801727144342 0.3280865048107348
5186230920 -0.5351586498712239 0.33280439439572784
5186726215 -0.526570549136714 0.33697984720531265
5187221510 -0.5164790498582941 0.3426437534784016
5187716805 -0.5078979887460408 0.346499491679041
5188212100 -0.497597663026107 0.3515419254177495
5188707395 -0.4884957529996571 0.3554283160912363
5189202690 -0.4786088733296645 0.3595068988047148
5189697985 -0.4686995336883946 0.3636867137331712
5190193280 -0.4592440708687431 0.3669342477070658
5190688575 -0.44890712593731125 0.37119466223214803
5191183870 -0.4390654234509719 0.3747597007375014
5191679165 -0.4298661790396038 0.37701468091262014
5192174460 -0.4190880813096699 0.3807861444197203
5192669755 -0.40879582574493006 0.38378004023903295
5193165050 -0.3987898810913688 0.38635312883477463
5193660345 -0.3889130275500448 0.38882757644904287
