# HZ S RI R 50
80000000 -0.42695456743240356 -0.9485467076301575
80049511 -0.429070383310318 -0.9471467137336731
80099022 -0.4301590323448181 -0.9468754529953003
80148533 -0.43100225925445557 -0.9466542601585388
80198044 -0.43199634552001953 -0.9465353488922119
80247555 -0.43294796347618103 -0.945659875869751
80297066 -0.4342680275440216 -0.9450685381889343
80346577 -0.43561404943466187 -0.9445807337760925
80396088 -0.4367210865020752 -0.9440788626670837
80445599 -0.4373942017555237 -0.943442165851593
80495110 -0.4388329088687897 -0.9431664347648621
80544621 -0.4398597776889801 -0.9424874782562256
80594132 -0.44107893109321594 -0.9424057006835938
80643643 -0.4421253502368927 -0.9415839314460754
80693154 -0.44325822591781616 -0.9410211443901062
80742665 -0.44453564286231995 -0.9409751296043396
80792176 -0.44570714235305786 -0.9402215480804443
80841687 -0.44664204120635986 -0.9400164484977722
80891198 -0.4480046331882477 -0.9386535882949829
80940709 -0.44895139336586 -0.9389691948890686
80990220 -0.4500950872898102 -0.9371848702430725
81039731 -0.45144182443618774 -0.938032865524292
81089242 -0.4521181583404541 -0.9366321563720703
81138753 -0.45297905802726746 -0.9370443224906921
81188264 -0.4543897211551666 -0.9355177879333496
81237775 -0.45573851466178894 -0.9355347752571106
81287286 -0.4567914605140686 -0.9348592162132263
81336797 -0.4577944874763489 -0.9347215890884399
81386308 -0.4591616094112396 -0.9342345595359802
81435819 -0.4599928855895996 -0.9339865446090698
81485330 -0.4607142508029938 -0.9330417513847351
81534841 -0.46245622634887695 -0.9327523708343506
81584352 -0.46358102560043335 -0.9321575164794922
81633863 -0.4648512899875641 -0.9316043853759766
81683374 -0.46560606360435486 -0.9308844208717346
81732885 -0.4667467176914215 -0.9304696917533875
81782396 -0.4686761796474457 -0.9303449988365173
81831907 -0.4691057801246643 -0.9294682741165161
81881418 -0.47025707364082336 -0.9288998246192932
81930929 -0.471541166305542 -0.9275142550468445
81980440 -0.47251078486442566 -0.9281650185585022
82029951 -0.47376886010169983 -0.9267934560775757
82079462 -0.4746980667114258 -0.9270209074020386
82128973 -0.4756782650947571 -0.9257615208625793
82178484 -0.4766409695148468 -0.9260762333869934
82227995 -0.4779509902000427 -0.9252697229385376
82277506 -0.4791264533996582 -0.9248546361923218
82327017 -0.48027393221855164 -0.9236213564872742
82376528 -0.4817117750644684 -0.9243218302726746
82426039 -0.4825648367404938 -0.9227405786514282
82475550 -0.4838225543498993 -0.9226885437965393
82525061 -0.484732985496521 -0.9218805432319641
82574572 -0.4857759177684784 -0.9217785000801086
82624083 -0.4871160089969635 -0.9208778738975525
82673594 -0.4881305992603302 -0.9197408556938171
82723105 -0.48958781361579895 -0.9194684624671936
82772616 -0.489989697933197 -0.9186819791793823
82822127 -0.4913639724254608 -0.9189771413803101
82871638 -0.4924266040325165 -0.9173150658607483
82921149 -0.49358049035072327 -0.9175582528114319
82970660 -0.4951469898223877 -0.9167187213897705
83020171 -0.4961659908294678 -0.9165235757827759
83069682 -0.49711766839027405 -0.9152479767799377
83119193 -0.4977359473705292 -0.9160475134849548
83168704 -0.49957790970802307 -0.914565920829773
83218215 -0.49998152256011963 -0.914637565612793
83267726 -0.5018369555473328 -0.9134899377822876
83317237 -0.5024123787879944 -0.9126918911933899
83366748 -0.5042133331298828 -0.9126686453819275
83416259 -0.5044252872467041 -0.9111618995666504
83465770 -0.5063306093215942 -0.9116232395172119
83515281 -0.506739616394043 -0.9101397395133972
83564792 -0.508380115032196 -0.9103713035583496
83614303 -0.5092014670372009 -0.909945011138916
83663814 -0.5103756189346313 -0.9090292453765869
83713325 -0.5111469030380249 -0.9088215231895447
83762836 -0.5123764872550964 -0.9077206254005432
83812347 -0.5135663151741028 -0.9076906442642212
83861858 -0.5148618221282959 -0.9063257575035095
83911369 -0.5157609581947327 -0.9064555168151855
83960880 -0.5170559883117676 -0.905214250087738
84010391 -0.5180442929267883 -0.9048172831535339
84059902 -0.5189667344093323 -0.9048162698745728
84109413 -0.520231306552887 -0.9039798974990845
84158924 -0.5211015939712524 -0.9026085734367371
84208435 -0.5226240754127502 -0.9030411839485168
84257946 -0.5237000584602356 -0.9013668894767761
84307457 -0.5246614813804626 -0.9017601013183594
84356968 -0.5260946154594421 -0.9002796411514282
84406479 -0.52726149559021 -0.9002417325973511
84455990 -0.5274353623390198 -0.8995078802108765
84505501 -0.5289189219474792 -0.8991473317146301
84555012 -0.5302289128303528 -0.8980737924575806
84604523 -0.530805766582489 -0.8977373838424683
84654034 -0.5321915745735168 -0.896826446056366
84703545 -0.5336074829101562 -0.8968045115470886
84753056 -0.53403639793396 -0.8959094285964966
84802567 -0.5356107354164124 -0.8954077959060669
84852078 -0.5366727709770203 -0.894476056098938
84901589 -0.5373518466949463 -0.8947350382804871
84951100 -0.5385856628417969 -0.8935821652412415
85000611 -0.540094792842865 -0.8931775093078613
85050122 -0.5413246154785156 -0.8915748000144958
85099633 -0.5421929359436035 -0.8920731544494629
85149144 -0.5430511236190796 -0.8908400535583496
85198655 -0.5440939664840698 -0.8902897834777832
85248166 -0.5453526377677917 -0.8903160095214844
85297677 -0.5468742847442627 -0.8888000845909119
85347188 -0.54719078540802 -0.888959527015686
85396699 -0.5486598014831543 -0.8875492811203003
85446210 -0.5499457120895386 -0.8877572417259216
85495721 -0.5506172180175781 -0.886965274810791
85545232 -0.55235356092453 -0.8859297633171082
85594743 -0.553535521030426 -0.8850553631782532
85644254 -0.553816556930542 -0.8852102756500244
85693765 -0.555017352104187 -0.8836400508880615
85743276 -0.5560827851295471 -0.8841856122016907
85792787 -0.5569547414779663 -0.8823972344398499
85842298 -0.5580209493637085 -0.8824161291122437
85891809 -0.5595299601554871 -0.8814530968666077
85941320 -0.5594423413276672 -0.8815052509307861
85990831 -0.5617704391479492 -0.8807450532913208
86040342 -0.5617147088050842 -0.8801595568656921
86089853 -0.5639174580574036 -0.8793554902076721
86139364 -0.5640964508056641 -0.8788424730300903
86188875 -0.5659490823745728 -0.8772698640823364
86238386 -0.5664605498313904 -0.877093493938446
86287897 -0.5679734349250793 -0.8762496113777161
86337408 -0.5683660507202148 -0.8760039210319519
86386919 -0.5697551965713501 -0.8749104738235474
86436430 -0.5709526538848877 -0.8747601509094238
86485941 -0.5723069310188293 -0.8738155961036682
86535452 -0.5735675096511841 -0.8732624650001526
86584963 -0.5744967460632324 -0.8724307417869568
86634474 -0.5751357078552246 -0.8719870448112488
86683985 -0.575927734375 -0.8712896704673767
86733496 -0.5777790546417236 -0.8701280951499939
86783007 -0.5785989165306091 -0.8703401684761047
86832518 -0.5797934532165527 -0.8688371777534485
86882029 -0.5804426074028015 -0.8684052228927612
86931540 -0.5815442204475403 -0.8675398230552673
86981051 -0.5827744603157043 -0.8677058219909668
87030562 -0.5839837789535522 -0.866374135017395
87080073 -0.584785521030426 -0.865825355052948
87129584 -0.5857816934585571 -0.8652113676071167
87179095 -0.5874233245849609 -0.8638940453529358
87228606 -0.588638424873352 -0.8636297583580017
87278117 -0.5895328521728516 -0.8625190258026123
87327628 -0.5903087258338928 -0.8625063896179199
87377139 -0.5910481214523315 -0.8616015911102295
87426650 -0.592523992061615 -0.8608134388923645
87476161 -0.5930299758911133 -0.8595228791236877
87525672 -0.5942626595497131 -0.8603335022926331
87575183 -0.5957010984420776 -0.858809769153595
87624694 -0.5961538553237915 -0.8587751984596252
87674205 -0.5976682305335999 -0.8577927350997925
87723716 -0.598638117313385 -0.8565388917922974
87773227 -0.6000273823738098 -0.8562493920326233
87822738 -0.6008628606796265 -0.8547230362892151
87872249 -0.6021378636360168 -0.8547128438949585
87921760 -0.6025683879852295 -0.853286862373352
87971271 -0.6037630438804626 -0.8529520630836487
88020782 -0.6052826642990112 -0.8529571294784546
88070293 -0.6060066223144531 -0.8513529300689697
88119804 -0.6073834896087646 -0.8512607216835022
88169315 -0.6080174446105957 -0.8505873680114746
88218826 -0.6094328761100769 -0.8494210243225098
88268337 -0.6103476285934448 -0.849078893661499
88317848 -0.6112719178199768 -0.8483544588088989
88367359 -0.6118457317352295 -0.847748339176178
88416870 -0.6132924556732178 -0.8470761775970459
88466381 -0.6145821213722229 -0.8463502526283264
88515892 -0.6150000095367432 -0.8453403115272522
88565403 -0.6164911985397339 -0.8449625968933105
88614914 -0.6176044344902039 -0.8444578051567078
88664425 -0.6187641620635986 -0.8433255553245544
88713936 -0.6187477111816406 -0.8428133130073547
88763447 -0.6202268600463867 -0.8416491746902466
88812958 -0.6212981343269348 -0.8410088419914246
88862469 -0.622683584690094 -0.8404359221458435
88911980 -0.6241106986999512 -0.8396596908569336
88961491 -0.6246693730354309 -0.8392199277877808
89011002 -0.6257618069648743 -0.8385507464408875
89060513 -0.6270123720169067 -0.8373000621795654
89110024 -0.6278557181358337 -0.8367833495140076
89159535 -0.62892085313797 -0.8369688987731934
89209046 -0.6301549077033997 -0.8355599641799927
89258557 -0.6315320730209351 -0.8342927098274231
89308068 -0.6317582726478577 -0.8343802094459534
89357579 -0.6326824426651001 -0.8331764936447144
89407090 -0.633949339389801 -0.8328852653503418
89456601 -0.6352313756942749 -0.8314917683601379
89506112 -0.6355692148208618 -0.8306981921195984
89555623 -0.6373215317726135 -0.829646646976471
89605134 -0.6375542283058167 -0.8293191194534302
89654645 -0.6393254995346069 -0.8288393020629883
89704156 -0.640318751335144 -0.8275054097175598
89753667 -0.6405107378959656 -0.8272343873977661
89803178 -0.6424115300178528 -0.8263993859291077
89852689 -0.6435781121253967 -0.8248511552810669
89902200 -0.6438555121421814 -0.8252127766609192
89951711 -0.6458141803741455 -0.8240818977355957
90001222 -0.6464869976043701 -0.8232306838035583
90050733 -0.647270679473877 -0.8231116533279419
90100244 -0.6483994126319885 -0.8213136792182922
90149755 -0.6493657827377319 -0.8209052085876465
90199266 -0.6504397392272949 -0.8197087645530701
90248777 -0.6510984301567078 -0.8197500109672546
90298288 -0.6528691053390503 -0.8188462257385254
90347799 -0.6530737280845642 -0.8177196383476257
90397310 -0.6544438004493713 -0.816666841506958
90446821 -0.655173659324646 -0.816619873046875
90496332 -0.6568548679351807 -0.8153968453407288
90545843 -0.6576733589172363 -0.8145902156829834
90595354 -0.6584645509719849 -0.8137596249580383
90644865 -0.6591562032699585 -0.8130275011062622
90694376 -0.6605203747749329 -0.8122076392173767
90743887 -0.6614599227905273 -0.8122765421867371
90793398 -0.6625131368637085 -0.810241162776947
90842909 -0.6631885766983032 -0.810020923614502
90892420 -0.6644232869148254 -0.8088942170143127
90941931 -0.6653851866722107 -0.8084725737571716
90991442 -0.6664834022521973 -0.8074773550033569
91040953 -0.6674103736877441 -0.8072117567062378
91090464 -0.6685749888420105 -0.8053023219108582
91139975 -0.6689175963401794 -0.8051503896713257
91189486 -0.6707673668861389 -0.8047839999198914
91238997 -0.6721122860908508 -0.8037147521972656
91288508 -0.6727209091186523 -0.8030949831008911
91338019 -0.6737058162689209 -0.8021242618560791
91387530 -0.674140453338623 -0.8011329770088196
91437041 -0.6756231188774109 -0.8006282448768616
91486552 -0.6765905618667603 -0.799725353717804
91536063 -0.6774617433547974 -0.7983503937721252
91585574 -0.6785812377929688 -0.798187792301178
91635085 -0.6794836521148682 -0.797158420085907
91684596 -0.6803479790687561 -0.7961280345916748
91734107 -0.6811770796775818 -0.795211672782898
91783618 -0.6824690103530884 -0.7950661778450012
91833129 -0.6838138103485107 -0.793634295463562
91882640 -0.6841713190078735 -0.7931563258171082
91932151 -0.6851067543029785 -0.7924368977546692
91981662 -0.68642258644104 -0.7916702032089233
92031173 -0.6869491934776306 -0.7909117341041565
92080684 -0.6883020997047424 -0.7894761562347412
92130195 -0.6892659068107605 -0.7889400720596313
92179706 -0.6904697418212891 -0.7879099249839783
92229217 -0.691092312335968 -0.7869089245796204
92278728 -0.6925386786460876 -0.7860788106918335
92328239 -0.692997932434082 -0.7853792905807495
92377750 -0.6940385103225708 -0.7843267321586609
92427261 -0.6952197551727295 -0.7838174700737
92476772 -0.6961960196495056 -0.7824622392654419
92526283 -0.6970579028129578 -0.7824267148971558
92575794 -0.6977487206459045 -0.7802837491035461
92625305 -0.6991726756095886 -0.7805716395378113
92674816 -0.6997394561767578 -0.7793580889701843
92724327 -0.7009927034378052 -0.7784351110458374
92773838 -0.7022128105163574 -0.7771295309066772
92823349 -0.7025978565216064 -0.7765617370605469
92872860 -0.7039438486099243 -0.7760112285614014
92922371 -0.7045925855636597 -0.7751202583312988
92971882 -0.7060848474502563 -0.7746883630752563
93021393 -0.7069332003593445 -0.7729547619819641
93070904 -0.7074402570724487 -0.772585928440094
93120415 -0.7091366052627563 -0.7719565033912659
93169926 -0.70948326587677 -0.7707467675209045
93219437 -0.7110024690628052 -0.7702063322067261
93268948 -0.7113596200942993 -0.7689637541770935
93318459 -0.7121857404708862 -0.7686339616775513
93367970 -0.7134078741073608 -0.7673995494842529
93417481 -0.7143420577049255 -0.7667644023895264
93466992 -0.7153407335281372 -0.7652426362037659
93516503 -0.716325044631958 -0.7641450762748718
93566014 -0.7172586917877197 -0.7644231915473938
93615525 -0.7183316349983215 -0.7628246545791626
93665036 -0.7185011506080627 -0.7616207599639893
93714547 -0.7195939421653748 -0.7608381509780884
93764058 -0.720934271812439 -0.7600535154342651
93813569 -0.7215710282325745 -0.7594410181045532
93863080 -0.7223632335662842 -0.7582535743713379
93912591 -0.7233370542526245 -0.7572340369224548
93962102 -0.7246749997138977 -0.7570416331291199
94011613 -0.7252938151359558 -0.7559037804603577
94061124 -0.7269015312194824 -0.7549169659614563
94110635 -0.7274413108825684 -0.753938615322113
94160146 -0.728312611579895 -0.7531870603561401
94209657 -0.7296143174171448 -0.7524123191833496
94259168 -0.7304289937019348 -0.752124011516571
94308679 -0.731033205986023 -0.750798761844635
94358190 -0.7325255274772644 -0.7494457364082336
94407701 -0.7326071858406067 -0.7492213249206543
94457212 -0.7342944145202637 -0.7481831908226013
94506723 -0.7342399954795837 -0.7473164796829224
94556234 -0.7358931303024292 -0.7462588548660278
94605745 -0.7367345690727234 -0.7446950078010559
94655256 -0.7369329929351807 -0.7440293431282043
94704767 -0.7388327717781067 -0.743145227432251
94754278 -0.7394698262214661 -0.7424603700637817
94803789 -0.7407513856887817 -0.7414290308952332
94853300 -0.741493284702301 -0.7410959005355835
94902811 -0.7425684332847595 -0.739586353302002
94952322 -0.7429435849189758 -0.739081859588623
95001833 -0.7440763711929321 -0.7380913496017456
95051344 -0.7452581524848938 -0.7375291585922241
95100855 -0.7463657259941101 -0.7358631491661072
95150366 -0.7472877502441406 -0.7353496551513672
95199877 -0.7477662563323975 -0.7345145344734192
95249388 -0.7482821941375732 -0.7334375381469727
95298899 -0.7498359084129333 -0.7330206632614136
95348410 -0.7508326172828674 -0.7318114042282104
95397921 -0.7516711950302124 -0.7309117913246155
95447432 -0.75272136926651 -0.7294226288795471
95496943 -0.7535665035247803 -0.7294694185256958
95546454 -0.7539193630218506 -0.7280813455581665
95595965 -0.7557260990142822 -0.7267232537269592
95645476 -0.7560558319091797 -0.7262234091758728
95694987 -0.7568244934082031 -0.7248469591140747
95744498 -0.7579612731933594 -0.7244269847869873
95794009 -0.7587898373603821 -0.723747193813324
95843520 -0.7596156001091003 -0.7230538129806519
95893031 -0.76106858253479 -0.7211394906044006
95942542 -0.7613431215286255 -0.720862865447998
95992053 -0.7622416019439697 -0.7199848294258118
96041564 -0.7632642984390259 -0.7182560563087463
96091075 -0.7644026279449463 -0.7179009914398193
96140586 -0.7652316689491272 -0.7162827253341675
96190097 -0.7660111784934998 -0.715936541557312
96239608 -0.7672168612480164 -0.7148226499557495
96289119 -0.7681227922439575 -0.7140474915504456
96338630 -0.7690631747245789 -0.7125569581985474
96388141 -0.7697024345397949 -0.7116973400115967
96437652 -0.7706305384635925 -0.7110295295715332
96487163 -0.7719687223434448 -0.7100324034690857
96536674 -0.7728213667869568 -0.7088512778282166
96586185 -0.7739415168762207 -0.7083535194396973
96635696 -0.7749608755111694 -0.7069604396820068
96685207 -0.7753274440765381 -0.7064380645751953
96734718 -0.7761125564575195 -0.7049513459205627
96784229 -0.7773450613021851 -0.7043761014938354
96833740 -0.7778554558753967 -0.7031545042991638
96883251 -0.7791399955749512 -0.7029734253883362
96932762 -0.779732346534729 -0.7013648152351379
96982273 -0.7806607484817505 -0.7007626295089722
97031784 -0.7809402346611023 -0.6993570327758789
97081295 -0.7824833989143372 -0.6983135938644409
97130806 -0.7842193841934204 -0.697590172290802
97180317 -0.7844212055206299 -0.6963578462600708
97229828 -0.786041796207428 -0.6956462860107422
97279339 -0.7860167026519775 -0.6941591501235962
97328850 -0.7867567539215088 -0.6939868927001953
97378361 -0.78828364610672 -0.6929117441177368
97427872 -0.7887343764305115 -0.6923957467079163
97477383 -0.7901783585548401 -0.6909340023994446
97526894 -0.7906398773193359 -0.690029501914978
97576405 -0.7919798493385315 -0.6892439126968384
97625916 -0.7921804189682007 -0.6881909966468811
97675427 -0.7938315868377686 -0.686796247959137
97724938 -0.7941108345985413 -0.685782790184021
97774449 -0.795133113861084 -0.6839624047279358
97823960 -0.7960704565048218 -0.6836933493614197
97873471 -0.7972894906997681 -0.6823867559432983
97922982 -0.7979134917259216 -0.6820140480995178
97972493 -0.7989324927330017 -0.6810007095336914
98022004 -0.8001111745834351 -0.6798004508018494
98071515 -0.8006457090377808 -0.6793103218078613
98121026 -0.8015316128730774 -0.6780267953872681
98170537 -0.8020646572113037 -0.6765068769454956
98220048 -0.803394079208374 -0.674939751625061
98269559 -0.8041256070137024 -0.6744772791862488
98319070 -0.8055110573768616 -0.6732415556907654
98368581 -0.806154191493988 -0.6721113324165344
98418092 -0.8066455125808716 -0.6712052822113037
98467603 -0.808384120464325 -0.6703389286994934
98517114 -0.8085575103759766 -0.6694732904434204
98566625 -0.8096846342086792 -0.6685811281204224
98616136 -0.8103113770484924 -0.6671981811523438
98665647 -0.8111063241958618 -0.6662116050720215
98715158 -0.8116732835769653 -0.6652610898017883
98764669 -0.8128320574760437 -0.6638548970222473
98814180 -0.813774824142456 -0.6633485555648804
98863691 -0.8149238228797913 -0.6622728109359741
98913202 -0.8157972693443298 -0.6611235737800598
98962713 -0.816225528717041 -0.6601566672325134
99012224 -0.8182507753372192 -0.6585736870765686
99061735 -0.8186724185943604 -0.657628059387207
99111246 -0.819425106048584 -0.6564686298370361
99160757 -0.8204143047332764 -0.656019389629364
99210268 -0.8206778764724731 -0.6545391082763672
99259779 -0.821597695350647 -0.6539425849914551
99309290 -0.822626531124115 -0.6525760889053345
99358801 -0.8234251737594604 -0.6512431502342224
99408312 -0.8249031901359558 -0.6501206755638123
99457823 -0.8253304362297058 -0.6493601202964783
99507334 -0.826364278793335 -0.6485918164253235
99556845 -0.8269334435462952 -0.6471496820449829
99606356 -0.8277167677879333 -0.6461288332939148
99655867 -0.82872474193573 -0.6452441811561584
99705378 -0.8289141058921814 -0.6438038945198059
99754889 -0.8302857279777527 -0.6427503824234009
99804400 -0.8313112258911133 -0.6412568688392639
99853911 -0.8320313096046448 -0.6400457620620728
99903422 -0.8329618573188782 -0.6392284631729126
99952933 -0.8343063592910767 -0.638403594493866
100002444 -0.8061233758926392 -0.6028556823730469
100051955 -0.8073029518127441 -0.6015706062316895
100101466 -0.8076322078704834 -0.6009119153022766
100150977 -0.8089213371276855 -0.599551796913147
100200488 -0.8093619346618652 -0.5984796285629272
