# HZ S RI R 50
80000000 -0.4516647567874507 -0.9358820789738705
80049511 -0.4529623153962587 -0.9357172219376815
80099022 -0.4540670388623288 -0.934989399031589
80148533 -0.4551468052362141 -0.9339361567246286
80198044 -0.45632110300816986 -0.9340660603422868
80247555 -0.45765357111629684 -0.9335564625890631
80297066 -0.45856465948255437 -0.9324360552587008
80346577 -0.4596689014058364 -0.9325766594786393
80396088 -0.46109078746092946 -0.9319800075731779
80445599 -0.4620787109199323 -0.9310597745995772
80495110 -0.4631292929774837 -0.931059109537225
80544621 -0.4645002688232221 -0.9302467578335812
80594132 -0.46524667896722494 -0.9299708353845697
80643643 -0.4668138419326983 -0.929270675307826
80693154 -0.46782603389338445 -0.9283415549679807
80742665 -0.4690049886703491 -0.9284220306496871
80792176 -0.470270164703068 -0.9277405017300656
80841687 -0.4713478590312757 -0.9271796502565083
80891198 -0.47234809869214106 -0.9263990144980582
80940709 -0.47353621376188176 -0.9261303387190166
80990220 -0.47457632736155864 -0.925009592583305
81039731 -0.475911408662796 -0.9249284737988522
81089242 -0.47682844808227137 -0.9239990334761771
81138753 -0.4779633409098575 -0.9240209585741946
81188264 -0.47908490739370646 -0.9227950071033678
81237775 -0.48043760343601827 -0.9227421628801447
81287286 -0.48129032630669444 -0.9216535091400146
81336797 -0.48261928087786626 -0.9218259171435708
81386308 -0.4837474179895301 -0.921016696252321
81435819 -0.4846407943650296 -0.9207076618545934
81485330 -0.4860233931164992 -0.9199898493917364
81534841 -0.486921522178148 -0.9193266096868014
81584352 -0.4885449236945102 -0.9189253606294331
81633863 -0.48937197892289414 -0.9182859251373693
81683374 -0.49046136360419423 -0.9178335886252554
81732885 -0.4916361068424426 -0.9170388767593786
81782396 -0.4927377136130082 -0.9161276001679269
81831907 -0.4940362164848729 -0.9162159875819558
81881418 -0.495180838986447 -0.9155574189989191
81930929 -0.4961364253571159 -0.9144026291997809
81980440 -0.4972253096731086 -0.914496732385535
82029951 -0.49830516388541773 -0.9131905969820524
82079462 -0.49964128513085215 -0.9132015705108643
82128973 -0.5005833098762914 -0.9119137086366352
82178484 -0.5017139127379969 -0.912220487469121
82227995 -0.5029073639919883 -0.9114659522709093
82277506 -0.5039398450600473 -0.911070073905744
82327017 -0.505145621927161 -0.910005133402975
82376528 -0.5061013384869224 -0.9099832710466886
82426039 -0.5075806943993819 -0.9090486702166105
82475550 -0.5084493787665116 -0.9087556506458082
82525061 -0.5097658351848 -0.9078277380842912
82574572 -0.5106205563796195 -0.9075962681519357
82624083 -0.5119984400899786 -0.9067946515585247
82673594 -0.5128055371736225 -0.9056799850965801
82723105 -0.5143994061570418 -0.9055477129785638
82772616 -0.5151260212848061 -0.9042916548879523
82822127 -0.5164658835059718 -0.9042947072731821
82871638 -0.5174660243486103 -0.9032368628602279
82921149 -0.5186629107123927 -0.9032818392703408
82970660 -0.5196621606224462 -0.901980974172291
83020171 -0.5210996646630136 -0.9020095906759563
83069682 -0.521878465225822 -0.9008524198281137
83119193 -0.5230480212914316 -0.9009053958089728
83168704 -0.5242116482634294 -0.8996443560248927
83218215 -0.5252038805108321 -0.8997645817304912
83267726 -0.5264779109703867 -0.8989187604502628
83317237 -0.5272638703647413 -0.898464488355737
83366748 -0.5288141463932238 -0.8977479966063249
83416259 -0.5295957922935486 -0.8968860412898817
83465770 -0.5308583786613063 -0.8963663546662581
83515281 -0.5317981807809127 -0.8955086626504597
83564792 -0.5331339553782815 -0.8951474773256403
83614303 -0.534051587707118 -0.8948652650180616
83663814 -0.5352737464402851 -0.8935426316763225
83713325 -0.5363167022403917 -0.8935680420775163
83762836 -0.5374700960360075 -0.8925157597190455
83812347 -0.5385487801150272 -0.8923357850626895
83861858 -0.5397241146940934 -0.8908990684308504
83911369 -0.5409232346635116 -0.8907828362364518
83960880 -0.5418333222991542 -0.8896091894099587
84010391 -0.543350266782861 -0.8895582462611952
84059902 -0.5440291166305542 -0.8891790540594804
84109413 -0.545219854304665 -0.8880383654644615
84158924 -0.5461552613659909 -0.8877601811760351
84208435 -0.5473514167886031 -0.8868701269752101
84257946 -0.5484513828628942 -0.8858666576837239
84307457 -0.5497474890006216 -0.8858195982481304
84356968 -0.5505559569910953 -0.8845464681324205
84406479 -0.5519250348994607 -0.8843217272507516
84455990 -0.5526787230842992 -0.8839728142085829
84505501 -0.5540942706559834 -0.8830261512806541
84555012 -0.5549825963221098 -0.8819929957389832
84604523 -0.5564752691670468 -0.8819537068668165
84654034 -0.557203892030214 -0.8808500798125016
84703545 -0.5585921155778986 -0.8807611904646221
84753056 -0.5595832216112238 -0.8793607354164124
84802567 -0.5608131383594713 -0.879298586594431
84852078 -0.561598467199426 -0.8783663950468364
84901589 -0.5627134034508153 -0.878159695550015
84951100 -0.5638911849574039 -0.8770828874487626
85000611 -0.5650575725655806 -0.8766341585862009
85050122 -0.5658468196266576 -0.8764227911045677
85099633 -0.567224455507178 -0.8749128517351652
85149144 -0.5683298173703646 -0.8746853941365292
85198655 -0.5693357430006328 -0.8734269895051655
85248166 -0.5705377961459913 -0.8733415729121158
85297677 -0.5714452266693115 -0.873003580068287
85347188 -0.5725033942021822 -0.87171849451567
85396699 -0.5733290502899572 -0.8714842764954818
85446210 -0.5745954042986819 -0.8700313724969563
85495721 -0.5759371581830477 -0.8699488482977215
85545232 -0.577091417814556 -0.8687529187453421
85594743 -0.5781084926504838 -0.8689556561018291
85644254 -0.5791645018677962 -0.8676542859328421
85693765 -0.5800464278773257 -0.8676694506093076
85743276 -0.5812951765562359 -0.8662880659103394
85792787 -0.5819790457424364 -0.865978413506558
85842298 -0.5835943002449838 -0.8651530240711413
85891809 -0.5845177581435755 -0.8641192003300315
85941320 -0.5856880357390956 -0.8636902978545741
85990831 -0.5868646973057797 -0.8626432952127958
86040342 -0.5878658577015525 -0.8622967914531106
86089853 -0.5888344049453735 -0.8612255830513803
86139364 -0.5900828148189344 -0.8609633445739746
86188875 -0.5908405969017431 -0.8606598816419903
86238386 -0.5922852001692119 -0.8596156929668627
86287897 -0.5929331685367384 -0.858577332998577
86337408 -0.5944596434894361 -0.8582416051312497
86386919 -0.5948537964569894 -0.8573901684660661
86436430 -0.5965347352780794 -0.8568998386985377
86485941 -0.5975881909069262 -0.8556923364338122
86535452 -0.5986120700836182 -0.8551332480029056
86584963 -0.5994878317180433 -0.8543487191200256
86634474 -0.6007045413318434 -0.8539981716557553
86683985 -0.601625360940632 -0.8528089868394952
86733496 -0.602736372696726 -0.8528494238853455
86783007 -0.6040299660281131 -0.8516685241147092
86832518 -0.6049872354457253 -0.8506995784608942
86882029 -0.6060340875073483 -0.8504988519768966
86931540 -0.6068257124800431 -0.8496336591871161
86981051 -0.6082612025110345 -0.8487904981562966
87030562 -0.6092291192004555 -0.8478723074260511
87080073 -0.6103313784850272 -0.8475305092962164
87129584 -0.6111446807259008 -0.8462375684788352
87179095 -0.6125923269673398 -0.8462913161829898
87228606 -0.6135343815151014 -0.8449664147276628
87278117 -0.6146501741911236 -0.8448100152768587
87327628 -0.6154765957280209 -0.8432677388191223
87377139 -0.6167485149283158 -0.8432755815355402
87426650 -0.6176794390929373 -0.8419829418784693
87476161 -0.618448837807304 -0.8414823914829054
87525672 -0.6200567546643709 -0.8409315379042375
87575183 -0.6210409591072484 -0.8398201434235824
87624694 -0.622073537424991 -0.8394431942387631
87674205 -0.622867625010641 -0.8382453196927121
87723716 -0.6242002593843561 -0.8382795860892848
87773227 -0.6249187274983055 -0.836693503354725
87822738 -0.6262021598063017 -0.8367475522191901
87872249 -0.6271162535014906 -0.8352262440480684
87921760 -0.6279157494243822 -0.8348768039753562
87971271 -0.6294319974748712 -0.8342239919461703
88020782 -0.6303496674487465 -0.8330037593841553
88070293 -0.6310851793540152 -0.8326007033649244
88119804 -0.6325076002823679 -0.8321246473412764
88169315 -0.6333974003791809 -0.8306841975764224
88218826 -0.6345271938725522 -0.830615338526274
88268337 -0.6356733723690635 -0.8292430921604759
88317848 -0.6365642422123959 -0.8286704264189068
88367359 -0.6378446440947684 -0.8282453700115806
88416870 -0.6386304999652662 -0.8269067500766955
88466381 -0.6399360424593875 -0.8262506346953543
88515892 -0.6410274568356966 -0.8258429044171384
88565403 -0.6420044742132488 -0.8246634320208901
88614914 -0.6429591304377505 -0.8242178433819821
88664425 -0.6440501087590268 -0.8232908970431277
88713936 -0.6451698259303444 -0.8228078296310023
88763447 -0.6456011533737183 -0.8218051571595041
88812958 -0.647185648742475 -0.8212363719940186
88862469 -0.6480501607844704 -0.8198910543793126
88911980 -0.6490700213532699 -0.8197922675233138
88961491 -0.6502800238759894 -0.8188526536289015
89011002 -0.6511691557733637 -0.8174792967344585
89060513 -0.6519820533300701 -0.8170562982559204
89110024 -0.6533770843556053 -0.816642701625824
89159535 -0.6544155823557001 -0.8154484002213729
89209046 -0.6553062357400593 -0.8143912742012426
89258557 -0.6561800868887651 -0.8142638802528381
89308068 -0.6573528961131447 -0.8127221339627316
89357579 -0.6586692427334032 -0.8126076522626375
89407090 -0.6595363460089031 -0.8111235154302496
89456601 -0.6605232922654403 -0.8105918043538144
89506112 -0.6618097016685888 -0.8100535304922807
89555623 -0.662390156796104 -0.8090924808853551
89605134 -0.6637842278731497 -0.8085761132993197
89654645 -0.6646087263759813 -0.8071941388280768
89704156 -0.6655611333094145 -0.806628638192227
89753667 -0.6667951784635845 -0.8061151379033139
89803178 -0.6677387607725043 -0.804667708120848
89852689 -0.6685969986413655 -0.804354937453019
89902200 -0.6698917809285616 -0.8036425646982694
89951711 -0.670725869505029 -0.8022458521943343
90001222 -0.6716390691305462 -0.8019585891773826
90050733 -0.6724019458419398 -0.801028919847388
90100244 -0.6738066390941018 -0.8000779810704683
90149755 -0.6749352153978849 -0.7992610053012246
90199266 -0.6760169204912687 -0.7986260087866532
90248777 -0.6767404487258509 -0.7978579245115581
90298288 -0.6780729450677571 -0.7970705189202961
90347799 -0.6787872722274378 -0.7962019663108023
90397310 -0.6798549921889054 -0.7949924468994141
90446821 -0.6805851396761442 -0.7944813119737726
90496332 -0.6818224850453829 -0.7931662860669588
90545843 -0.6827731320732519 -0.7929553671887046
90595354 -0.6839495865922225 -0.7915059390820955
90644865 -0.684833005854958 -0.7910875301612051
90694376 -0.6859388382811296 -0.7899485324558458
90743887 -0.6865224650031642 -0.7894103401585629
90793398 -0.6879786158862867 -0.7880451240037617
90842909 -0.6891474033656874 -0.7879210020366468
90892420 -0.6900819602765536 -0.7866012108953375
90941931 -0.6910512133648521 -0.7863998413085938
90991442 -0.6920705625885412 -0.7845075287316975
91040953 -0.692647679855949 -0.7842091823879042
91090464 -0.6939698300863567 -0.783478341604534
91139975 -0.694911633667193 -0.7824257486744931
91189486 -0.695815528693952 -0.7819239873635141
91238997 -0.6969454633562189 -0.7803465410282737
91288508 -0.6979856020525882 -0.7801678682628431
91338019 -0.6989810184428566 -0.7786816703645807
91387530 -0.70001893294485 -0.7785632641691911
91437041 -0.7008563656555978 -0.777070795234881
91486552 -0.7015982866287231 -0.7765231822666369
91536063 -0.7029644470465811 -0.7757205398459184
91585574 -0.7039400464610049 -0.7743052306928133
91635085 -0.7046242073962563 -0.7738292311367235
91684596 -0.7057974840465345 -0.7729477286338806
91734107 -0.7065667792370445 -0.7720567897746438
91783618 -0.707776195124576 -0.7714561851401078
91833129 -0.7089668606456957 -0.7699358400545622
91882640 -0.709930514034472 -0.7697371275801408
91932151 -0.7107665130966588 -0.7682771965077049
91981662 -0.7117940971725866 -0.7679845533872905
92031173 -0.7127273867004796 -0.7665891866934927
92080684 -0.7135955691337585 -0.7658637762069702
92130195 -0.7146841256242049 -0.7647527111204047
92179706 -0.7156651553354765 -0.7641757569814983
92229217 -0.7164567018810072 -0.7630537277773807
92278728 -0.7175407158701044 -0.7618389976652045
92328239 -0.7184641518090901 -0.7611976705099407
92377750 -0.7194816219179254 -0.7600405686780026
92427261 -0.7202560838900114 -0.7594011739680642
92476772 -0.7214053210459257 -0.7584157335130792
92526283 -0.7221267631179408 -0.7575932396085638
92575794 -0.7234064403333162 -0.756552213116696
92625305 -0.7242935833178068 -0.7557587466741863
92674816 -0.725444495677948 -0.7552486156162462
92724327 -0.7260401594011408 -0.7540239785846911
92773838 -0.7272289332590605 -0.7526583232377705
92823349 -0.7280717586216173 -0.7521303201976576
92872860 -0.7293686804018522 -0.7514661864230507
92922371 -0.7301689574592992 -0.750027574990925
92971882 -0.7308306003871717 -0.7494076459031356
93021393 -0.7320541990430731 -0.7481357580737064
93070904 -0.7328681412496065 -0.7477921153369703
93120415 -0.7340829278293409 -0.7462185182069477
93169926 -0.7347991090071829 -0.7458114404427377
93219437 -0.7360740868668807 -0.744331839837526
93268948 -0.7366876602172852 -0.7439721477659125
93318459 -0.7377608292981198 -0.7426645285204837
93367970 -0.7386485463694522 -0.7423176420362372
93417481 -0.739748057566191 -0.7405415491053933
93466992 -0.7403463972242255 -0.7400585507091723
93516503 -0.7414413314116629 -0.738874868342751
93566014 -0.7422510793334559 -0.738244542950078
93615525 -0.7432288025554857 -0.7368832073713604
93665036 -0.7443524881413108 -0.7366295958820143
93714547 -0.7449520355776736 -0.7354506348308764
93764058 -0.7461923172599391 -0.733928664734489
93813569 -0.7470010926848963 -0.7337171968660856
93863080 -0.7477936023160031 -0.7326059686510187
93912591 -0.7489685855413738 -0.7318527980854637
93962102 -0.749888583233482 -0.7303540988972312
94011613 -0.750550947691265 -0.729765772819519
94061124 -0.7516188496037534 -0.7284104478986639
94110635 -0.7524243655957674 -0.7278914922162106
94160146 -0.7535029712476229 -0.7268388804636503
94209657 -0.7546465961556685 -0.7255521416664124
94259168 -0.7551948208557931 -0.7248361016574659
94308679 -0.756609530825364 -0.7237380429318077
94358190 -0.7571196148270055 -0.7232232878082677
94407701 -0.758326906906931 -0.7216906359321192
94457212 -0.7589284495303505 -0.7211605028102273
94506723 -0.7601853232634695 -0.7198749529687982
94556234 -0.7607383226093493 -0.7193653865864402
94605745 -0.7617557456618861 -0.7185584620425576
94655256 -0.7625091358235008 -0.7174813339584752
94704767 -0.7634739060150949 -0.7159603834152222
94754278 -0.7644082872491134 -0.7154150699314318
94803789 -0.7652946271394429 -0.7140879662413346
94853300 -0.766313518348493 -0.7134900061707747
94902811 -0.7671190406146803 -0.7122185826301575
94952322 -0.7679651410956132 -0.71175701053519
95001833 -0.7691040823334142 -0.7108804395324305
95051344 -0.7701100832537601 -0.7095883990588941
95100855 -0.7707088119105289 -0.7086282466587267
95150366 -0.7718190582175004 -0.7078430621247542
95199877 -0.7726884609774539 -0.7070806057829606
95249388 -0.7735171506279394 -0.7058338522911072
95298899 -0.7750364855716103 -0.7044052952214291
95348410 -0.7756091638615257 -0.7040128864740071
95397921 -0.776809855511314 -0.702575821625559
95447432 -0.7771037503292686 -0.7016715187775461
95496943 -0.7784664819115087 -0.7006621235295346
95546454 -0.7790879011154175 -0.699480580656152
95595965 -0.7798988819122314 -0.6988037605034677
95645476 -0.7809987099547135 -0.6976772107576069
95694987 -0.7819176504486486 -0.6968070801935697
95744498 -0.782779734385641 -0.6962850313437613
95794009 -0.7839183242697465 -0.694927598300733
95843520 -0.784683578892758 -0.6942047696364554
95893031 -0.7855824545810097 -0.6929125346635517
95942542 -0.7864949891441747 -0.6916618754989222
95992053 -0.7873733984796625 -0.6911507405732807
96041564 -0.7880301099074515 -0.6901614352276451
96091075 -0.7892380764609889 -0.6887121796607971
96140586 -0.7898780891769811 -0.6879316411520305
96190097 -0.7911201966436285 -0.6865732952168113
96239608 -0.7920509263088829 -0.6859040385798404
96289119 -0.7929167904351887 -0.6848059390720568
96338630 -0.7936294235681233 -0.6839683526440671
96388141 -0.7947172459803129 -0.6824617166268198
96437652 -0.7954250856449729 -0.6821150058194211
96487163 -0.7965459635383204 -0.6808869964198062
96536674 -0.7974260857230738 -0.6797101999583998
96586185 -0.7982868740433141 -0.6785817460009926
96635696 -0.7991648096787302 -0.6776068932131717
96685207 -0.8003358119412473 -0.6764161931840997
96734718 -0.8008995495344463 -0.6757196501681679
96784229 -0.8019457271224574 -0.6744741295513353
96833740 -0.8027570373133609 -0.6736331080135546
96883251 -0.8037709091839037 -0.6722354010531777
96932762 -0.8045565391841688 -0.6716442139525163
96982273 -0.8054809884021157 -0.6705091125086734
97031784 -0.8064292261475011 -0.6690115050265664
97081295 -0.8072470771638971 -0.6683169038672196
97130806 -0.8082017647592645 -0.6671383004439505
97180317 -0.8091026764166983 -0.6663286748685335
97229828 -0.8100533265816537 -0.6649398866452669
97279339 -0.8109003148580852 -0.6642089705718192
97328850 -0.8116712444706967 -0.6629439153169331
97378361 -0.8126444032317713 -0.6621404258828414
97427872 -0.8135204440669009 -0.6609918381038465
97477383 -0.8145573421528465 -0.659846095662368
97526894 -0.815259902100814 -0.6588650659510964
97576405 -0.8164440205222682 -0.6575833966857508
97625916 -0.8170131476301896 -0.6566752916888187
97675427 -0.8183087079148543 -0.6554595859427201
97724938 -0.8187256831871835 -0.6545055320388392
97774449 -0.8200037887221888 -0.6530389158349288
97823960 -0.8206514778890108 -0.6523441295874747
97873471 -0.8216604496303358 -0.6512928856046576
97922982 -0.822358532955772 -0.6500339664910969
97972493 -0.8234913913827193 -0.6489018233198869
98022004 -0.8242812658611097 -0.6477243210140028
98071515 -0.8251034962503534 -0.6469034552574158
98121026 -0.8258110974964342 -0.6456500511420401
98170537 -0.8270311167365626 -0.6443586129891244
98220048 -0.8278240122293171 -0.6435714081714028
98269559 -0.8285943834405196 -0.6421929503742018
98319070 -0.8294530699127599 -0.6413603675992865
98368581 -0.8305112656794096 -0.6398635381146481
98418092 -0.8312094399803563 -0.6390266951761747
98467603 -0.8320525915999162 -0.6378022840148524
98517114 -0.8332105875015259 -0.6369044968956395
98566625 -0.8335816766086378 -0.6356164311107836
98616136 -0.8348878496571591 -0.6345151662826538
98665647 -0.8355657677901419 -0.6335431651065224
98715158 -0.8362565730747423 -0.632340647672352
98764669 -0.837264453109942 -0.6313301858149076
98814180 -0.8379443632928949 -0.630063467904141
98863691 -0.8391904799561751 -0.6288731882446691
98913202 -0.8396325613323011 -0.6277879507918107
98962713 -0.8409863490807382 -0.6266107465091505
99012224 -0.8416066012884441 -0.625502536171361
99061735 -0.8425839794309515 -0.624156581728082
99111246 -0.8434593865745946 -0.6232774947818956
99160757 -0.8441585867028487 -0.6221646635155929
99210268 -0.8450474048915663 -0.621105388591164
99259779 -0.8455307483673096 -0.6198141198409232
99309290 -0.8469299360325462 -0.6186140367859289
99358801 -0.847596287727356 -0.6175998794405084
99408312 -0.848452113176647 -0.6163461804389954
99457823 -0.8491702487594203 -0.6151569391551771
99507334 -0.8503237586272391 -0.6140631092222113
99556845 -0.8508963835866827 -0.6128248823316473
99606356 -0.851907165426957 -0.611839843423743
99655867 -0.8524203739668194 -0.6105011952550787
99705378 -0.853564020834471 -0.609576331941705
99754889 -0.8540960487566496 -0.6081489010861045
99804400 -0.8554340663709139 -0.6069024424803885
99853911 -0.8560387398067274 -0.6059715371382864
99903422 -0.8571578515203375 -0.6046433574274966
99952933 -0.8579802450380827 -0.6035370167933012
100002444 -0.8279463554683485 -0.5692312246874759
100051955 -0.8286181343229193 -0.5681808245809454
100101466 -0.8294143927724738 -0.5670076389061777
100150977 -0.8302481331323323 -0.5658812585629915
100200488 -0.8310008927395469 -0.5647227293566653
