# HZ S RI R 50
5000000000 -0.138188226442588 -0.5110788502191242
5000495295 -0.14067407971934268 -0.5122878049549303
5000990590 -0.1447234294916454 -0.5132023503905848
5001485885 -0.14734570603621633 -0.5138856109819914
5001981180 -0.15077186885632968 -0.5151894092559814
5002476475 -0.15519345434088455 -0.5158623205988031
5002971770 -0.15714525784316816 -0.5171781119547392
5003467065 -0.16115632104246239 -0.5173364563992149
5003962360 -0.16434285436805926 -0.5189014641862166
5004457655 -0.16735106628192098 -0.5197114003332037
5004952950 -0.17072317004203796 -0.5202497651702479
5005448245 -0.174696421152667 -0.5211633537944994
5005943540 -0.17713910811825803 -0.5222768626715008
5006438835 -0.18120809840528587 -0.5225043892860413
5006934130 -0.1841842704697659 -0.5237395637913754
5007429425 -0.1878967787090101 -0.5240522121128283
5007924720 -0.19126546539758382 -0.5250717370133651
5008420015 -0.19393223367239298 -0.5258572823122928
5008915310 -0.19755999351802625 -0.5263662746078089
5009410605 -0.20089009404182434 -0.5274247809460288
5009905900 -0.20473046992954455 -0.527789360598514
5010401195 -0.20838624787958046 -0.5282181783726341
5010896490 -0.2115183402048914 -0.5292904188758448
5011391785 -0.21529199104560048 -0.5295554650457281
5011887080 -0.21889318996354154 -0.5301065601800617
5012382375 -0.2217122081078981 -0.5310779809951782
5012877670 -0.22537844275173388 -0.5311732762738278
5013372965 -0.22926388994643562 -0.5314767643025047
5013868260 -0.23277862056305534 -0.5322941384817425
5014363555 -0.23617226512808548 -0.5325775773901689
5014858850 -0.24017438606212013 -0.5328169998369718
5015354145 -0.24320816523150393 -0.5332961521650615
5015849440 -0.2484469523555354 -0.5329512169486598
5016344735 -0.25098706154446854 -0.5335951886678997
5016840030 -0.254296528665643 -0.5346213516436125
5017335325 -0.2583172352690446 -0.5343172863910073
5017830620 -0.26190057083180074 -0.5345796534889623
5018325915 -0.26496896304582296 -0.5350564122200012
5018821210 -0.2681432805563274 -0.5345849645765204
5019316505 -0.2728894101945977 -0.5354539689264799
5019811800 -0.2759845617570375 -0.5355919819129141
5020307095 -0.2792098741782339 -0.5354091807415611
5020802390 -0.2832478457375577 -0.5352833114172283
5021297685 -0.28713100364333705 -0.5354671195933693
5021792980 -0.290804070861716 -0.5353678653114721
5022288275 -0.2943290440659774 -0.5357841723843625
5022783570 -0.29826842013158295 -0.5353486286966425
5023278865 -0.3023534213241778 -0.534629370036878
5023774160 -0.3052564843704826 -0.5349527032751786
5024269455 -0.3098062747403195 -0.5347114770035994
5024764750 -0.31268724014884547 -0.534569407764234
5025260045 -0.3165057928938615 -0.5343862081828871
5025755340 -0.32186755851695414 -0.533103839347237
5026250635 -0.3236162521337208 -0.5337525825751456
5026745930 -0.32886443953765065 -0.532724562444185
5027241225 -0.3314982715405916 -0.5328573051251864
5027736520 -0.33514830470085144 -0.5325702460188615
5028231815 -0.3398574418143222 -0.5313241136701483
5028727110 -0.34308066650440816 -0.5311263674183896
5029222405 -0.3472510686046199 -0.5302695130047045
5029717700 -0.3512083966481058 -0.5296673147301925
5030212995 -0.35378815782697576 -0.5294609477645472
5030708290 -0.35869082337931585 -0.5284122699185422
5031203585 -0.3623540903392591 -0.5279274237783331
5031698880 -0.3655505650921872 -0.5272981493096602
5032194175 -0.3696981323392768 -0.5265013293216103
5032689470 -0.3728507067027845 -0.5256771508016085
5033184765 -0.3767308686908923 -0.5250965513681111
5033680060 -0.3802836427563115 -0.5237873165231002
5034175355 -0.3839331567287445 -0.5237636221082587
5034670650 -0.38828281038685847 -0.5219397827198631
5035165945 -0.39234454067129837 -0.5210270222864652
5035661240 -0.3955082187527104 -0.5202788898819372
5036156535 -0.39890183586823313 -0.5193270288015667
5036651830 -0.4031070298270175 -0.5176399601133246
5037147125 -0.40664923034216227 -0.516742656105443
5037642420 -0.4100145132918107 -0.5155583369104486
5038137715 -0.4140019448179948 -0.5143961780949643
5038633010 -0.41836596005841303 -0.5128100012478075
5039128305 -0.42179189230266373 -0.511812338703557
5039623600 -0.4244654821722131 -0.5106001621798465
5040118895 -0.42901813356499924 -0.5095610963670831
5040614190 -0.4327166331441779 -0.5075509673670718
5041109485 -0.43565648637319865 -0.506813993579463
5041604780 -0.4404739063037069 -0.5044101476669312
5042100075 -0.44295804124129445 -0.503460262951098
5042595370 -0.4465407446811074 -0.5019174061323467
5043090665 -0.45047147964176376 -0.500141695926064
5043585960 -0.4538341164588928 -0.49921111213533503
5044081255 -0.45736219694739894 -0.49712728512914556
5044576550 -0.4613904796148601 -0.49501990644555344
5045071845 -0.4648046007281856 -0.49306218875081914
5045567140 -0.4684884438389226 -0.4919180807314421
5046062435 -0.47150594623465286 -0.49036764314300135
5046557730 -0.47579101198597956 -0.48804623359128047
5047053025 -0.479228360088248 -0.4861976253358941
5047548320 -0.482716114897477 -0.4841111882736808
5048043615 -0.48562531879073695 -0.482764366425966
5048538910 -0.48989377053160416 -0.48033837111372696
5049034205 -0.492839587362189 -0.478375023917148
5049529500 -0.496369774404325 -0.47646572558503403
5050024795 -0.4977186635920876 -0.47686242900396647
5050520090 -0.5034305108220953 -0.4722362144997245
5051015385 -0.5064616485645896 -0.47012511993709366
5051510680 -0.5100854447013453 -0.46756667055581747
5052005975 -0.5130003063302291 -0.46634034577168915
5052501270 -0.5161821403001484 -0.4638054182654933
5052996565 -0.519615280000787 -0.46163582958673177
5053491860 -0.522972263787922 -0.45915298085463674
5053987155 -0.5266602321674949 -0.4566980176850369
5054482450 -0.5296558580900493 -0.4539012030551308
5054977745 -0.533023875010641 -0.45148172347169174
5055473040 -0.53626360077607 -0.4490924007014224
5055968335 -0.5390390440037376 -0.4467089678111829
5056463630 -0.5430678129196167 -0.4434250342218499
5056958925 -0.5455627911969235 -0.4417906105518341
5057454220 -0.5486672614750109 -0.4388072631861034
5057949515 -0.5517179871860304 -0.4363681579891004
5058444810 -0.5544268175175315 -0.43342514414536326
5058940105 -0.5572897509524697 -0.43072263504329483
5059435400 -0.5609371097464311 -0.42853922122403193
5059930695 -0.563676633332905 -0.42538410582040487
5060425990 -0.566720912331029 -0.4225707556072034
5060921285 -0.5694099162754259 -0.4200411266402194
5061416580 -0.573013540945555 -0.41576300483000905
5061911875 -0.5755933429065504 -0.41405374752847773
5062407170 -0.5783371799870541 -0.41110804363300923
5062902465 -0.5813736664621454 -0.4077606232542741
5063397760 -0.5844331132738214 -0.4047190327393381
5063893055 -0.5869120610387701 -0.4014186498365904
5064388350 -0.588541545365986 -0.40017354174664144
5064883645 -0.5924401377376757 -0.3958747982978821
5065378940 -0.5956114938384608 -0.3917420835871446
5065874235 -0.5985967705124303 -0.38793834102781194
5066369530 -0.5987733728007266 -0.3888335039741115
5066864825 -0.6025478588907343 -0.38413633484589427
5067360120 -0.6059628160376298 -0.37959372840429606
5067855415 -0.6080472437958968 -0.37722213017313105
5068350710 -0.6103640763383162 -0.3739762619922036
5068846005 -0.6139207011774966 -0.369180734220304
5069341300 -0.6152820493045607 -0.3674899904351485
5069836595 -0.6180672582827116 -0.36405273644547714
5070331890 -0.6212595230654666 -0.35940328710957575
5070827185 -0.6226755757080881 -0.35779944689650284
5071322480 -0.6249150727924547 -0.3541162939448106
5071817775 -0.6272837864725214 -0.35073831206873846
5072313070 -0.630533450528195 -0.34560971667892054
5072808365 -0.632075526212391 -0.3438752560239089
5073303660 -0.6353198854546798 -0.338522754217449
5073798955 -0.6371725797653198 -0.3352409099277697
5074294250 -0.6382298281318263 -0.33404190289346797
5074789545 -0.6420527696609497 -0.3267570890878376
5075284840 -0.6431633390878376 -0.3248639232233951
5075780135 -0.6458417804617631 -0.32086186503109176
5076275430 -0.6473582669308311 -0.31796327076460185
5076770725 -0.6499042040423343 -0.3132619857788086
5077266020 -0.6513307502395228 -0.3110797813064174
5077761315 -0.6539096361712405 -0.30518222953143875
5078256610 -0.655561017362695 -0.3028638206030193
5078751905 -0.6574476706354242 -0.2991253859118411
5079247200 -0.6590053282285991 -0.29527212757813304
5079742495 -0.660873764439633 -0.2914843151443883
5080237790 -0.6629470304438942 -0.2863863000744267
5080733085 -0.6646150601537604 -0.28331350966503743
5081228380 -0.6668110803553933 -0.2783524221495578
5081723675 -0.6681015303260401 -0.2757389341530047
5082218970 -0.6694771992532831 -0.27124952485686854
5082714265 -0.6713061269960905 -0.2677357698741712
5083209560 -0.6728145323301616 -0.26380019125185517
5083704855 -0.6742303340058577 -0.2594226316401833
5084200150 -0.6755768844955846 -0.2552208884766227
5084695445 -0.6776968993638691 -0.2510927884202254
5085190740 -0.6783884857830248 -0.24793248035405813
5085686035 -0.6804229993569223 -0.2424906711829336
5086181330 -0.6813630744030601 -0.2388167342073039
5086676625 -0.6826336321077848 -0.2354032028662531
5087171920 -0.6844708888154281 -0.23070897240387767
5087667215 -0.685969446834765 -0.22665382686414218
5088162510 -0.6866702311917355 -0.2217673494627601
5088657805 -0.687357014731357 -0.21852777192467138
5089153100 -0.6890834256222373 -0.21373128734136881
5089648395 -0.6903354055003116 -0.20983049979335383
5090143690 -0.6912688581567061 -0.20492991412940778
5090638985 -0.6923710766591524 -0.20071877147022046
5091134280 -0.6933585060270209 -0.19562634747279317
5091629575 -0.6944065972378379 -0.19185547138515271
5092124870 -0.6953734755516052 -0.18742795915980087
5092620165 -0.6959637560342488 -0.18264283475122953
5093115460 -0.6967745893879941 -0.17864161180822472
5093610755 -0.6975718611165097 -0.17391452428541684
5094106050 -0.6984932548121402 -0.16937879512184545
5094601345 -0.699009496914713 -0.16577488654538206
5095096640 -0.6990383800707365 -0.1621115976258328
5095591935 -0.7004546366239849 -0.1556754104400936
5096087230 -0.700958229993519 -0.15090029098485647
5096582525 -0.7015659871854281 -0.1464550118697317
5097077820 -0.7014469284760324 -0.14319118386820742
5097573115 -0.7021282064287286 -0.13754161643354515
5098068410 -0.7022803143451088 -0.1355329006910324
5098563705 -0.7030019509164911 -0.12790933329808085
5099059000 -0.7031497829838803 -0.12393903144096073
5099554295 -0.7032958739682248 -0.11831001545253553
5100049590 -0.7041601507287276 -0.11564827749603673
5100544885 -0.7045419435752066 -0.10986206602109105
5101040180 -0.7047892934397647 -0.10502599140531138
5101535475 -0.7045047283172607 -0.10054437031871394
5102030770 -0.704612208040137 -0.09609207040385197
5102526065 -0.7046746580224288 -0.09245415384832181
5103021360 -0.7047434198228937 -0.0870740327395891
5103516655 -0.7044953986218101 -0.08125755622198708
5104011950 -0.7043147463547555 -0.07757593769776194
5104507245 -0.7042943396066365 -0.07207654455774709
5105002540 -0.7040918626283345 -0.06833412027672718
5105497835 -0.7037641907993116 -0.06250399096231711
5105993130 -0.7034552756108736 -0.057111598355205434
5106488425 -0.7028709273589285 -0.0535905359214858
5106983720 -0.7025633109243292 -0.04851863552865229
5107479015 -0.7021008541709498 -0.04397418271554144
5107974310 -0.7016372868889257 -0.03780559685669447
5108469605 -0.7011474245472958 -0.03496709387553366
5108964900 -0.7003358665265536 -0.028524295770023998
5109460195 -0.6996411241983113 -0.025030943614087607
5109955490 -0.6991059623266521 -0.01961862129208289
5110450785 -0.6982392198161075 -0.014404869442315478
5110946080 -0.697494387626648 -0.009813259943927588
5111441375 -0.6966655693556133 -0.004952879132408845
5111936670 -0.6955447542039972 -0.0002061893771353521
5112431965 -0.6947860749144303 0.00485649038302271
5112927260 -0.6938400299925553 0.010562805360869357
5113422555 -0.6927077111444975 0.014765469455405286
5113917850 -0.6915969848632812 0.019625079180849225
5114413145 -0.6902376162378412 0.025006182491779327
5114908440 -0.6892927790942945 0.02944846127770449
5115403735 -0.6878737870015597 0.03430104294889852
5115899030 -0.6864670107239171 0.039816442288850486
5116394325 -0.6852101589504042 0.04520914448719276
5116889620 -0.6836835114579451 0.0490724232636
5117384915 -0.6819952789105868 0.054524009361078866
5117880210 -0.680520729014748 0.06006002798676491
5118375505 -0.6786305120116786 0.06480708169309717
5118870800 -0.6770331608621698 0.06957110644955385
5119366095 -0.6752190244825262 0.07456512631554353
5119861390 -0.673502831082595 0.0804342184411852
5120356685 -0.671489953994751 0.08470938550798517
5120851980 -0.6698168673013386 0.08958449763687033
5121347275 -0.667479722123397 0.0945421974909933
5121842570 -0.6656916423847801 0.09943597175573048
5122337865 -0.6632442097914847 0.10509009698503896
5122833160 -0.6609981499220196 0.10984521555273156
5123328455 -0.6586647504254391 0.1147559034196954
5123823750 -0.6565490333657515 0.11947869627099288
5124319045 -0.6542258105779949 0.12461765816337184
5124814340 -0.651773960966813 0.12923416965886167
5125309635 -0.6489674794046503 0.1350193368761163
5125804930 -0.6464627165543405 0.13930344581604004
5126300225 -0.6436943662794012 0.1447282441352543
5126795520 -0.6408874455251192 0.1492288528304351
5127290815 -0.6381907619928059 0.15443357982133565
5127786110 -0.6350585284985995 0.15935605215398888
5128281405 -0.6322903727230272 0.1640364182622809
5128776700 -0.629231688223387 0.16905740530867325
5129271995 -0.6262919683205453 0.17382416129112244
5129767290 -0.6231605849767986 0.17882080062439568
5130262585 -0.6201655362781725 0.1832638626035891
5130757880 -0.6166479148362812 0.188326054497769
5131253175 -0.6131787268738997 0.19383311977511958
5131748470 -0.6096687128669337 0.19788862686408193
5132243765 -0.6062759411962408 0.20294763069403798
5132739060 -0.6023531242420799 0.20804265533622943
5133234355 -0.5990753205198991 0.21229392525396848
5133729650 -0.5952684565594322 0.2176338975366793
5134224945 -0.5915794058849937 0.2214967867261485
5134720240 -0.5879243988739816 0.22597727179527283
5135215535 -0.5835224546884236 0.2311417978060873
5135710830 -0.5791654743646321 0.23630333182058835
5136206125 -0.575503082651841 0.24073530655158193
5136701420 -0.5713926083163211 0.2445051019129
5137196715 -0.567776692541022 0.24846568468369937
5137692010 -0.5624034781205026 0.2553599774837494
5138187305 -0.558393983464492 0.25901436335162115
5138682600 -0.5549224332759255 0.26131331450060796
5139177895 -0.5490434954040929 0.2675841152667999
5139673190 -0.5448093822127894 0.2717289563856627
5140168485 -0.5406463146209717 0.2748177271140249
5140663780 -0.5354238403470892 0.2799322416907863
5141159075 -0.5308176090842799 0.28433677554130554
5141654370 -0.5256370400127611 0.2887879123813228
5142149665 -0.5210412050548353 0.2921507295809294
5142644960 -0.5162061923428586 0.2962439844482823
5143140255 -0.5114903669608267 0.2989284113833779
5143635550 -0.5055249960798966 0.3048583018152337
5144130845 -0.5004372283032066 0.30854078343040064
5144626140 -0.4953891180063549 0.3118620326644496
5145121435 -0.48952842699854 0.31675072877030624
5145616730 -0.4851574913451546 0.3188703107206445
5146112025 -0.47894448669333206 0.32348628420578807
5146607320 -0.47320948305882904 0.32716507503860875
5147102615 -0.4684957297224748 0.3296565225249843
5147597910 -0.4616799778059909 0.33505940123608235
5148093205 -0.45703078884827464 0.33712644326059443
5148588500 -0.45010232454852056 0.34206761655054596
5149083795 -0.4446689408076437 0.34466636808295
5149579090 -0.43852854402441727 0.3480326799969924
5150074385 -0.4307903725849955 0.3540043250510567
5150569680 -0.4267233814063825 0.3547676252691369
5151064975 -0.42037900811747503 0.35795798897743225
5151560270 -0.4140235656186154 0.36118327316484955
5152055565 -0.40826542126505 0.36358988598773356
5152550860 -0.40169773446886164 0.36698460578918457
5153046155 -0.3956609838887265 0.3694111798938952
5153541450 -0.38902346240846736 0.3723106854840329
5154036745 -0.381889355810065 0.37509734065909134
5154532040 -0.3756130337715149 0.37776121183445577
5155027335 -0.36932610210619476 0.3800391711686787
5155522630 -0.36218341087040146 0.3828442316306265
5156017925 -0.35550201096032796 0.385140094317888
5156513220 -0.3487507700920105 0.38795442330209834
5157008515 -0.3417004848781385 0.38953552120610285
5157503810 -0.3349440489944659 0.3917730058494367
5157999105 -0.3277378552838376 0.39369982637857137
5158494400 -0.3207358404209739 0.39563532565769394
5158989695 -0.3138754697222459 0.397524683099044
5159484990 -0.3061349391937256 0.3995971115011918
5159980285 -0.2993365918335162 0.401128257575788
5160475580 -0.29190798809653834 0.4027193878826342
5160970875 -0.2847567937876049 0.40422325542098597
5161466170 -0.27755123376846313 0.4056680610305385
5161961465 -0.26979307595052215 0.4072316634027581
5162456760 -0.2631144037372188 0.40808232050192983
5162952055 -0.25508785090948405 0.4094971292897275
5163447350 -0.24798285490588137 0.41015507359253733
5163942645 -0.23989947297071157 0.41178290624367564
5164437940 -0.232753198397787 0.41190920064323827
5164933235 -0.22560542116039678 0.4125304708355351
5165428530 -0.21773938285677055 0.41349302310692637
5165923825 -0.21016840636730194 0.4137838953419736
5166419120 -0.20265619770476692 0.4139092297930467
5166914415 -0.19402283037963666 0.4147240268556695
5167409710 -0.1873474105408317 0.41475225592914383
5167905005 -0.1792870195288407 0.4149498249355115
5168400300 -0.17190458978477277 0.41479300511510747
5168895595 -0.16295517353635086 0.4151580396451448
5169390890 -0.15591684611220108 0.4145637311433491
5169886185 -0.14923397647707085 0.4138529520285757
5170381480 -0.1405058016902522 0.41378735868554367
5170876775 -0.13126716174577413 0.41353466793110494
5171372070 -0.12477345411714755 0.4120961772768121
5171867365 -0.11754943430423737 0.4115635956588544
5172362660 -0.11037726072888625 0.410636621086221
5172857955 -0.10049087515002803 0.40995053084273086
5173353250 -0.09340565965363853 0.40854774337065847
5173848545 -0.08545301187979548 0.4075760198266883
5174343840 -0.07739912130330738 0.40644953125401545
5174839135 -0.06910292843454763 0.4049130364468223
5175334430 -0.06310670332689035 0.40290421718045283
5175829725 -0.0537110857273403 0.4013587910878031
5176325020 -0.04515570029616356 0.399640795431639
5176820315 -0.039176472511730696 0.39762003798233836
5177315610 -0.029654427480540778 0.3959827799546091
5177810905 -0.022337893808358593 0.39369771825639827
5178306200 -0.01515849346393033 0.39134207995314346
5178801495 -0.006997410060935899 0.38908516890124273
5179296790 0.0015064064217241186 0.3863296006855212
5179792085 0.008667180069575184 0.3838893065327092
5180287380 0.01653147302567959 0.38111349469737005
5180782675 0.023903666652346913 0.37853217438647624
5181277970 0.031608226071847115 0.37539208405896235
5181773265 0.03963079852493186 0.372467544518019
5182268560 0.04688551061247524 0.36944146219052765
5182763855 0.05517347843239182 0.3659764528274536
5183259150 0.06157229527046806 0.3628132186437908
5183754445 0.06910957788166247 0.35883607048737376
5184249740 0.07673364093429164 0.3557922495038886
5184745035 0.0840414589957187 0.35187540713109466
5185240330 0.09139546595121685 0.34813755123238815
5185735625 0.0988461222303541 0.344236201361606
5186230920 0.10593824010146291 0.3401575245355305
5186726215 0.11289871405614049 0.3357361304132562
5187221510 0.12023794690245077 0.3317226375404157
5187716805 0.12734599333060415 0.32797823767913015
5188212100 0.13429869476117587 0.32315820769259807
5188707395 0.14176457414501592 0.3181454853007668
5189202690 0.1482050026717939 0.31368361335051687
5189697985 0.15511321080358406 0.3091546312758797
5190193280 0.16191853190723218 0.3043661211666308
5190688575 0.1682702953878202 0.2996357506827304
5191183870 0.1751264153342498 0.2943896870864065
5191679165 0.1815885775967648 0.2895718844313371
5192174460 0.18832635957943766 0.2840474843978882
5192669755 0.19448880459132947 0.27899576331439774
