# HZ S RI R 50
5000000000 -0.1525325445752395 -0.2664186578047903
5000495295 -0.15391714792502553 -0.26713797920628596
5000990590 -0.1567128449678421 -0.26785160679566233
5001485885 -0.15934443395388753 -0.2681399128938976
5001981180 -0.1614140162342473 -0.2689731262232128
5002476475 -0.1642147859460429 -0.26921374860562775
5002971770 -0.16717545923433805 -0.2696529846442373
5003467065 -0.16935039272433833 -0.26980564782493993
5003962360 -0.17227079444809965 -0.269772060607609
5004457655 -0.17394435719439857 -0.27070461605724533
5004952950 -0.17659522749875722 -0.2707934112925279
5005448245 -0.1795244922763423 -0.2704427618729441
5005943540 -0.18170583169711263 -0.270651051872655
5006438835 -0.1841575934698707 -0.27063601424819544
5006934130 -0.18652307124514328 -0.2710521723094739
5007429425 -0.188922549548902 -0.2709981030539462
5007924720 -0.19109064419018595 -0.2715121366475758
5008420015 -0.1940583037702661 -0.2707142202477706
5008915310 -0.19649319350719452 -0.270625933220512
5009410605 -0.19846654644137934 -0.2707383962054002
5009905900 -0.2010319836829838 -0.27051336828031036
5010401195 -0.20325972296689687 -0.2706252587469001
5010896490 -0.20562120723096947 -0.2704143947676608
5011391785 -0.2081633547418996 -0.2701854815608577
5011887080 -0.2100889243577656 -0.2697690317505284
5012382375 -0.21274854948646144 -0.26947128145318283
5012877670 -0.21483956904787765 -0.26891338354662847
5013372965 -0.21733576922040238 -0.26893681287765503
5013868260 -0.21950438148096987 -0.2684135986001868
5014363555 -0.22146298148130117 -0.2679698545681803
5014858850 -0.2241389147545162 -0.2677173912525177
5015354145 -0.22627302690556175 -0.2669786199143058
5015849440 -0.22833171094718732 -0.26662748581484746
5016344735 -0.230319754857766 -0.2661676250006023
5016840030 -0.23242667552671933 -0.26589839395723847
5017335325 -0.23463265519393117 -0.2649689583401931
5017830620 -0.23759801058392777 -0.26403629622961344
5018325915 -0.23939644192394458 -0.26357387398418625
5018821210 -0.24122295881572522 -0.262629392899965
5019316505 -0.24317150053225065 -0.2621544521105917
5019811800 -0.24510138521068975 -0.2616824492027885
5020307095 -0.2471395370207335 -0.26121933679831655
5020802390 -0.24934741540959007 -0.260265798945176
5021297685 -0.25139037872615616 -0.25939262383862544
5021792980 -0.2535007972466318 -0.2579784110972756
5022288275 -0.2546306864211434 -0.2581611808977629
5022783570 -0.2574185917251988 -0.25637152634168925
5023278865 -0.2594700392923857 -0.2554888129234314
5023774160 -0.26114797121600103 -0.2548012576605144
5024269455 -0.26316763382208974 -0.2541259558577287
5024764750 -0.2648837095812747 -0.25276396619646174
5025260045 -0.2664855624500074 -0.2519751222510087
5025755340 -0.26836904726530375 -0.2510841645692524
5026250635 -0.27044068198455007 -0.2496156394481659
5026745930 -0.2721127036370729 -0.2484515732840488
5027241225 -0.2739374433693133 -0.2476251831180171
5027736520 -0.2758569560552898 -0.2460308827851948
5028231815 -0.27708970559270757 -0.24553599953651428
5028727110 -0.27947153229462474 -0.24365490361263878
5029222405 -0.28077475805031626 -0.2427282419643904
5029717700 -0.282827134195127 -0.24147348184334605
5030212995 -0.28385260544325175 -0.24069299901786603
5030708290 -0.2862487749049538 -0.23857543107710386
5031203585 -0.28704091435984563 -0.23795609568294726
5031698880 -0.2890128226656663 -0.23590007973344704
5032194175 -0.29024175436873184 -0.23494207466903486
5032689470 -0.2917358216486479 -0.2335580210936697
5033184765 -0.29243406339695577 -0.23292929404660276
5033680060 -0.2944047027512601 -0.2310024735174681
5034175355 -0.29617070210607427 -0.22941483321942782
5034670650 -0.2979020021463695 -0.22739165080221077
5035165945 -0.29855687680997345 -0.22693720224656558
5035661240 -0.30026417500094366 -0.22487935266996684
5036156535 -0.3013461373354259 -0.22344574724373065
5036651830 -0.3029054748384576 -0.22224604691329755
5037147125 -0.3036142321009385 -0.22077268048336632
5037642420 -0.3053935185859078 -0.21850642797194028
5038137715 -0.30646718018933344 -0.21725084201285713
5038633010 -0.3075212899007295 -0.2155184330124604
5039128305 -0.30811881234771327 -0.21417028652994255
5039623600 -0.30957651295159994 -0.2126134492849049
5040118895 -0.3105645807165849 -0.2110393149288077
5040614190 -0.31134679599812154 -0.20928935314479627
5041109485 -0.3128354580778825 -0.2077867600478624
5041604780 -0.313574869381754 -0.20612911958443492
5042100075 -0.3143356787530999 -0.20462188281511007
5042595370 -0.31543530915912826 -0.20277140171904312
5043090665 -0.31642787864333705 -0.20087632458460958
5043585960 -0.3165562874392459 -0.19990557118466026
5044081255 -0.317990265394512 -0.19769668422247233
5044576550 -0.3185313077349412 -0.19578065448685697
5045071845 -0.3192997119928661 -0.194328447705821
5045567140 -0.3202654735038155 -0.19234061711712888
5046062435 -0.3203352281921788 -0.19100720239313027
5046557730 -0.32147143075340673 -0.18888873018716512
5047053025 -0.32194757932110835 -0.18721178879863337
5047548320 -0.32259167652381093 -0.1858795238168616
5048043615 -0.32305501950414556 -0.18400593650968453
5048538910 -0.32350067559041473 -0.18217571079730988
5049034205 -0.3238542048554671 -0.18024160360035144
5049529500 -0.32471184040370743 -0.17864846791091718
5050024795 -0.32430355172408254 -0.17788596529709666
5050520090 -0.3254927381088859 -0.17478009901548686
5051015385 -0.3256445181997199 -0.1732620275334308
5051510680 -0.32635410679014104 -0.17123165256098696
5052005975 -0.3265746831893921 -0.1693074130698254
5052501270 -0.32678211049029704 -0.16818886132616745
5052996565 -0.32702206781035975 -0.1658824933202643
5053491860 -0.3274225623984086 -0.16423126506178
5053987155 -0.32727277122045817 -0.16259310904302096
5054482450 -0.3275019746077688 -0.1604145773147282
5054977745 -0.32788987222470733 -0.1586204806440755
5055473040 -0.3275911400192662 -0.15686432468263725
5055968335 -0.32767198430864436 -0.1552839490928148
5056463630 -0.3275112180333388 -0.15359442406579069
5056958925 -0.32762050001244797 -0.1516782892377753
5057454220 -0.3278219229296634 -0.14983365410252622
5057949515 -0.3275885597655648 -0.14767700041595258
5058444810 -0.3273254993714784 -0.14626490991366536
5058940105 -0.3274416170622173 -0.1443249457760861
5059435400 -0.3272083825186679 -0.1424550351343657
5059930695 -0.32685603436670807 -0.1409066915512085
5060425990 -0.32688083460456446 -0.13851953337067052
5060921285 -0.32631604138173553 -0.13722397465454905
5061416580 -0.3261221223755887 -0.13536061581812406
5061911875 -0.32601230081759003 -0.13303729342786888
5062407170 -0.32532919237488195 -0.13196455255935066
5062902465 -0.32490367167874384 -0.13024749410779854
5063397760 -0.32456615724061666 -0.12865632458737022
5063893055 -0.3236019093739359 -0.127284448397787
5064388350 -0.32367179581993505 -0.12515670374820106
5064883645 -0.3229894151813106 -0.1231530163633196
5065378940 -0.32239753635306106 -0.12148849705332204
5065874235 -0.32172775425409017 -0.12029282238922621
5066369530 -0.3213706220451154 -0.11818668324696391
5066864825 -0.32039129734039307 -0.11673118840706975
5067360120 -0.3197385464843951 -0.11493384445968427
5067855415 -0.31904913563477366 -0.11339216444053148
5068350710 -0.31798631737106725 -0.11186803367577101
5068846005 -0.3177380499086882 -0.10910583169836748
5069341300 -0.31651939216412994 -0.10884238975612741
5069836595 -0.31592433703573125 -0.10694731066101476
5070331890 -0.31471189385966253 -0.10546391927882244
5070827185 -0.3136323141424279 -0.10443999500651109
5071322480 -0.3128505490328136 -0.10252752037424791
5071817775 -0.3119371549079293 -0.10146679376301013
5072313070 -0.31069383966295344 -0.09971988083500612
5072808365 -0.31017863593603434 -0.09725407903131686
5073303660 -0.3090722090319583 -0.09563278093149788
5073798955 -0.3074166586524562 -0.09591377722589593
5074294250 -0.3067177298821901 -0.09438212725676988
5074789545 -0.3056091791705081 -0.0922508431892646
5075284840 -0.3045339474552556 -0.09060506444228322
5075780135 -0.30343975832587794 -0.0889443657115886
5076275430 -0.30187433330636276 -0.08846645998327356
5076770725 -0.3007732535663404 -0.08717054246287596
5077266020 -0.2994393173017 -0.08557464182376862
5077761315 -0.29832150591047185 -0.08454006557401858
5078256610 -0.2970640031914962 -0.08319544831388875
5078751905 -0.2955739466767562 -0.08233340319834258
5079247200 -0.2942567671600141 -0.08109332777951893
5079742495 -0.2932376924313997 -0.07978289103821705
5080237790 -0.2918320611903542 -0.078595396327345
5080733085 -0.29050156474113464 -0.07771251193786922
5081228380 -0.2889030716921154 -0.07622279030712027
5081723675 -0.28755933516903925 -0.0751978954986522
5082218970 -0.28613006754925374 -0.07417670480514828
5082714265 -0.2845423033362941 -0.07317830269273959
5083209560 -0.28323612871922943 -0.07235547233568995
5083704855 -0.28172731399536133 -0.07099493240055285
5084200150 -0.28049109013457046 -0.07045921800952208
5084695445 -0.27868154801820455 -0.06939125335530232
5085190740 -0.277140421302695 -0.06812542951420734
5085686035 -0.2755674766866784 -0.06753587134574589
5086181330 -0.27407501559508474 -0.06671978572481557
5086676625 -0.2723577414688311 -0.0662531946834765
5087171920 -0.27091917552446065 -0.06489273788113344
5087667215 -0.269001432155308 -0.06440608124983938
5088162510 -0.26753885181326614 -0.06375408956879064
5088657805 -0.26590821460673686 -0.06291042464344125
5089153100 -0.26416044486196416 -0.06231986535222907
5089648395 -0.2624225600769645 -0.06152132643680824
5090143690 -0.26076989581710414 -0.061035101939188804
5090638985 -0.2590490814886595 -0.059768913019644584
5091134280 -0.25716433870164973 -0.05964673310518265
5091629575 -0.2557660639286041 -0.0586494034842441
5092124870 -0.2535119731175272 -0.058401904608073985
5092620165 -0.2516264664499383 -0.057931861202967797
5093115460 -0.24982709555249466 -0.05747676660355769
5093610755 -0.24819719242422203 -0.057438494931710396
5094106050 -0.24645749126610003 -0.05567396706656406
5094601345 -0.24421794790970652 -0.056281680143193194
5095096640 -0.24243055833013435 -0.055581050483804
5095591935 -0.24044654008589292 -0.05566624885326937
5096087230 -0.23868399152630254 -0.05549319715876328
5096582525 -0.23684605407087425 -0.05478543396058835
5097077820 -0.23466230536762037 -0.05556102744058559
5097573115 -0.23303151052249105 -0.054029983321302814
5098068410 -0.23047330975532532 -0.05483848189837054
5098563705 -0.22885532912455106 -0.05418304922549348
5099059000 -0.22705360854926862 -0.05429163045789066
5099554295 -0.2247741975282368 -0.05469526330891408
5100049590 -0.2247320758669 -0.05586866073702511
5100544885 -0.2229756956037722 -0.05487133170429029
5101040180 -0.22111675143241882 -0.054920248883335215
5101535475 -0.21927101282696976 -0.05552705024418078
5102030770 -0.21724357181473783 -0.055720023810863495
5102526065 -0.2153949737548828 -0.05575855252774138
5103021360 -0.21368674855483205 -0.055240516599855925
5103516655 -0.21148451849033958 -0.0570567550235673
5104011950 -0.20978093382559324 -0.056616545703850295
5104507245 -0.20784943590038701 -0.057027150141565425
5105002540 -0.20614945653237796 -0.05746819588698839
5105497835 -0.2040819212010032 -0.05766108416413006
5105993130 -0.20228023591794467 -0.0581408086183824
5106488425 -0.20027321184936323 -0.05927588810261927
5106983720 -0.19895186785020327 -0.05882208676714646
5107479015 -0.1965820334459606 -0.05990579136108097
5107974310 -0.1952848716786033 -0.06017898611332241
5108469605 -0.19318360090255737 -0.060868944972753525
5108964900 -0.19152390878451497 -0.06129729296816023
5109460195 -0.18976404792384097 -0.061868836220942046
5109955490 -0.18809885649304642 -0.062282437752736244
5110450785 -0.1862293175960842 -0.06291923044543517
5110946080 -0.1843804324928083 -0.06369551820190329
5111441375 -0.18280148898300372 -0.06353490093820974
5111936670 -0.18083882174993815 -0.0651273158820052
5112431965 -0.17924691109280838 -0.06585559366565001
5112927260 -0.17749741908751035 -0.06642434471531918
5113422555 -0.17575213313102722 -0.06730907880946209
5113917850 -0.1740105505052366 -0.06809057060040925
5114413145 -0.1722773517432966 -0.06906104872101232
5114908440 -0.17070939744773664 -0.06971978670672367
5115403735 -0.16892713700470172 -0.07019963350735213
5115899030 -0.16727089019198166 -0.07129339834577159
5116394325 -0.16571292438005147 -0.07233028545191414
5116889620 -0.1638920142462379 -0.07342859592876937
5117384915 -0.1623346005615435 -0.07442568556258553
5117880210 -0.16083306074142456 -0.07506778326473738
5118375505 -0.15898399682421432 -0.07628710999300606
5118870800 -0.15747479780724175 -0.07723424858168552
5119366095 -0.1557202746993617 -0.07810330665425251
5119861390 -0.1542392694636395 -0.07928148696297094
5120356685 -0.15278779676086024 -0.08023453033284138
5120851980 -0.1510968655347824 -0.08107768234453704
5121347275 -0.14960742075192301 -0.08241907899316989
5121842570 -0.1479142206279855 -0.0836402271923266
5122337865 -0.14679297020560816 -0.08464023235597108
5122833160 -0.14495086434640383 -0.08574937597701424
5123328455 -0.14352593767015556 -0.0871946431304279
5123823750 -0.14180819298091688 -0.08821555579963483
5124319045 -0.14064087679511622 -0.08930775836894386
5124814340 -0.1387043728640205 -0.09067681863119728
5125309635 -0.13762174860427254 -0.09200124834713183
5125804930 -0.1361474661450637 -0.09331881137270677
5126300225 -0.13486299702995702 -0.09459863995250903
5126795520 -0.1334368680652819 -0.09594370111038811
5127290815 -0.13191975339462883 -0.09729582306585814
5127786110 -0.13023971021175385 -0.09863585782678504
5128281405 -0.1288357471164904 -0.10008782462069862
5128776700 -0.12780226688635976 -0.1013608037641174
5129271995 -0.126246430371937 -0.102948754241592
5129767290 -0.12502659661205193 -0.10422688369688235
5130262585 -0.12361582996029603 -0.10577063458530526
5130757880 -0.12223849249513526 -0.10727759529101222
5131253175 -0.1210917097173239 -0.10863737997255828
5131748470 -0.11963526473233574 -0.11044705227801674
5132243765 -0.11853590725283873 -0.11188934821831553
5132739060 -0.1174395751011999 -0.11342235497738186
5133234355 -0.1159919421923788 -0.11501796739666086
5133729650 -0.11469035713296187 -0.11665598616788261
5134224945 -0.11370873764941566 -0.11830285740526099
5134720240 -0.1125986364326979 -0.11997420497630772
5135215535 -0.11141797664918397 -0.12147495542701922
5135710830 -0.11042609340266178 -0.12335114651604702
5136206125 -0.10915649564642656 -0.12517505335180382
5136701420 -0.10830333162295191 -0.1262814849615097
5137196715 -0.10693660927446265 -0.12830694255075956
5137692010 -0.10632707021738354 -0.1294876791928944
5138187305 -0.10466626639428891 -0.1317785735193052
5138682600 -0.1039958106059777 -0.13319032756905808
5139177895 -0.10275717785483912 -0.134984248562863
5139673190 -0.10142499522158974 -0.13709106806077456
5140168485 -0.10096882087619681 -0.13846774556134878
5140663780 -0.09979852445815739 -0.14044945020424693
5141159075 -0.09914138913154602 -0.14218796711218984
5141654370 -0.09808838053753502 -0.14418186247348785
5142149665 -0.09708517789840698 -0.1458896892635446
5142644960 -0.09655767836068806 -0.14768882958512558
5143140255 -0.09578328814945723 -0.14962744477548098
5143635550 -0.09443789210758712 -0.151845362625624
5144130845 -0.09407005106147967 -0.15370088658834757
5144626140 -0.09343714384656203 -0.1554736887153826
5145121435 -0.09281477253688009 -0.15729058259411863
5145616730 -0.09211224003842003 -0.15927557960936897
5146112025 -0.09127300075794521 -0.1611570362981997
5146607320 -0.09067178321512122 -0.16300315998102488
5147102615 -0.08996508584210747 -0.16519417731385483
5147597910 -0.08952118966140245 -0.1670763837663751
5148093205 -0.08900421348057296 -0.16894462469377017
5148588500 -0.08849587134624783 -0.17108975978274094
5149083795 -0.087931947096398 -0.1728051947919946
5149579090 -0.08735473963775132 -0.1746204464059127
5150074385 -0.08749257067316457 -0.1762053331262187
5150569680 -0.08643457764073421 -0.17843067959735268
5151064975 -0.08574948499077245 -0.18036033918983058
5151560270 -0.08556460706811202 -0.18237217711774925
5152055565 -0.0851816805569749 -0.18424653771676516
5152550860 -0.08469533959501668 -0.18645733359612918
5153046155 -0.08429739741902602 -0.18809354462121664
5153541450 -0.0839529394319183 -0.18985295374142497
5154036745 -0.08364476028241609 -0.19185112652025724
5154532040 -0.08339128839342218 -0.19377152543318898
5155027335 -0.08314788341522217 -0.19574120013337387
5155522630 -0.08234630172189913 -0.19773691186779424
5156017925 -0.08236631319711082 -0.19979795186143173
5156513220 -0.08217401645685497 -0.20140774861762398
5157008515 -0.08161658440765582 -0.20343081809972463
5157503810 -0.0814177542924881 -0.20525256740419487
5157999105 -0.08106753190881327 -0.20730700461488022
5158494400 -0.08080613338633587 -0.20946243640623594
5158989695 -0.08077439312872134 -0.21131533070614464
5159484990 -0.08040638816984076 -0.2135072177962253
5159980285 -0.08028568131359 -0.21536446009811602
5160475580 -0.08046633593345943 -0.21753734428631633
5160970875 -0.07976853612222169 -0.2196668002166246
5161466170 -0.08022058480664303 -0.22134947933648763
5161961465 -0.07957172001663007 -0.22366977757529208
5162456760 -0.07974555853166078 -0.22545602211826726
5162952055 -0.07949778751323097 -0.22761213701022298
5163447350 -0.07979957602526012 -0.22956200257727974
5163942645 -0.08011457873018164 -0.231867547097959
5164437940 -0.07987700755658902 -0.23367649630496376
5164933235 -0.07982789411356575 -0.23594314644211217
5165428530 -0.08035732727301748 -0.2377685684906809
5165923825 -0.08032098569368061 -0.23986973809568504
5166419120 -0.08027762802023637 -0.24199491268710085
5166914415 -0.08077464919341237 -0.2443028366879413
5167409710 -0.08045342564582825 -0.2462819893109171
5167905005 -0.08099106856082615 -0.2482527627756721
5168400300 -0.08039849094654385 -0.2503683112169567
5168895595 -0.08134782471154865 -0.252181224132839
5169390890 -0.08165107745873301 -0.25427702853554174
5169886185 -0.08185112476348877 -0.2564075965630381
5170381480 -0.082184562557622 -0.2580939248988503
5170876775 -0.08217726216504448 -0.2606839380766216
5171372070 -0.08273090657434966 -0.2626927745969672
5171867365 -0.08333379422363482 -0.264643542076412
5172362660 -0.08408783180148978 -0.2667356258944461
5172857955 -0.08475942988144725 -0.2687427087834007
5173353250 -0.08436042305670287 -0.2710966436486495
5173848545 -0.08478784090594242 -0.27314251190737676
5174343840 -0.08633924471704583 -0.2743204988931355
5174839135 -0.08623411545627996 -0.27701955719998006
5175334430 -0.08670458079952943 -0.27907891336240265
5175829725 -0.08717764717967887 -0.2812051475048065
5176325020 -0.08747435125865434 -0.2831333938397859
5176820315 -0.0890283557145219 -0.2847573427777541
5177315610 -0.08891626094516955 -0.2869547087895243
5177810905 -0.09055623255277935 -0.2885903621974744
5178306200 -0.09127499672927354 -0.29067573421879817
5178801495 -0.09103840864018391 -0.29279898812896327
5179296790 -0.09192934789155659 -0.2947588296313035
5179792085 -0.09297530470710051 -0.2966512865141818
5180287380 -0.09276620808400605 -0.2988134701001017
5180782675 -0.09446110929313459 -0.30030789657642964
5181277970 -0.09525934097013976 -0.30229213363245916
5181773265 -0.09547068531575956 -0.30426336432758133
5182268560 -0.09680424748282683 -0.3060845450351113
5182763855 -0.09728645258828213 -0.30807788748490184
5183259150 -0.09818412324315623 -0.3098424516226116
5183754445 -0.09954406830825303 -0.3114898549882989
5184249740 -0.10013548363196223 -0.3134907358571103
5184745035 -0.10175663742579912 -0.3151920014306119
5185240330 -0.10137363719312768 -0.3174856744314495
5185735625 -0.1030460113757535 -0.31924327894261006
5186230920 -0.10364034850346415 -0.3210635106814535
5186726215 -0.10530928522348404 -0.3220715773733039
5187221510 -0.10614872880672153 -0.32486894883607564
5187716805 -0.10645583860184017 -0.32695576862285014
5188212100 -0.10813311957999279 -0.32841493738325017
5188707395 -0.10904897906278309 -0.3302534881391023
