# HZ S RI R 50
5000000000 -0.730305834820396 -0.5270190615403024
5000495295 -0.7335927768757469 -0.523864137498956
5000990590 -0.7389230351699027 -0.5167158528378135
5001485885 -0.742615492720353 -0.5125451119322526
5001981180 -0.747684475622679 -0.5056215399189999
5002476475 -0.7525484216840643 -0.4987333840445468
5002971770 -0.7566390759066531 -0.4932592840571153
5003467065 -0.7604957536647194 -0.4876120106170052
5003962360 -0.7662063429230138 -0.4797222033927315
5004457655 -0.7692941113522178 -0.47491966109526784
5004952950 -0.7742013994016146 -0.4679896800141585
5005448245 -0.7777253891292372 -0.4624767726973483
5005943540 -0.7822471857070923 -0.4556550791389064
5006438835 -0.7858267865682903 -0.4493222660139987
5006934130 -0.7903484858964619 -0.4413642804873617
5007429425 -0.7939121629062452 -0.43639448285102844
5007924720 -0.7973384700323406 -0.429856770916989
5008420015 -0.8015275566201461 -0.4226695440317455
5008915310 -0.8047682297857184 -0.4157414828476153
5009410605 -0.8088984238473993 -0.40955168793075963
5009905900 -0.8123584609282645 -0.4024597971062911
5010401195 -0.8152570818599901 -0.39548336989001226
5010896490 -0.8186631641889873 -0.38891008809993144
5011391785 -0.8216770856004012 -0.3816636251775842
5011887080 -0.8249101230972692 -0.3752629600073162
5012382375 -0.8282541820877477 -0.3680180389630167
5012877670 -0.8308600563752023 -0.3609060205911335
5013372965 -0.8344186607160067 -0.3532311445788333
5013868260 -0.837132497837669 -0.3467763285887869
5014363555 -0.8395574186977587 -0.33925097082790573
5014858850 -0.8426080471590945 -0.33205376330174896
5015354145 -0.8452421332660475 -0.32479085577161687
5015849440 -0.847918268881346 -0.3172815347972669
5016344735 -0.8505657691704599 -0.30960211314653097
5016840030 -0.8528168326929996 -0.3026782995776126
5017335325 -0.8551193350239804 -0.29452108552581385
5017830620 -0.8570138278760409 -0.28784242115522685
5018325915 -0.859381942372573 -0.27992488679132965
5018821210 -0.861209119621076 -0.2720161990115517
5019316505 -0.8634432491503263 -0.26511135697364807
5019811800 -0.8651145131964433 -0.25799506588986043
5020307095 -0.8667294853611996 -0.25020816922187805
5020802390 -0.8685403591708133 -0.24194245354125374
5021297685 -0.869858255511836 -0.2346070769586061
5021792980 -0.8718818049681815 -0.2253816943419607
5022288275 -0.8734397574474937 -0.2187092955175199
5022783570 -0.8744663784378454 -0.21137317073972603
5023278865 -0.8751325983750192 -0.2024698837807304
5023774160 -0.8762475189409757 -0.1961617195292523
5024269455 -0.8778448261712727 -0.18656992598583824
5024764750 -0.8788650286825079 -0.17783448256944356
5025260045 -0.8795811753523978 -0.17013970017433167
5025755340 -0.8802381753921509 -0.16387919062062314
5026250635 -0.8807490938588193 -0.15465055013957776
5026745930 -0.8814438550095809 -0.14681069866607063
5027241225 -0.8818737927236056 -0.13832358702232964
5027736520 -0.8818957868375277 -0.13154925405979156
5028231815 -0.8821454016785872 -0.12213658619868129
5028727110 -0.8826298996021873 -0.11300580399601083
5029222405 -0.8820245265960693 -0.10700382566765736
5029717700 -0.8822396397590637 -0.09794509293217409
5030212995 -0.8820856244940507 -0.08865016110633549
5030708290 -0.8814292550086975 -0.08121590159441296
5031203585 -0.881000418412058 -0.07451735476129934
5031698880 -0.880453414038608 -0.06552368833830483
5032194175 -0.879741116573936 -0.05781218899708045
5032689470 -0.878954457609277 -0.04928150459339744
5033184765 -0.8781550620731554 -0.04070471756552395
5033680060 -0.8772004999612507 -0.03132071228403794
5034175355 -0.8760398469473186 -0.023608682285013952
5034670650 -0.8744574408782156 -0.015348842808682667
5035165945 -0.8736905581072757 -0.007864593087058318
5035661240 -0.8719354020921808 0.0015425785003524077
5036156535 -0.8704158255928441 0.008213659013180356
5036651830 -0.8686771926126982 0.017569166167001975
5037147125 -0.8669187269712749 0.025789766229296986
5037642420 -0.865191610235917 0.03381587810030109
5038137715 -0.8633029962840834 0.04186432102793142
5038633010 -0.861051995503275 0.0501426652465996
5039128305 -0.8585516653562847 0.05876905922042696
5039623600 -0.8564922840971696 0.06618958123420414
5040118895 -0.8540119183690924 0.07468214160517643
5040614190 -0.8513933796631662 0.08305701574212626
5041109485 -0.8485600195432964 0.09049917600656811
5041604780 -0.846106585703398 0.09889015241673119
5042100075 -0.8431482660142999 0.10630009872348685
5042595370 -0.8400106492795443 0.11452499777078629
5043090665 -0.8366263195088035 0.1229486136060012
5043585960 -0.833642724313234 0.13063423335552216
5044081255 -0.8298531927560505 0.1393346347306904
5044576550 -0.826438866163555 0.14682448929861971
5045071845 -0.8229270514688993 0.15436164407353653
5045567140 -0.8186515538316024 0.16314310149142616
5046062435 -0.8153312770943892 0.17012677224058853
5046557730 -0.8108014778087014 0.17895829599154622
5047053025 -0.807101243420651 0.18594060995076833
5047548320 -0.8026012182235718 0.19411310867259376
5048043615 -0.7984981536865234 0.2010093425449572
5048538910 -0.7937100529670715 0.20842412976842178
5049034205 -0.789495072866741 0.21636244968364113
5049529500 -0.7844380171675431 0.22375326093874479
5050024795 -0.7809007450153953 0.22672485050402189
5050520090 -0.774449740585528 0.23888722140538066
5051015385 -0.7695362881610268 0.2451537722035458
5051510680 -0.7643484535970186 0.2530516715426194
5052005975 -0.7589023458330255 0.2600914349681453
5052501270 -0.7537668504213032 0.2674262460909392
5052996565 -0.7479499045171236 0.2744147432477851
5053491860 -0.7426920093988117 0.28125579733597605
5053987155 -0.7365488504108629 0.2881957935659509
5054482450 -0.7310381594457125 0.29524833748215124
5054977745 -0.7257656141331321 0.3011249021479958
5055473040 -0.7188972924884997 0.3084507898280495
5055968335 -0.7128938154170388 0.3153148952283357
5056463630 -0.7065878479104293 0.3214607474051024
5056958925 -0.700508293352629 0.3276267381090867
5057454220 -0.6937049627304077 0.33474159554431315
5057949515 -0.6872695809916446 0.34016626916433634
5058444810 -0.6804648010354293 0.3465199297980258
5058940105 -0.6738938971569663 0.35342279860847875
5059435400 -0.6666401122745714 0.3589979519969539
5059930695 -0.6596368708108601 0.36520973004792867
5060425990 -0.6517961652655351 0.37243276991342245
5060921285 -0.6461911515185708 0.37519893207048116
5061416580 -0.6386446011693854 0.38089955637329503
5061911875 -0.6294409005265487 0.3889375266275908
5062407170 -0.6239476517627114 0.39208894026906865
5062902465 -0.6155439740733096 0.3983739441946933
5063397760 -0.6087031458553515 0.40272612163895055
5063893055 -0.5996535734126442 0.40900151823696335
5064388350 -0.5934225132590846 0.4121848093835931
5064883645 -0.5836712435672158 0.41918651210634333
5065378940 -0.5772230060477006 0.422311627551129
5065874235 -0.568885254232507 0.4268004204097547
5066369530 -0.560268195051896 0.43232371775727524
5066864825 -0.5533993369654605 0.43563242805631536
5067360120 -0.5428888264455294 0.44216268313558477
5067855415 -0.5354499722781935 0.4450109538279082
5068350710 -0.5288494825363159 0.4472726850133193
5068846005 -0.5178463709981818 0.4535786901649676
5069341300 -0.5110851745856436 0.45548650151804876
5069836595 -0.5009275266998693 0.46126618510798406
5070331890 -0.4938537901953647 0.4627982974052429
5070827185 -0.4849878910340761 0.4665848455931011
5071322480 -0.47616165405825567 0.4694350832387021
5071817775 -0.46541513894733627 0.47459745093395833
5072313070 -0.4583557106946644 0.47582435294201497
5072808365 -0.44950512208436666 0.4789667960844542
5073303660 -0.4397199357810773 0.48168845553147166
5073798955 -0.4305272447435479 0.4847297119466882
5074294250 -0.4214557675938857 0.48759440842427704
5074789545 -0.411849718344839 0.48931494982619034
5075284840 -0.40297930962161016 0.49134607848368195
5075780135 -0.39320697282489975 0.49432873412182454
5076275430 -0.38428924742497894 0.49514638279613693
5076770725 -0.3748729009377329 0.49741913770374496
5077266020 -0.3663890330415023 0.49871443133605153
5077761315 -0.3564311814935584 0.5000892281532288
5078256610 -0.3475844044434397 0.5012825947058829
5078751905 -0.3366081118583679 0.5034587853833249
5079247200 -0.3281963781306618 0.503501412115599
5079742495 -0.3187542651828967 0.5043936967849731
5080237790 -0.3086371233588771 0.5061051312245821
5080733085 -0.29970780642409073 0.5056496199808622
5081228380 -0.2904874462830393 0.505978590563724
5081723675 -0.28069298518331426 0.5061888569279721
5082218970 -0.2708171292355186 0.5067170983866641
5082714265 -0.2614678724815971 0.5069007748051694
5083209560 -0.25207772537281636 0.5066685237382588
5083704855 -0.24263405721438558 0.5061074118865164
5084200150 -0.2334644057248768 0.5057272064058405
5084695445 -0.22341855340882352 0.5054121393906442
5085190740 -0.21361728169416128 0.5047735603232133
5085686035 -0.20423897708717145 0.5037433034495303
5086181330 -0.19407308180081217 0.5029055821268182
5086676625 -0.18530482994882683 0.5014842999608893
5087171920 -0.1757170354065142 0.5006951140730005
5087667215 -0.16637470063410306 0.49896418264037684
5088162510 -0.15724489641816994 0.49690146979532746
5088657805 -0.14744089151683606 0.49577265350442185
5089153100 -0.1375018585669367 0.4935652127391414
5089648395 -0.1279101638417495 0.49157309845874186
5090143690 -0.11966306794630854 0.48945238872578267
5090638985 -0.10997589834426579 0.4874873882845828
5091134280 -0.10091924000727504 0.48448603247341354
5091629575 -0.09192455599182531 0.4822205258043189
5092124870 -0.08253368264750431 0.47940914725002487
5092620165 -0.0726908323796172 0.4764590843727714
5093115460 -0.06445873626752903 0.47345107480099324
5093610755 -0.05530812826595808 0.4704182304834065
5094106050 -0.04757081227082955 0.46673361251228734
5094601345 -0.037382925223363075 0.46334164864138555
5095096640 -0.028442938076822383 0.4599059867231469
5095591935 -0.02106882700402486 0.45640547965702255
5096087230 -0.012907740267875948 0.4519223084575252
5096582525 -0.002165011669460096 0.448598607590324
5097077820 0.006283551405527089 0.44436934276631
5097573115 0.013949101300616013 0.4400181362503453
5098068410 0.02232952347319377 0.4358599311427066
5098563705 0.030551880598068237 0.4310955860112843
5099059000 0.039692207974822896 0.42647040203997966
5099554295 0.0481364827014898 0.4221316434835133
5100049590 0.055316559186107235 0.41923572358332184
5100544885 0.06342030747940666 0.4139614967923415
5101040180 0.07209407381321255 0.40894439973329244
5101535475 0.07961127161979675 0.4039383483560462
5102030770 0.08844682535058573 0.39841172412822123
5102526065 0.0957079396436089 0.39299886163912323
5103021360 0.10277224449734938 0.3878602495318965
5103516655 0.11149807901758897 0.3818352630263881
5104011950 0.1176462585204526 0.37645083038430466
5104507245 0.1252811570700846 0.3706711875764947
5105002540 0.1324368080026225 0.3646366941301446
5105497835 0.13971081532930074 0.35844820737838745
5105993130 0.14689005283932938 0.3521721065044403
5106488425 0.15314637908810064 0.3461526946017617
5106983720 0.16057797795847842 0.33985226248439987
5107479015 0.1669392742608723 0.3334477418347409
5107974310 0.17374119476268166 0.32704698255187586
5108469605 0.18028503499533 0.3203938619086617
5108964900 0.18643866087261 0.3139326541047347
5109460195 0.19307607726046913 0.3069792954545272
5109955490 0.19857790674033918 0.30041607430106715
5110450785 0.20480100653673472 0.29368158390647486
5110946080 0.2111264208429738 0.2862140959814975
5111441375 0.2169290608481357 0.27950802131703023
5111936670 0.22280161082744598 0.2724528532279165
5112431965 0.22815615252444618 0.2652989218109532
5112927260 0.23343845652906517 0.257918866057145
5113422555 0.23907326789278732 0.2506525030261592
5113917850 0.24389344845947467 0.24343550440512204
5114413145 0.24937981837674192 0.23586656231629222
5114908440 0.2541453242301941 0.22848455215755262
5115403735 0.2591523512413627 0.22101110612091265
5115899030 0.2639627001787487 0.213433217845465
5116394325 0.2691921983894549 0.20560208119844137
5116889620 0.2731905391341762 0.19822829255932256
5117384915 0.27800814885842173 0.19064380699082425
5117880210 0.282158961421565 0.18264342844486237
5118375505 0.2863803239245164 0.1747051124510012
5118870800 0.2904769041036305 0.16682790062929453
5119366095 0.29431500089795964 0.15931967606669978
5119861390 0.2981696520981036 0.15136667223353134
5120356685 0.30203167702022354 0.143246433452556
5120851980 0.3056828160034983 0.1349428045122247
5121347275 0.30892595491911234 0.12731319822763143
5121842570 0.3126202476652045 0.11870478250478443
5122337865 0.3158390145552786 0.11089256601898294
5122833160 0.31905581762916163 0.10300283486905851
5123328455 0.32206913671995463 0.09421205246134808
5123823750 0.3249954863598472 0.08639716749128543
5124319045 0.3277942114754727 0.07828832888289501
5124814340 0.3303765325169814 0.07015516608953476
5125309635 0.3329274136769144 0.061573126990544166
5125804930 0.33534826103009674 0.05339966459493888
5126300225 0.3378013121454339 0.04489272499555036
5126795520 0.34002979805594996 0.03670242487599975
5127290815 0.34196335390994426 0.02847120459926756
5127786110 0.34385893376250015 0.019878499503982693
5128281405 0.34584367432092367 0.011534571549610087
5128776700 0.3472319166911276 0.0031702412586463126
5129271995 0.3490505422416486 -0.00485996166734319
5129767290 0.35058313294460897 -0.012981508956535867
5130262585 0.35175969412452296 -0.021586541184469274
5130757880 0.3532621107603374 -0.030227164982965116
5131253175 0.3541856094410545 -0.03851226638806494
5131748470 0.35496961599902105 -0.046502806638416494
5132243765 0.35597362800648336 -0.054934627327479814
5132739060 0.35684888613851445 -0.06306760248384978
5133234355 0.3573034593933507 -0.0714526537217592
5133729650 0.35796154957068593 -0.0801959308354478
5134224945 0.3584050630268298 -0.0882493669265195
5134720240 0.3582623648016076 -0.0974710289584963
5135215535 0.3591567921011071 -0.10428590405928462
5135710830 0.35905274748802185 -0.11274327847518419
5136206125 0.3589465665189843 -0.12027174940234736
5136701420 0.35847002424691854 -0.13007363912306333
5137196715 0.3586906320170352 -0.13687171434101306
5137692010 0.35838679734029266 -0.14496219550308428
5138187305 0.35786289604086624 -0.15347027857052653
5138682600 0.3572433873226768 -0.16198992729187012
5139177895 0.3566368786912215 -0.16937016107534109
5139673190 0.35692932731226873 -0.17614219533769707
5140168485 0.35522986399499995 -0.18603377514763883
5140663780 0.3546854555606842 -0.19234974682331085
5141159075 0.3525318236727464 -0.20250076682944046
5141654370 0.35258173472002935 -0.20851364888642965
5142149665 0.35090345614834834 -0.21654472068736427
5142644960 0.3490590719800246 -0.22512822559005335
5143140255 0.3483375922629708 -0.23200982652212443
5143635550 0.346632215537523 -0.24018472119381554
5144130845 0.34507747072922557 -0.2473401074346743
5144626140 0.3439013989348161 -0.25474992551301656
5145121435 0.3415203659158004 -0.2633210248068759
5145616730 0.33941107674648885 -0.2708166210274947
5146112025 0.3373422732478694 -0.2783978252034438
5146607320 0.33669660907042653 -0.28448294965844406
5147102615 0.33292187515058014 -0.2935800568053597
5147597910 0.3314174617591657 -0.30031021802048935
5148093205 0.32889400657854584 -0.30757394433021545
5148588500 0.3266607397481015 -0.31513451431926925
5149083795 0.32404527538701106 -0.32211010079634816
5149579090 0.32180808562981456 -0.32892851139369766
5150074385 0.31675613083337484 -0.3382138860853095
5150569680 0.316043778469688 -0.34345320180842753
5151064975 0.31329660352907684 -0.3504050640683425
5151560270 0.3102918580958718 -0.357224155413477
5152055565 0.3071675739790264 -0.3643337048982319
5152550860 0.3050248340556496 -0.370513412513231
5153046155 0.30100597676477936 -0.3778597398808128
5153541450 0.2978563340086686 -0.38473047394501536
5154036745 0.2943401744491176 -0.3915002283297087
5154532040 0.29149940766786275 -0.39813726356154994
5155027335 0.28795029301392405 -0.404471135453174
5155522630 0.2840401624378405 -0.41112755631145675
5156017925 0.28022165988620956 -0.4176025108287209
5156513220 0.27690402771297257 -0.4245621091441104
5157008515 0.27280241878409134 -0.4304830682905097
5157503810 0.26974804464139435 -0.43664426866330597
5157999105 0.265319896371741 -0.4431340882652684
5158494400 0.26148179330323873 -0.44924661046580266
5158989695 0.2572300590966877 -0.45542307119620473
5159484990 0.25308293731589065 -0.46115763563858836
5159980285 0.2489731429438842 -0.46720826468969645
5160475580 0.24495193048527367 -0.4729606117072858
5160970875 0.2402125918551495 -0.4789397779263948
5161466170 0.23666038638667056 -0.4843809432105014
5161961465 0.23216417353404195 -0.4905104731258593
5162456760 0.22843220280973534 -0.4957291656418851
5162952055 0.22361554362271963 -0.5014578417727822
5163447350 0.21917930794389626 -0.5067088133410403
5163942645 0.214041815776574 -0.5130604631022403
5164437940 0.20929853382863498 -0.5174863150245265
5164933235 0.2044082025164052 -0.5230574984299509
5165428530 0.20019876172668055 -0.5281842194105449
5165923825 0.19447114122541329 -0.5335435710455242
5166419120 0.18990420903030195 -0.5385720008297971
5166914415 0.18571116579206368 -0.5434571128142508
5167409710 0.18038334971980044 -0.5481351739481876
5167905005 0.17487583740761406 -0.5535488097291243
5168400300 0.17004384100437164 -0.5581531367803875
5168895595 0.16532005291236074 -0.5625968606848466
5169390890 0.16148196552929125 -0.5670621677448875
5169886185 0.1544929938881021 -0.5718923367952046
5170381480 0.14986710799367806 -0.5765322415452254
5170876775 0.14562747509855972 -0.5806423362932707
5171372070 0.1381500355507198 -0.5855609460880882
5171867365 0.13288010421552157 -0.5895307377765053
5172362660 0.1289246701880505 -0.593591991223787
5172857955 0.12353251678378958 -0.5978260228508397
5173353250 0.11551538384274433 -0.6015244000836423
5173848545 0.11225722612519014 -0.6060883779274789
5174343840 0.1054854204780177 -0.6101032652352986
5174839135 0.10140739146031831 -0.6137575350309673
5175334430 0.0951998571031972 -0.6173117505876642
5175829725 0.0871116515052946 -0.6215738497282329
5176325020 0.08273794776514957 -0.6250585694062082
5176820315 0.07797996660596446 -0.6283359088395771
5177315610 0.07260424526114213 -0.6318351030349731
5177810905 0.0676343374346432 -0.6350338270789698
5178306200 0.05926045461704856 -0.6383892391857348
5178801495 0.05483280965372136 -0.641547513635535
5179296790 0.049105488744221236 -0.644577399680489
5179792085 0.044955380064876455 -0.6480382335813422
5180287380 0.03729885914608052 -0.6509024187138206
5180782675 0.031316702793303286 -0.6540423882635016
5181277970 0.024501548785912364 -0.6567043944409019
5181773265 0.020217294755734895 -0.6597887403086612
5182268560 0.01298260899554742 -0.6624262144691065
5182763855 0.007760065754777507 -0.6648283318469399
5183259150 0.0010897912771293992 -0.6676998640361586
5183754445 -0.00412540029930441 -0.6695651882573178
5184249740 -0.0119488298598873 -0.6721284922800566
5184745035 -0.016766216900003583 -0.6744280614350971
5185240330 -0.023414672695492442 -0.6767461205783644
5185735625 -0.02997359839317046 -0.6789277948831257
5186230920 -0.03585029099332659 -0.6806190453077617
5186726215 -0.04221474849864056 -0.683000363801655
5187221510 -0.04823329985926026 -0.684623100255665
5187716805 -0.0553986677213719 -0.686008029862454
5188212100 -0.061228864287075246 -0.6882720338670831
5188707395 -0.0668000484767713 -0.6905288853143391
5189202690 -0.07330188547310076 -0.6911755172829879
5189697985 -0.07950820852267115 -0.6927391259293807
5190193280 -0.08580892258568813 -0.6944671963390551
5190688575 -0.09219499520565334 -0.6956402345707542
5191183870 -0.09789691747803438 -0.69705667621211
5191679165 -0.1041016253201585 -0.6983757395493356
5192174460 -0.11078089475631714 -0.6991915294998571
5192669755 -0.11693417516193892 -0.7003272771835327
5193165050 -0.1238816784400689 -0.7012831192267569
5193660345 -0.12963413643209556 -0.7018834477976749
