# HZ S RI R 50
5000000000 0.2628952625550722 -0.44771749565475866
5000495295 0.2569383994529122 -0.454384457123907
5000990590 0.2522902096572675 -0.46049358029114573
5001485885 0.2480061760074214 -0.4659562408924103
5001981180 0.24238632540953786 -0.4719884285801335
5002476475 0.23520801882994802 -0.47885065172847946
5002971770 0.23108875594641032 -0.4838302919739171
5003467065 0.2249843540944551 -0.49002526151506526
5003962360 0.22002178508984416 -0.49519104549759313
5004457655 0.21297874340885564 -0.5015126027558979
5004952950 0.20705515538391314 -0.506878231701098
5005448245 0.20052676216552132 -0.5123464590624759
5005943540 0.19533346985515795 -0.517149711910047
5006438835 0.1908091055719476 -0.5226521868454782
5006934130 0.18342328071594238 -0.5281817411121569
5007429425 0.17710292025616295 -0.5331231261554518
5007924720 0.17092443061502358 -0.5381423674131695
5008420015 0.164757879941087 -0.5429581905666151
5008915310 0.1587181546186146 -0.5470027421650133
5009410605 0.1523300134821942 -0.5522905745004353
5009905900 0.14517600599088168 -0.5575774249277616
5010401195 0.13950837207467934 -0.5611347838451988
5010896490 0.13273211921516218 -0.5658036690009268
5011391785 0.12626831351142181 -0.5702543007700067
5011887080 0.11993220095571719 -0.5746704183126751
5012382375 0.11317505530620876 -0.5784868441129986
5012877670 0.10618029064253758 -0.5818319226566114
5013372965 0.09937287004370439 -0.586727572114844
5013868260 0.0931559808944401 -0.590786033555081
5014363555 0.08631514679444463 -0.5943246044610676
5014858850 0.0789535210320824 -0.5980713053753501
5015354145 0.07266186805147874 -0.6016888179277119
5015849440 0.06525760673378643 -0.6056645167501349
5016344735 0.05875417550927714 -0.6084471282206083
5016840030 0.05200889039980738 -0.61189866065979
5017335325 0.045319820117009316 -0.6152854216726202
5017830620 0.038228803167217655 -0.6187817109258551
5018325915 0.030902842844003124 -0.6209619453078822
5018821210 0.023970544436260274 -0.6231511141124525
5019316505 0.01734406251068178 -0.6265425682067871
5019811800 0.010127458966484195 -0.6298764253917494
5020307095 0.0035815346789987465 -0.6322407000943234
5020802390 -0.00485755066926542 -0.6349558045989588
5021297685 -0.012227854544394895 -0.6373093190946078
5021792980 -0.01834054281444926 -0.639857574513084
5022288275 -0.026356383177794908 -0.641936248854587
5022783570 -0.03391823172569275 -0.6440016878278632
5023278865 -0.04060445471029533 -0.6464369798961439
5023774160 -0.047687099952446785 -0.6486031381707442
5024269455 -0.05608433190929262 -0.6502003857963964
5024764750 -0.06218137925392703 -0.6523305083576002
5025260045 -0.07012158318569786 -0.6541307850887901
5025755340 -0.07615016557668385 -0.6553755841757122
5026250635 -0.08370291284824673 -0.6573423649135389
5026745930 -0.09358600566261693 -0.6582915061398557
5027241225 -0.09814662643169102 -0.6598726071809468
5027736520 -0.10722824068445909 -0.6609873426587958
5028231815 -0.11441906149450101 -0.6620134397556907
5028727110 -0.12134419185550589 -0.6629356271342227
5029222405 -0.12930339496386678 -0.6638266099126715
5029717700 -0.1364537548077734 -0.6648761253607901
5030212995 -0.14396826295476212 -0.6655750494254263
5030708290 -0.15014369785785675 -0.6665538957244471
5031203585 -0.1578449536310999 -0.6669149869366696
5031698880 -0.16702933531058461 -0.6670206659718564
5032194175 -0.17388892252194255 -0.667423361226132
5032689470 -0.18065755539818815 -0.6678963930983293
5033184765 -0.18814497401839808 -0.667423709442741
5033680060 -0.195029143440096 -0.6686849939195734
5034175355 -0.2044203681381125 -0.6677136264349285
5034670650 -0.2103223753602881 -0.6677496025436803
5035165945 -0.21830742610128304 -0.6676243261287087
5035661240 -0.22462992605410123 -0.6674761991751822
5036156535 -0.23276861247263456 -0.6664281989398756
5036651830 -0.2406981414870212 -0.6663321382121036
5037147125 -0.24691491142699593 -0.6657999502985101
5037642420 -0.2537580728530884 -0.6640424163717973
5038137715 -0.2618468513614253 -0.6637608565782246
5038633010 -0.2689105287978524 -0.6630160338000247
5039128305 -0.2771998957583779 -0.6616702613077665
5039623600 -0.28333368426875066 -0.6608014608684339
5040118895 -0.2897976605515731 -0.6595746874809265
5040614190 -0.2981061151153163 -0.6584026280202364
5041109485 -0.3050258489031541 -0.6572043393787584
5041604780 -0.3130690533863871 -0.6551534941321925
5042100075 -0.31943563567964656 -0.6537741673620123
5042595370 -0.3269976628454108 -0.6515011881527147
5043090665 -0.33303867986327723 -0.6505636070903978
5043585960 -0.33993395065006454 -0.6485380687211689
5044081255 -0.3475496298388431 -0.646314683713411
5044576550 -0.35430623983082016 -0.6442046196837174
5045071845 -0.3615237599924991 -0.6423203286371733
5045567140 -0.36860158255225733 -0.6404381739465814
5046062435 -0.3757260394723792 -0.6377544622672232
5046557730 -0.3822825896112542 -0.635096766446766
5047053025 -0.38828375778700175 -0.6329355459464224
5047548320 -0.3949070996359775 -0.6310241692944577
5048043615 -0.40257651084347773 -0.6278149485588074
5048538910 -0.4087902417308406 -0.6250205573282743
5049034205 -0.4157746747920388 -0.6219257492768137
5049529500 -0.42210406692404495 -0.6196796298027039
5050024795 -0.4208613900761855 -0.6184426546096802
5050520090 -0.4324763621154584 -0.6122696054609198
5051015385 -0.4378827684804013 -0.6091777870529577
5051510680 -0.4448213373359881 -0.6060641345224882
5052005975 -0.451120630690926 -0.6028046294262535
5052501270 -0.4572859955461402 -0.5997563035864579
5052996565 -0.46424996225457443 -0.5957675482097425
5053491860 -0.4695315094370591 -0.5924179334389535
5053987155 -0.47648679425841883 -0.5888434585772062
5054482450 -0.48240404850558233 -0.5848259486650166
5054977745 -0.4890557386373219 -0.5808288800088983
5055473040 -0.4938358852737828 -0.577073125462783
5055968335 -0.49998965075141505 -0.5741402318603114
5056463630 -0.5062605613156369 -0.5698497483604833
5056958925 -0.5131018695078398 -0.5650129631945962
5057454220 -0.5172904604359677 -0.5613844582909032
5057949515 -0.524065469440661 -0.5569731781357213
5058444810 -0.5297362427962454 -0.55195961500469
5058940105 -0.5352724257268404 -0.5479552651706495
5059435400 -0.5402759752775493 -0.5441851427680567
5059930695 -0.5464628150588587 -0.5390590617531225
5060425990 -0.5520948391211661 -0.5348362201138547
5060921285 -0.5572429926771867 -0.5295081577802959
5061416580 -0.5629217907002098 -0.5242751523068077
5061911875 -0.5674451903293007 -0.5206949083428634
5062407170 -0.5728838945689955 -0.5149260445644981
5062902465 -0.577841435608111 -0.5101405037076849
5063397760 -0.5824265229074579 -0.5061968314020258
5063893055 -0.5890489691182187 -0.49919823753206355
5064388350 -0.5933130446233248 -0.49521930123630326
5064883645 -0.5981924126022741 -0.48904576740766825
5065378940 -0.6030640915820473 -0.4837619615228553
5065874235 -0.6071571833208987 -0.47926876733177587
5066369530 -0.6118242615147641 -0.4730018361618644
5066864825 -0.6163894220402366 -0.4680696616047307
5067360120 -0.6209819285493148 -0.4624010151938388
5067855415 -0.6250123507098148 -0.45740878268292073
5068350710 -0.6312084888157091 -0.44928026669903803
5068846005 -0.6333288236668235 -0.44646246025436803
5069341300 -0.6383446109922308 -0.43909542027272674
5069836595 -0.6421987571214375 -0.43466191385921676
5070331890 -0.6469057359193501 -0.4269091314391086
5070827185 -0.6516217369782297 -0.42011353530381856
5071322480 -0.6547416981897856 -0.415492002901278
5071817775 -0.6563720012965956 -0.41195863328481974
5072313070 -0.6627047093291032 -0.40192782565167073
5072808365 -0.6659247498763236 -0.39724331780483846
5073303660 -0.6698783761576602 -0.38941599820789535
5073798955 -0.6721327304840088 -0.3859041646907204
5074294250 -0.6765426773773996 -0.37808667044890554
5074789545 -0.680734822624608 -0.3696774103139576
5075284840 -0.6828022160028157 -0.3655497102360976
5075780135 -0.6861944449575323 -0.3584009565805134
5076275430 -0.6886159809012162 -0.3522451065088573
5076770725 -0.6918272689769143 -0.3460301552948199
5077266020 -0.6956487737203899 -0.338431378728465
5077761315 -0.6987930944091395 -0.3295025856871354
5078256610 -0.7009022706433347 -0.32487751621949046
5078751905 -0.7031093584863763 -0.317843507779272
5079247200 -0.7060088483910811 -0.31117548597486394
5079742495 -0.7080348039928236 -0.30528529066788523
5080237790 -0.7107119748466894 -0.29750742567212957
5080733085 -0.7130431501488936 -0.29022215542040375
5081228380 -0.7151006773898476 -0.2834147167833228
5081723675 -0.7171284054455004 -0.27631312295010213
5082218970 -0.7189605926212511 -0.2692435681819916
5082714265 -0.721459128354725 -0.261052657114832
5083209560 -0.7227436962880587 -0.2550545068163621
5083704855 -0.7247517359884161 -0.2469364898769479
5084200150 -0.7258993763672678 -0.24026255858571907
5084695445 -0.7279517023186934 -0.23208591655681007
5085190740 -0.7290332913398743 -0.2255774101144389
5085686035 -0.7305426315257424 -0.21766566602807297
5086181330 -0.7316395765856692 -0.21005604220064064
5086676625 -0.7324781825667933 -0.2024753438799005
5087171920 -0.7339008764216775 -0.1948677842554293
5087667215 -0.7344550176670677 -0.1879669859221107
5088162510 -0.7350409093656038 -0.17982116027882225
5088657805 -0.7357775600332963 -0.17250094209846698
5089153100 -0.7363048729143644 -0.16433535124126233
5089648395 -0.7362253477698878 -0.15741114239943654
5090143690 -0.7371618057552137 -0.14896859777601143
5090638985 -0.7366058544108742 -0.14102658394135928
5091134280 -0.736615096267901 -0.13463899101081647
5091629575 -0.7368924711879931 -0.12635822005962072
5092124870 -0.7368759983464291 -0.11769344814513859
5092620165 -0.7360444194392154 -0.11072656786755512
5093115460 -0.7355134926344219 -0.10250960800208543
5093610755 -0.734848932216042 -0.09547085079707597
5094106050 -0.7343200005983052 -0.08764584911497016
5094601345 -0.7334919007200944 -0.07946704955477464
5095096640 -0.7324627104558443 -0.07204710731380864
5095591935 -0.7311867161800987 -0.06513781355399835
5096087230 -0.7304299756100303 -0.05537869879289677
5096582525 -0.7288225481384679 -0.04814155850755541
5097077820 -0.7270789303277668 -0.04244778168044592
5097573115 -0.7258431754614177 -0.03366281876438543
5098068410 -0.7241098253350509 -0.02610074679710363
5098563705 -0.7225611366723713 -0.014569863039804133
5099059000 -0.7198980199663263 -0.009904473627868452
5099554295 -0.7181766911556846 -0.002822983568828357
5100049590 -0.7147575836432608 0.0015992049225851109
5100544885 -0.7119358087840834 0.01466743986269361
5101040180 -0.7097013561349166 0.020185386467921108
5101535475 -0.7073361591288918 0.02644282559815206
5102030770 -0.7045903927401492 0.03582746702197351
5102526065 -0.701483855122014 0.04112694432076655
5103021360 -0.6987168036009136 0.050746017576832524
5103516655 -0.6955494284629822 0.05603688798452679
5104011950 -0.6924439480430201 0.06557358056306839
5104507245 -0.689317060144324 0.07204546465685494
5105002540 -0.6857275178557948 0.07981419445652711
5105497835 -0.6823917282255072 0.08676496148109436
5105993130 -0.6785245569128739 0.09451589537294287
5106488425 -0.6748888523955094 0.10058277296392541
5106983720 -0.6709206982662803 0.10921553953697807
5107479015 -0.6665844666330438 0.11637970883595317
5107974310 -0.6623627731674596 0.12434696406126022
5108469605 -0.6581819810365376 0.13020513638069756
5108964900 -0.6534539774844521 0.13817150577118523
5109460195 -0.6487817042752316 0.14562161502085233
5109955490 -0.6438969561928197 0.15256080031394958
5110450785 -0.6391571948402807 0.15892045356725393
5110946080 -0.6342896411293432 0.1650354775943254
5111441375 -0.6292854798467535 0.1717798153036519
5111936670 -0.6238991649527299 0.17840617032427536
5112431965 -0.6184568969826949 0.18525396052159762
5112927260 -0.6128876711192884 0.19198430839337802
5113422555 -0.6076298324685347 0.19782791404347672
5113917850 -0.6018064774964985 0.20460416847153715
5114413145 -0.5958289723647269 0.2112515992239902
5114908440 -0.5900522501845109 0.21626456238721548
5115403735 -0.5840125429002863 0.22277513381681943
5115899030 -0.5777879482821414 0.22860256072721982
5116394325 -0.5715639057912325 0.23512697611984454
5116889620 -0.5653333695311296 0.2405311771129307
5117384915 -0.5587895198872215 0.24644277597728528
5117880210 -0.5520961755200436 0.25178502578484385
5118375505 -0.5450462008777418 0.2576085548651846
5118870800 -0.5384205673870287 0.26307985657139826
5119366095 -0.5313155713834261 0.2684597278896131
5119861390 -0.5242799457750822 0.2737524650598827
5120356685 -0.5169443048928913 0.27913296536395427
5120851980 -0.5097601288243344 0.2836373181719529
5121347275 -0.5025493565358614 0.28839966968486186
5121842570 -0.49484187521432577 0.29340424506287827
5122337865 -0.48719241274030584 0.2977903485298157
5122833160 -0.4792449944897702 0.3029484560615138
5123328455 -0.4713870035974603 0.30712147762900904
5123823750 -0.46398445336442246 0.31070376226776525
5124319045 -0.4561083112892352 0.31473514280821147
5124814340 -0.4479775507199137 0.3188478476122806
5125309635 -0.43957956056845815 0.3227526874918687
5125804930 -0.43133064477067246 0.32669561787655477
5126300225 -0.42356330156326294 0.3295811791169016
5126795520 -0.41504098239697906 0.33289809760294464
5127290815 -0.40632172007309764 0.33672891008226497
5127786110 -0.3978782688316546 0.3397031238204555
5128281405 -0.3895175409944434 0.3424015092222314
5128776700 -0.38045498571897807 0.3457379231327458
5129271995 -0.3722638864266245 0.3479997782330764
5129767290 -0.3638447083924946 0.35020148440411214
5130262585 -0.35460007347558675 0.3527048465452696
5130757880 -0.3457442788701308 0.35480954772547674
5131253175 -0.3365893222783741 0.35740089730212565
5131748470 -0.32790055400446844 0.3591231092026359
5132243765 -0.3190600605387437 0.3608451187610626
5132739060 -0.3100813815468236 0.3624477543328938
5133234355 -0.300899160535712 0.364038370157543
5133729650 -0.29217275977134705 0.364961586500469
5134224945 -0.28273129933758784 0.36661682630840103
5134720240 -0.27413608525928695 0.36706591907300445
5135215535 -0.2644284508730236 0.36859475625188726
5135710830 -0.2558185803262811 0.3688562465341468
5136206125 -0.24674805214530543 0.36948151808036
5136701420 -0.23656734353617617 0.3697904677767503
5137196715 -0.2278353030744352 0.3697582467606193
5137692010 -0.21682843409086527 0.3708440034013045
5138187305 -0.2098535346357446 0.3692434492864107
5138682600 -0.20040769404486605 0.3691462058770029
5139177895 -0.19005787921579262 0.36925197745624344
5139673190 -0.18100696488430626 0.36852003241840164
5140168485 -0.17206945544794985 0.3680036209131542
5140663780 -0.1628651964037042 0.36662889624896805
5141159075 -0.15289293386434255 0.3656675658727947
5141654370 -0.14304756726089277 0.36449463900766876
5142149665 -0.13469905288595901 0.3623523712158203
5142644960 -0.12450585043744038 0.3613331239474447
5143140255 -0.11732288724497746 0.3589586882214797
5143635550 -0.10720854997634888 0.35688555397485433
5144130845 -0.09741698832888353 0.35538944915721293
5144626140 -0.0879955162343226 0.3527780708513762
5145121435 -0.07989521442275298 0.35012277647068624
5145616730 -0.07072911293883073 0.3473212358198668
5146112025 -0.061273979317200813 0.34479046965900223
5146607320 -0.05369873031189567 0.341437744466882
5147102615 -0.04424807566561197 0.33897211049732406
5147597910 -0.03572895358267583 0.33509912773182515
5148093205 -0.02656633426484309 0.3317064658591622
5148588500 -0.017843883484601974 0.32863392641669825
5149083795 -0.009221408908304415 0.3242371380329132
5149579090 -0.0008250187200150991 0.3204723392662249
5150074385 0.010030589801700492 0.3168137199000308
5150569680 0.015741412380808277 0.3122461924427434
5151064975 0.025239698392780202 0.30809121696572556
5151560270 0.03263679303620991 0.3034446490438361
5152055565 0.04068127980357722 0.29898749527178314
5152550860 0.049205762383184935 0.29360160859007584
5153046155 0.05696001237160281 0.2888120679478896
5153541450 0.06469583040789555 0.2838686343870665
5154036745 0.07273381046558682 0.278657056783375
5154532040 0.08066575778158087 0.2730662901150553
5155027335 0.08816558397129963 0.26756740557520015
5155522630 0.09533793753699253 0.2621384576747292
5156017925 0.10286394585120051 0.2562176349915956
5156513220 0.10978742571253526 0.249969850245275
5157008515 0.11704840785578678 0.24407384505397395
5157503810 0.12410472137363333 0.23791499671183133
5157999105 0.131083776292048 0.2316917808432328
5158494400 0.13793689326236122 0.2251570248290112
5158989695 0.14422005101254112 0.218737562236033
5159484990 0.1506719487278085 0.2120933422916814
5159980285 0.15707094183093623 0.20540419534633034
5160475580 0.1634991412100039 0.19848796803700297
5160970875 0.16931489658983132 0.1917234110204797
5161466170 0.17540040298512108 0.18440320303565577
5161961465 0.18117906623765043 0.17721534873309888
5162456760 0.18693475425243378 0.16998064047411868
5162952055 0.19232015860708138 0.16295403006829715
5163447350 0.1976321606259597 0.1556474927224611
5163942645 0.20281619068823362 0.14850956907397822
5164437940 0.2077434353138271 0.14096905055798983
5164933235 0.21294154069925608 0.13342827793798948
5165428530 0.21783554710839925 0.1258630666293596
5165923825 0.2225338604889418 0.11788567822230489
5166419120 0.2271161659767753 0.11035925149917603
5166914415 0.23170756352575203 0.1026179786575468
5167409710 0.2357366061524341 0.09474832603805944
5167905005 0.24006748670025876 0.0869924041785692
5168400300 0.2439750401597274 0.07941838942076031
5168895595 0.24814756998890325 0.07046634194098021
5169390890 0.2516705754556154 0.06307415997511462
5169886185 0.2554204699240233 0.05519896902536091
5170381480 0.25897031551913213 0.04619819161139036
5170876775 0.2622458323052055 0.038811378377048594
5171372070 0.2654581022889991 0.030674487450405172
5171867365 0.26851881020947505 0.022246813793715677
5172362660 0.27134207832185847 0.014440546400452914
5172857955 0.2743232924687235 0.004557267076482898
5173353250 0.276896103432304 -0.0030902773632030737
5173848545 0.2793400962101786 -0.009988851796247457
5174343840 0.28175396825137894 -0.0200405038501087
5174839135 0.2840043212238111 -0.02893660276343948
5175334430 0.2859624655623185 -0.03627131251912368
5175829725 0.28795528411865234 -0.044855726000509764
5176325020 0.2898087391727849 -0.05292567649954244
5176820315 0.29123905457948385 -0.06228490703200039
5177315610 0.29285152334915965 -0.06948947828066976
5177810905 0.2937073660524268 -0.0803422563170132
5178306200 0.29561941247237356 -0.08611258158558294
5178801495 0.2962403877785331 -0.09555419024668242
5179296790 0.2971545912717518 -0.10442551617559634
5179792085 0.297744272570861 -0.11293891856544896
5180287380 0.29860566164317887 -0.12117882974837955
5180782675 0.2988667660637906 -0.13004289802752042
5181277970 0.3001678146814045 -0.13672406893027456
5181773265 0.29989349685217204 -0.14642333121676193
5182268560 0.29965066439227056 -0.15523888719709297
5182763855 0.29970553831050273 -0.16291701166253342
5183259150 0.2996429675503781 -0.17101604530685827
5183754445 0.2991318608585157 -0.1792862666280646
5184249740 0.29914969676419306 -0.18775491730162971
5184745035 0.29833051876017924 -0.19626369052811674
5185240330 0.29747363768125834 -0.20451359137108452
5185735625 0.29678622201869365 -0.21266405676540576
5186230920 0.29540676349087763 -0.22088695984137685
5186726215 0.29430091381073 -0.22879387752005928
5187221510 0.29331552668621663 -0.23699323911415904
5187716805 0.29214659490083394 -0.24522628752808823
5188212100 0.29022510585032013 -0.2529879651571575
5188707395 0.2886112975446801 -0.26083987794424357
5189202690 0.2869157618597934 -0.2691347865681899
5189697985 0.2849478564764324 -0.2765544166690425
5190193280 0.28299467814596074 -0.2844473515686236
5190688575 0.280733197927475 -0.2921066095954494
5191183870 0.2787024237607655 -0.3000272135985525
5191679165 0.2764051760497846 -0.30701374066503423
5192174460 0.27409273542855916 -0.31492038149582713
5192669755 0.2712783186059249 -0.322246557787845
