# HZ S RI R 50
5000000000 0.372723588817998 -0.3687698966578433
5000495295 0.37037929421976995 -0.37427069325196116
5000990590 0.36664448443212005 -0.38141291235622604
5001485885 0.36379286489988627 -0.3869066803078902
5001981180 0.3602103230200316 -0.3936676633985419
5002476475 0.35582186360108226 -0.40101733803749084
5002971770 0.3535289074245252 -0.4059503972530365
5003467065 0.34994694433714213 -0.41123807743975993
5003962360 0.34657486802653265 -0.4176176159005416
5004457655 0.3426919234426398 -0.4243731090897008
5004952950 0.3379925065918973 -0.430624572854293
5005448245 0.33388536541085495 -0.4364854740469079
5005943540 0.33118988965686996 -0.4417991042137146
5006438835 0.32697297083704097 -0.44766614311619807
5006934130 0.3226598391407414 -0.4541273101379997
5007429425 0.3176032775326779 -0.4596062522185476
5007924720 0.31482508621717753 -0.4649642611804761
5008420015 0.310275618967257 -0.4705126442407307
5008915310 0.30645943942822906 -0.4754389932281093
5009410605 0.3022317431474987 -0.4817427208549098
5009905900 0.29746933046140167 -0.48722613798944575
5010401195 0.2931561297491977 -0.4927590410960348
5010896490 0.2893743562070947 -0.4977198792131324
5011391785 0.2846162758375469 -0.5031347400263736
5011887080 0.2804423649060099 -0.508921133844476
5012382375 0.27599219585719864 -0.5133892172261288
5012877670 0.27199237597616094 -0.5189375187221327
5013372965 0.266221788368727 -0.5238049469496074
5013868260 0.26189246930574117 -0.5290191706858183
5014363555 0.25751614570617676 -0.5338964995584989
5014858850 0.2527118497773221 -0.5382240853811565
5015354145 0.24725899335585141 -0.5436691265357169
5015849440 0.24219614188922078 -0.54836358522114
5016344735 0.23827568872978813 -0.5530169951288324
5016840030 0.23285958641453794 -0.5584475554917988
5017335325 0.22882711573650963 -0.5625047526861492
5017830620 0.22307913475915006 -0.5668998705713373
5018325915 0.21872845213664205 -0.5716757586127833
5018821210 0.21360619523023305 -0.575118551128789
5019316505 0.20832495391368866 -0.5801805195055509
5019811800 0.20351730443929372 -0.5853162721583718
5020307095 0.1984922768254029 -0.5886991400467722
5020802390 0.19273861379999863 -0.5932633531721014
5021297685 0.18946629762649536 -0.5966397461138273
5021792980 0.1831153607682178 -0.6013192973638836
5022288275 0.17765997820778898 -0.6061689132138303
5022783570 0.17194210620302902 -0.6101556828147486
5023278865 0.1671169815879119 -0.6131224475408855
5023774160 0.16215991581741132 -0.6171880050709373
5024269455 0.15636543459013888 -0.6207306761490671
5024764750 0.1498395235914933 -0.6249784795861495
5025260045 0.14519930983844556 -0.6288200993286935
5025755340 0.13962675866327787 -0.6317113637924194
5026250635 0.13420641108563072 -0.6356049242772555
5026745930 0.12786904996947238 -0.639414928461376
5027241225 0.12334028278526507 -0.6430233842448184
5027736520 0.11888854166394786 -0.6456222565550553
5028231815 0.11225329104222749 -0.648620279211747
5028727110 0.1064445317575806 -0.6521414330131129
5029222405 0.10179314095723002 -0.6554996747719614
5029717700 0.09405783289357235 -0.6587695510763871
5030212995 0.09054172274313475 -0.661687361566644
5030708290 0.08205783876933549 -0.664960337312598
5031203585 0.07770909172923941 -0.6677395230845401
5031698880 0.07238572208504927 -0.6702092697745875
5032194175 0.0685401284380963 -0.6731349637633876
5032689470 0.061473116866852105 -0.6759938346712213
5033184765 0.05512276527128721 -0.6786519069420663
5033680060 0.048316962820918935 -0.6817051517335992
5034175355 0.04468408011292156 -0.6839308236774645
5034670650 0.03798865938657209 -0.6862057886625591
5035165945 0.0322829461411426 -0.6886060206513656
5035661240 0.025386030638688488 -0.6913141514125624
5036156535 0.02177039818152001 -0.6938165645850333
5036651830 0.014159152431315497 -0.695433613501097
5037147125 0.008394040363399606 -0.6982462563012776
5037642420 0.00047986645643648346 -0.70014761937292
5038137715 -0.001592856635780711 -0.7023964241931313
5038633010 -0.009352597309962699 -0.7045105570241025
5039128305 -0.014960254836631449 -0.7067492792480871
5039623600 -0.020859222565042346 -0.7086208776423806
5040118895 -0.02698086937399287 -0.7108446077296608
5040614190 -0.0329957685776447 -0.7120970142515082
5041109485 -0.03958780122430701 -0.714624706067537
5041604780 -0.0454640641416374 -0.7160977250651309
5042100075 -0.05050826602076229 -0.7175507325875131
5042595370 -0.05713041440436715 -0.7187193600754989
5043090665 -0.06243169915519262 -0.7211158306975114
5043585960 -0.06905412477882285 -0.722165772789403
5044081255 -0.07491774778617055 -0.7236246247040597
5044576550 -0.08132977234689813 -0.7248781574399847
5045071845 -0.08745775567857843 -0.7263423298534594
5045567140 -0.09399649187138207 -0.7270352934536181
5046062435 -0.10018350458458851 -0.7285795556871515
5046557730 -0.10593172515693464 -0.7296002068017658
5047053025 -0.11075830734089802 -0.7305355668067932
5047548320 -0.11844520153183687 -0.7316542205057646
5048043615 -0.12358787381335308 -0.7324599341342324
5048538910 -0.13025569053072678 -0.7333959748870448
5049034205 -0.13618667345297963 -0.7339805333237899
5049529500 -0.14245521630111493 -0.7348452367280659
5050024795 -0.14405158318971334 -0.736417648039366
5050520090 -0.15465763368104635 -0.7359723166415566
5051015385 -0.16000499223407946 -0.7367984652519226
5051510680 -0.16694417909571999 -0.7365752929135373
5052005975 -0.1729138085716649 -0.7374216882806075
5052501270 -0.17900071253902033 -0.7380800372675845
5052996565 -0.1847885235359794 -0.738189835297434
5053491860 -0.1911983819384324 -0.7383792118022316
5053987155 -0.19764434820727297 -0.7382936603144595
5054482450 -0.20284171402454376 -0.7385343375958895
5054977745 -0.2092914895007485 -0.7385253498428747
5055473040 -0.21518277180822273 -0.7392940803578025
5055968335 -0.22130729258060455 -0.7389257487497831
5056463630 -0.2274397180268639 -0.7382090091705322
5056958925 -0.23247143077222923 -0.7382106875118456
5057454220 -0.23894635783998588 -0.7382752424792239
5057949515 -0.2456277593186027 -0.7377801662997195
5058444810 -0.2504228110376157 -0.7375207449260511
5058940105 -0.25689939291853653 -0.7374127162130255
5059435400 -0.2628244475314492 -0.7373309449145669
5059930695 -0.2689668144050397 -0.7366530110961512
5060425990 -0.27508618643409327 -0.7358508706092834
5060921285 -0.28117172655306366 -0.7350481968176993
5061416580 -0.2866230120784358 -0.7343721389770508
5061911875 -0.2927690195409875 -0.7340765124873111
5062407170 -0.2992217964247653 -0.7325296307864942
5062902465 -0.30444304252925675 -0.7322333455085754
5063397760 -0.31053014178025096 -0.7310494372719213
5063893055 -0.31705689743945475 -0.7296341814492878
5064388350 -0.32124069489930807 -0.7292438212193941
5064883645 -0.32822819289408234 -0.7273449082123605
5065378940 -0.335460575003373 -0.7263172896284806
5065874235 -0.3415393390153584 -0.7247754523628637
5066369530 -0.34439930790349055 -0.7246502794717488
5066864825 -0.34990998318320826 -0.7238304426795558
5067360120 -0.3579935415794975 -0.7210947212420011
5067855415 -0.3630590940776624 -0.7200561071697035
5068350710 -0.3687208969342081 -0.7187088382871527
5068846005 -0.3727922361148031 -0.7179031152474252
5069341300 -0.37839796354896144 -0.7160235015969527
5069836595 -0.3879553691336983 -0.7127043855817694
5070331890 -0.3908862706861998 -0.7121558848180269
5070827185 -0.3969198826112245 -0.7101390016706366
5071322480 -0.4002224630431125 -0.7098916518060785
5071817775 -0.40888733142300654 -0.7064251397785387
5072313070 -0.41552178326405975 -0.7028878205700925
5072808365 -0.419169766338248 -0.7027659541682193
5073303660 -0.4238868841999455 -0.7009969353675842
5073798955 -0.42801716610005025 -0.6998602747917175
5074294250 -0.4355663155254565 -0.6967817482195402
5074789545 -0.4418452319345976 -0.6938507023610567
5075284840 -0.4455877495439429 -0.6922030762622231
5075780135 -0.45190435804818807 -0.6898709629711351
5076275430 -0.45645055488536235 -0.68785623186513
5076770725 -0.46219402551651 -0.6849394064200552
5077266020 -0.46705582894777 -0.6825987194713793
5077761315 -0.472922179259752 -0.6801195113282454
5078256610 -0.4776029037801843 -0.6777610621954265
5078751905 -0.48150832715787384 -0.6766594899328131
5079247200 -0.4902247284588061 -0.6712106591776797
5079742495 -0.4934437023965936 -0.6697356042109037
5080237790 -0.49811159780150965 -0.6670334966559159
5080733085 -0.5036818102786416 -0.6640316812615645
5081228380 -0.5087884256714269 -0.6612744299988997
5081723675 -0.5138977232732271 -0.658520055444617
5082218970 -0.5193562037066409 -0.6555306817355909
5082714265 -0.5237589509863603 -0.6525940769597104
5083209560 -0.5289467824132819 -0.6500722514955621
5083704855 -0.5333791814352337 -0.6464890963152835
5084200150 -0.5372067627153898 -0.6432390056158367
5084695445 -0.5439665286164534 -0.6396667988676774
5085190740 -0.5481562708553515 -0.6370028571078652
5085686035 -0.5534093693683022 -0.6328705611981844
5086181330 -0.55795881622716 -0.6297107307534469
5086676625 -0.5619683202944303 -0.626821053655524
5087171920 -0.5668764835909793 -0.623438044598228
5087667215 -0.5711690156083358 -0.619852646401054
5088162510 -0.5754136756846779 -0.6159396516649347
5088657805 -0.5810586966966328 -0.6122482136676186
5089153100 -0.5855121392952768 -0.6088441735819766
5089648395 -0.589040784459365 -0.6060450610361601
5090143690 -0.5939922552359732 -0.6014010843477751
5090638985 -0.598108216335899 -0.597636059710854
5091134280 -0.6028931831058703 -0.5938268429354617
5091629575 -0.6076953473844027 -0.5895779885743794
5092124870 -0.6108471374762686 -0.5864467118915758
5092620165 -0.6151651394994635 -0.5822124324346843
5093115460 -0.6192414446880943 -0.5785388507341084
5093610755 -0.6236423567721718 -0.5745533265565571
5094106050 -0.627343127602025 -0.5709566473960876
5094601345 -0.6317542791366577 -0.5656922710569281
5095096640 -0.6333768022687811 -0.5639533400535583
5095591935 -0.6413128783828334 -0.5560432892096671
5096087230 -0.6418392783717105 -0.5549921016944083
5096582525 -0.6469790151244715 -0.5490542211030659
5097077820 -0.6507287872465033 -0.5449961894436887
5097573115 -0.6547642099229913 -0.5403069100881878
5098068410 -0.6567668977536654 -0.5378767471564444
5098563705 -0.6640244785108065 -0.5291361808776855
5099059000 -0.664951459357613 -0.5282960126274511
5099554295 -0.6688186494927657 -0.5230162488786798
5100049590 -0.6711913378615129 -0.5206368628301119
5100544885 -0.677072590903232 -0.5127813157282377
5101040180 -0.6789950853899905 -0.5105649703427365
5101535475 -0.682942669642599 -0.5048271605842992
5102030770 -0.6866897093622308 -0.49974147426454646
5102526065 -0.6883619678647894 -0.4972251496816936
5103021360 -0.693640577165704 -0.4896911021910216
5103516655 -0.69515418692639 -0.4870147642336394
5104011950 -0.6991016456955358 -0.4812358037421578
5104507245 -0.7010972688072606 -0.4774975698245199
5105002540 -0.7036309806924117 -0.47319430112838745
5105497835 -0.7072687933319494 -0.4673676333929363
5105993130 -0.7119766661995336 -0.4600952063736163
5106488425 -0.711985562977038 -0.4589217085587351
5106983720 -0.716121864946265 -0.451895357746827
5107479015 -0.7184068623342013 -0.4475222967172924
5107974310 -0.7217770626670436 -0.44150274991989136
5108469605 -0.7236519612764057 -0.437644771839443
5108964900 -0.7260092716468008 -0.43221054735936615
5109460195 -0.7290268007077669 -0.4268695461122613
5109955490 -0.7311457050474066 -0.42152868760259526
5110450785 -0.7337934217954937 -0.4164397151846635
5110946080 -0.7359907846701773 -0.4116057361427106
5111441375 -0.737473792151401 -0.4066594760668905
5111936670 -0.7403501021234613 -0.4012138200433631
5112431965 -0.7424410895297402 -0.39605462237408284
5112927260 -0.7440593964175174 -0.39096373005917195
5113422555 -0.7466100611184773 -0.38570570161468104
5113917850 -0.7483904549950048 -0.3807268064273031
5114413145 -0.7501823776646664 -0.37552638900907415
5114908440 -0.751937304672442 -0.3702225481209002
5115403735 -0.7539473677936354 -0.36454580802666514
5115899030 -0.7558311318096361 -0.3592933134028786
5116394325 -0.757322559231206 -0.3541933000087738
5116889620 -0.7591585705154821 -0.34838917380885076
5117384915 -0.7606307864189148 -0.3426785531796907
5117880210 -0.7617755281297784 -0.33821891954070643
5118375505 -0.7632469723099157 -0.33318867965748433
5118870800 -0.7649738976829931 -0.3260640094154759
5119366095 -0.7659431444971185 -0.32146095915844564
5119861390 -0.7671356797218323 -0.3167746067047119
5120356685 -0.7689017873061331 -0.31098701765662745
5120851980 -0.7693266648995248 -0.305419280340797
5121347275 -0.7707387742243315 -0.2995992146040264
5121842570 -0.7719874382019043 -0.29452200155509145
5122337865 -0.7730282137268468 -0.28926675884347214
5122833160 -0.7739284383623224 -0.2836834788322449
5123328455 -0.7749642823871813 -0.27794932534820155
5123823750 -0.775980670201151 -0.2720699153448406
5124319045 -0.7763154287087289 -0.267255375259801
5124814340 -0.7770275253998605 -0.2619119992381648
5125309635 -0.7776406626952322 -0.25625068890421016
5125804930 -0.7788750403805783 -0.2506221360281894
5126300225 -0.778964776741831 -0.24544729762955717
5126795520 -0.7794673568324039 -0.2397013063493528
5127290815 -0.7799927655019259 -0.23375572421048818
5127786110 -0.7806100719853452 -0.22817888542225487
5128281405 -0.7807687834689492 -0.2232237458229065
5128776700 -0.7808427434218558 -0.2171582603140881
5129271995 -0.7813558013815629 -0.21152665034720772
5129767290 -0.7816174469496074 -0.20572008192539215
5130262585 -0.7815407671426472 -0.20019170406617617
5130757880 -0.7814256015576815 -0.19569599001031174
5131253175 -0.7818136340693423 -0.1892872193926259
5131748470 -0.7817798445099279 -0.1838497841044476
5132243765 -0.7816251516342163 -0.17869067662640623
5132739060 -0.7814267089492396 -0.17229468100949338
5133234355 -0.7812443657925254 -0.16687219080172086
5133729650 -0.7809050051789534 -0.16120663363682597
5134224945 -0.7806049428488079 -0.15565439117582222
5134720240 -0.7802661751445971 -0.149194545651737
5135215535 -0.7796212434768677 -0.14442155941536552
5135710830 -0.7794044049162614 -0.13835617664613223
5136206125 -0.7785395509318301 -0.1329142341488286
5136701420 -0.7782208574445624 -0.12713597636473806
5137196715 -0.7770556180100692 -0.12272786231417405
5137692010 -0.7765858549820749 -0.11644601272909265
5138187305 -0.7763491806231047 -0.108269181690718
5138682600 -0.7751230126933047 -0.10418674232144105
5139177895 -0.774388291333851 -0.09656845268450286
5139673190 -0.7726245930320338 -0.09627844706961983
5140168485 -0.771757938359913 -0.08872309954542863
5140663780 -0.7709260802519949 -0.08268693207125914
5141159075 -0.76969187510641 -0.07566957332585987
5141654370 -0.7684819227770755 -0.06878864961235147
5142149665 -0.7669565489417628 -0.06588247183122133
5142644960 -0.7657490153061716 -0.06069167546535793
5143140255 -0.7642772981995031 -0.05376597650741276
5143635550 -0.7625133144228082 -0.049269667189372215
5144130845 -0.7612472521631342 -0.04000341382465864
5144626140 -0.7591314754988018 -0.04002339412507258
5145121435 -0.7576566464022586 -0.02992860688582847
5145616730 -0.7554696170907271 -0.026728471348944464
5146112025 -0.754120481641669 -0.0177772021117179
5146607320 -0.7520319160662199 -0.01305051922406021
5147102615 -0.7498976086315355 -0.009635947301591697
5147597910 -0.7478354071315966 -0.0016675411086333426
5148093205 -0.7456861201085543 0.0034472099750449785
5148588500 -0.7432315443691454 0.00791905031196381
5149083795 -0.740993082523346 0.013283238942293744
5149579090 -0.7387479104493794 0.018451503134871785
5150074385 -0.7361223258470234 0.029240791538828297
5150569680 -0.7337164125944439 0.030091314331481333
5151064975 -0.7313617436509383 0.0346904281330736
5151560270 -0.7285202616139462 0.04136557543748304
5152055565 -0.7257297478224102 0.04653582957230116
5152550860 -0.7230112552642822 0.05101442415463297
5153046155 -0.7199914141705162 0.05712179408261651
5153541450 -0.7169857872159857 0.06268786815436263
5154036745 -0.7138810910676655 0.06704688934903395
5154532040 -0.7108786984493858 0.0726198828534076
5155027335 -0.7076884068940815 0.0784786625912315
5155522630 -0.7042179421374672 0.0836490890697429
5156017925 -0.7009296166269403 0.0882110238859528
5156513220 -0.6977541603540119 0.0934865721746495
5157008515 -0.6944247107756766 0.09818112575694134
5157503810 -0.6908232538323653 0.10337207191868832
5157999105 -0.6870781089130201 0.10871897167281101
5158494400 -0.6834213043514051 0.11373848036715858
5158989695 -0.6796022465354518 0.11921194117320211
5159484990 -0.6759809977129886 0.12354563686408494
5159980285 -0.6718519267282987 0.128593017396174
5160475580 -0.667932036675905 0.1335094939721258
5160970875 -0.6640721120332417 0.13810917421391136
5161466170 -0.6598763967815199 0.14306339621543884
5161961465 -0.6554470093626725 0.14782810917026118
5162456760 -0.6517631191956369 0.15202308799091138
5162952055 -0.647141064468183 0.1567998363783485
5163447350 -0.6428484948057878 0.16138148543081784
5163942645 -0.6385018135371962 0.1655992379314021
5164437940 -0.6342333210142035 0.1697903722524643
5164933235 -0.6290352250400343 0.17443012485378667
5165428530 -0.6249672080341139 0.17847925816711627
5165923825 -0.6204823600618463 0.18197891194569438
5166419120 -0.6153822603978609 0.18761445974048815
5166914415 -0.6100873194242779 0.19230780005455017
5167409710 -0.6059296413471824 0.19451452634836497
5167905005 -0.6006404945724889 0.19945572159792246
5168400300 -0.5955311812852558 0.2030441651218816
5168895595 -0.5898494908684179 0.20946313283945384
5169390890 -0.5854626454805073 0.21121777515662343
5169886185 -0.580287117707102 0.21498975236164897
5170381480 -0.5748966116654245 0.21894074427454094
5170876775 -0.5695374764894184 0.22283111826369636
5171372070 -0.5643203634964792 0.22531065972227798
5171867365 -0.5587149136944821 0.22957535244916616
5172362660 -0.5537607826684651 0.23189538325134076
5172857955 -0.5481023317889163 0.2355660356973347
5173353250 -0.5421344041824341 0.23984155215715108
5173848545 -0.5374097416275426 0.24098267916001773
5174343840 -0.531238389642615 0.24533569263784508
5174839135 -0.5247777920020255 0.24996029781667808
5175334430 -0.5195966676661843 0.2518219594892703
5175829725 -0.514073393846813 0.25405637370912654
5176325020 -0.5076247673285635 0.2582884321087285
5176820315 -0.5021781795903256 0.26023291600377935
5177315610 -0.4958322503064808 0.2638412196385233
5177810905 -0.49040182954386663 0.2652903293308459
5178306200 -0.48488643765449524 0.2670573325533616
5178801495 -0.47770834753387853 0.27186739287878336
5179296790 -0.4727813428954074 0.2718898057937622
5179792085 -0.46631547024375514 0.2744456702157071
5180287380 -0.46009257435798645 0.2771826966812736
5180782675 -0.4545677445436779 0.2787066290253087
5181277970 -0.4470965187800558 0.2823619654304103
5181773265 -0.44138978500115245 0.282995520453704
5182268560 -0.43617661218894155 0.28417558732785675
5182763855 -0.42992942113625376 0.2860867600691946
5183259150 -0.4231002879770179 0.288081241281409
5183754445 -0.41712640461168793 0.28949643279376785
5184249740 -0.41080260433648763 0.29169814523897675
5184745035 -0.4043976162609301 0.2926107299955268
5185240330 -0.39804464108065557 0.2939770880498384
5185735625 -0.3916259062917609 0.2956054932192752
5186230920 -0.38567001882352325 0.29609024995251704
5186726215 -0.3793981702704179 0.2978050708770752
5187221510 -0.3725416942646629 0.2987458752958398
5187716805 -0.3663242020105061 0.2997550038914931
5188212100 -0.3601954140161213 0.30011045775915446
5188707395 -0.3542659878730774 0.3004720650221172
5189202690 -0.3475174041170823 0.30164643024143417
5189697985 -0.341404096076363 0.3020838499069214
5190193280 -0.33464670965546056 0.30290828409947845
5190688575 -0.32861796021461487 0.30308612710551214
5191183870 -0.3226121664047241 0.30320054763241816
5191679165 -0.31575281996476023 0.30368464087185104
5192174460 -0.30939571481002004 0.303682112380078
5192669755 -0.30315496576459783 0.30385749120461314
5193165050 -0.2964495498883097 0.30429582376229136
