# HZ S RI R 50
5000000000 0.40833978276503713 0.13372147553845457
5000495295 0.41163905043351023 0.12660547149808785
5000990590 0.4143392663252981 0.11994763346094835
5001485885 0.41773094942695216 0.11154686894856002
5001981180 0.4209112462244536 0.1047422560422044
5002476475 0.42410478309581157 0.09696845827918303
5002971770 0.42682970354431554 0.08862295903657612
5003467065 0.42967331723163005 0.08111770686350371
5003962360 0.43179812399964584 0.07478483531035875
5004457655 0.43466245971227946 0.06599682726358112
5004952950 0.43738161576421636 0.05800730146859821
5005448245 0.4393011190389332 0.0512077302524918
5005943540 0.44148940004800497 0.043267329860674705
5006438835 0.4438790208414981 0.035677708881466014
5006934130 0.44591912940928813 0.0275111677811334
5007429425 0.4476028053384078 0.02038426432562502
5007924720 0.44973777469835785 0.012442774923616335
5008420015 0.451384142825478 0.005186726339161396
5008915310 0.45280168872130544 -0.0025026455619617514
5009410605 0.45428642787431417 -0.010952185447278776
5009905900 0.45590089183104665 -0.018002905049606374
5010401195 0.45704921452622665 -0.0256382767111063
5010896490 0.45830460441739934 -0.03311247398194514
5011391785 0.4596286776818727 -0.04077394090984997
5011887080 0.4604822820738742 -0.04829025405802225
5012382375 0.4616832905694058 -0.05543595003454309
5012877670 0.46201243055494207 -0.0634548895453152
5013372965 0.4628140173460308 -0.0708344429731369
5013868260 0.46357230449977677 -0.07837487012147903
5014363555 0.4642321059578343 -0.08629195784267626
5014858850 0.464595438618409 -0.09324249546778829
5015354145 0.4650207303072277 -0.1010898249713998
5015849440 0.46532134162752253 -0.1085640297908532
5016344735 0.46541088662649455 -0.11595676760924489
5016840030 0.4656785318725987 -0.12334858900622318
5017335325 0.46567667314880773 -0.13068664544507078
5017830620 0.4655335435741826 -0.1380232274532318
5018325915 0.46556184166356135 -0.14530144318153984
5018821210 0.4653102551635943 -0.15263159808359647
5019316505 0.46487250767256083 -0.1607336715648049
5019811800 0.4645256996154785 -0.16755085634557823
5020307095 0.46417135784500524 -0.17436966927427994
5020802390 0.46362856971590144 -0.18176122558744331
5021297685 0.4627318868511601 -0.1891208306739205
5021792980 0.46225870439880773 -0.19584797636458748
5022288275 0.4612343154455486 -0.20343544608668276
5022783570 0.4606497993594722 -0.21033953600808195
5023278865 0.4598658822084728 -0.21695234116755033
5023774160 0.4586117079383449 -0.2243579006508777
5024269455 0.4572225448332335 -0.2318750925754246
5024764750 0.456527358607242 -0.23775630640356163
5025260045 0.45585952620757253 -0.24432907684853203
5025755340 0.4536378807143161 -0.25348106340358134
5026250635 0.4525734107745321 -0.25923066860751104
5026745930 0.4511659882570568 -0.2660441602531232
5027241225 0.45027436865003484 -0.2716840678139737
5027736520 0.44814895956139816 -0.27956246231731613
5028231815 0.4459107910331927 -0.2868720026392686
5028727110 0.4449688494205475 -0.29270889100275543
5029222405 0.4430438389903621 -0.2996971309185028
5029717700 0.4416888920884383 -0.3058760573989467
5030212995 0.43981225396457474 -0.31258941951550934
5030708290 0.4382957596527903 -0.3178902644860117
5031203585 0.43483180278225947 -0.3264248198584506
5031698880 0.433252204405634 -0.3324436812024367
5032194175 0.43167004302928325 -0.33832444329010813
5032689470 0.4298451527168876 -0.3440265843742772
5033184765 0.42678824223970113 -0.351405730372981
5033680060 0.42436307511831584 -0.3579037989440717
5034175355 0.42193914244049474 -0.36449156936846283
5034670650 0.4191670370729346 -0.37080856843998555
5035165945 0.41707883226244075 -0.37636354408766093
5035661240 0.4157177319652156 -0.3819210090135273
5036156535 0.41170529315346166 -0.38894784136822347
5036651830 0.4096488325219405 -0.3941463545749062
5037147125 0.4061899749856246 -0.40138146751805354
5037642420 0.40318911640267624 -0.4061840662830754
5038137715 0.40191084146499634 -0.4119029249015607
5038633010 0.39812198438142476 -0.41835639821855647
5039128305 0.3952160556065409 -0.4238609138287996
5039623600 0.39236423843785334 -0.42969264011634023
5040118895 0.38975028301540177 -0.4354167517862822
5040614190 0.38636514544487 -0.4412856870575955
5041109485 0.3835026778672871 -0.4470807517829694
5041604780 0.3797363136944018 -0.4526257922774867
5042100075 0.3770788421756343 -0.457403783735476
5042595370 0.3735184355785972 -0.4629577304187574
5043090665 0.3700732149575886 -0.4684720698155855
5043585960 0.3667812519951871 -0.47372520283648845
5044081255 0.36355260328242656 -0.47962015867233276
5044576550 0.36022110832364934 -0.4842575270878641
5045071845 0.3571084078989531 -0.48959330979146454
5045567140 0.352699129205001 -0.49520073752654226
5046062435 0.34954503492305156 -0.49991447517746374
5046557730 0.3455130144169456 -0.505435607935253
5047053025 0.34212969008244964 -0.5100500458165219
5047548320 0.33844988283358124 -0.5155624464938515
5048043615 0.33540556462187515 -0.5203670169177809
5048538910 0.33125190985830205 -0.5252029989895067
5049034205 0.32712459250500325 -0.5299943465935556
5049529500 0.323576000175978 -0.5348462493796098
5050024795 0.32091060437654195 -0.5379133224487305
5050520090 0.31556479868135956 -0.543059766292572
5051015385 0.31182156424773366 -0.5476641780451724
5051510680 0.3080067038536072 -0.5524030672876459
5052005975 0.30398761598687424 -0.5569726228713989
5052501270 0.2997000546831834 -0.5615476558082982
5052996565 0.29552745975946126 -0.5658874605831347
5053491860 0.2921203751313059 -0.5702501598157381
5053987155 0.2879353212682824 -0.574433380051663
5054482450 0.2833724037597054 -0.5790177552323592
5054977745 0.2791093525133635 -0.583053962180489
5055473040 0.2753251069470456 -0.5866662671691493
5055968335 0.27121445693467794 -0.5913181932348954
5056463630 0.2667602190845891 -0.5957764543985066
5056958925 0.26203682548121404 -0.5997056427754854
5057454220 0.25876875300156443 -0.6035599081139815
5057949515 0.2542521153625689 -0.6078012303302163
5058444810 0.2501851045771649 -0.6112675321729559
5058940105 0.24609433428237312 -0.6150559155564559
5059435400 0.24164701213962153 -0.619914290152098
5059930695 0.23797067999839783 -0.6229993763722872
5060425990 0.23330892465616526 -0.6266739117471796
5060921285 0.22815122808280744 -0.6307126816950346
5061416580 0.22475887286035637 -0.6338404040587576
5061911875 0.21936519757697456 -0.638961628863686
5062407170 0.21470437473372408 -0.6415062860438698
5062902465 0.21134839951992035 -0.6447142770415858
5063397760 0.20682281726285032 -0.6488416445882697
5063893055 0.20184180846339778 -0.6521998675245988
5064388350 0.1969451378834875 -0.6555140363542658
5064883645 0.19276260780660728 -0.6592902258822793
5065378940 0.18748367773859123 -0.6625985848276239
5065874235 0.18401899933815002 -0.6659594711504484
5066369530 0.1780624436704736 -0.669218499409525
5066864825 0.17372881189772957 -0.6720346714320936
5067360120 0.16851003860172473 -0.6759399050160458
5067855415 0.16480957128499685 -0.6784913696740803
5068350710 0.15831193092622256 -0.6820087244636134
5068846005 0.15460763479533948 -0.6847833018553885
5069341300 0.14885089977791435 -0.6881385633819982
5069836595 0.14356163222538798 -0.6909201490251642
5070331890 0.1429041608383781 -0.6931911518699244
5070827185 0.13417282857392965 -0.6963198247708773
5071322480 0.1293408243279708 -0.6994960276704085
5071817775 0.12570662286720777 -0.7017457673424169
5072313070 0.12303601362203297 -0.7043610309299669
5072808365 0.11367825379497126 -0.7074004380326522
5073303660 0.11108318716287613 -0.7095511085108707
5073798955 0.10534875643880744 -0.7125085655011629
5074294250 0.0995691097096393 -0.7149913279633773
5074789545 0.09530460246299442 -0.7174672484397888
5075284840 0.08978102473836196 -0.7198995979208695
5075780135 0.08529351455600638 -0.7221491525047704
5076275430 0.0804020284037841 -0.7252035360587271
5076770725 0.07555332387748517 -0.7267013254918551
5077266020 0.06984119940745204 -0.7287839525624326
5077761315 0.06523394604262553 -0.7309741660168296
5078256610 0.060378502858312505 -0.7332931129555953
5078751905 0.05414633962668871 -0.7353957828722502
5079247200 0.050432342251664715 -0.7368865766023335
5079742495 0.04470494899310564 -0.7389617405439678
5080237790 0.03801580655731653 -0.7413019286958795
5080733085 0.03435993174973287 -0.7429866571175424
5081228380 0.029531629363957205 -0.7448380714968631
5081723675 0.023825603488244508 -0.7464303123323541
5082218970 0.019007087734184767 -0.7487406322830602
5082714265 0.013697901348534384 -0.7504348503915887
5083209560 0.008459384945270262 -0.752446356572603
5083704855 0.0024598802096749608 -0.7534934721494976
5084200150 -0.0021564835976613196 -0.754587029155932
5084695445 -0.007739326720567126 -0.7561106775936327
5085190740 -0.012552145819522832 -0.7584662092359442
5085686035 -0.018370744331102622 -0.7598459312790319
5086181330 -0.023713163443301852 -0.7607768836774325
5086676625 -0.02867128307882108 -0.7626579309764662
5087171920 -0.03484829377971197 -0.7638394832611084
5087667215 -0.03988550054399591 -0.765008945214121
5088162510 -0.0452420599758625 -0.7651008210684124
5088657805 -0.049473344691489875 -0.7670624663955287
5089153100 -0.05647209208262594 -0.768545643279427
5089648395 -0.061596122031149114 -0.7707872986793518
5090143690 -0.0663392853580023 -0.7704977048070807
5090638985 -0.07199840129990327 -0.771125548764279
5091134280 -0.07688722406563006 -0.7721681500736036
5091629575 -0.0829549651396902 -0.772944312346609
5092124870 -0.08808500829495881 -0.7739602546942862
5092620165 -0.09340468715680272 -0.7744007581158688
5093115460 -0.0988059863448143 -0.7753606783716303
5093610755 -0.10414309172253859 -0.7763650668294806
5094106050 -0.11002456436031743 -0.7766460995925101
5094601345 -0.1130163900946316 -0.7774849502663863
5095096640 -0.12129966836226613 -0.7776785712493094
5095591935 -0.12632138125206294 -0.778137134878259
5096087230 -0.13068677249707675 -0.7782516259896127
5096582525 -0.13593886478951103 -0.7787827316083407
5097077820 -0.14066049456596375 -0.779132648518211
5097573115 -0.14997717973433042 -0.7781490401217812
5098068410 -0.1532867707704243 -0.7791769410434523
5098563705 -0.15791561101612292 -0.779261937266902
5099059000 -0.1610147874606283 -0.7797472037767109
5099554295 -0.17010633176878878 -0.7789475415882311
5100049590 -0.1717512819327806 -0.7793475389480591
5100544885 -0.18095781379624418 -0.7783925125473424
5101040180 -0.18665423597160138 -0.7782164184670699
5101535475 -0.1884177327156067 -0.7786677573856554
5102030770 -0.19699503638242422 -0.7780586951657346
5102526065 -0.2058359737458982 -0.7769701794574135
5103021360 -0.2053084349945972 -0.7775515443400333
5103516655 -0.2131899908969277 -0.7772673776275233
5104011950 -0.21733650329865908 -0.7766958537854647
5104507245 -0.22356726150763662 -0.7756473547533939
5105002540 -0.23122283973191915 -0.7745045454878556
5105497835 -0.23269388550206235 -0.775194337493495
5105993130 -0.23856411795867116 -0.7743462010433799
5106488425 -0.24457701334827825 -0.773465002837934
5106983720 -0.2531917973568565 -0.7716812020853946
5107479015 -0.2529936864187843 -0.7727836339097274
5107974310 -0.25863774512943466 -0.7717047459200809
5108469605 -0.2645234732251418 -0.7705535512221487
5108964900 -0.2707899808883667 -0.768999927922299
5109460195 -0.27580446475430537 -0.7686026378681785
5109955490 -0.28101976607975204 -0.767044368543123
5110450785 -0.28581555109275014 -0.7664217509721455
5110946080 -0.29159078943101985 -0.7655874396625318
5111441375 -0.2967669367790222 -0.7630865573883057
5111936670 -0.30114537320638957 -0.7636855715199521
5112431965 -0.3074471997587304 -0.7611198989968551
5112927260 -0.3131323378337057 -0.759783895392167
5113422555 -0.3180503625618784 -0.7592569087681017
5113917850 -0.32289291055578934 -0.7575742853315253
5114413145 -0.32811905835804184 -0.757087064416785
5114908440 -0.33357831992601095 -0.754723680646796
5115403735 -0.33889585733413696 -0.7528349694452787
5115899030 -0.34479851785459015 -0.7505547937593962
5116394325 -0.3481310307979584 -0.7501810632253948
5116889620 -0.35366170186745494 -0.7484347192864669
5117384915 -0.3591106863398301 -0.7464348893416556
5117880210 -0.3647223491417734 -0.7443940106191134
5118375505 -0.36869674764181437 -0.7432593985607749
5118870800 -0.37435871519540487 -0.741094055928682
5119366095 -0.3790489168543565 -0.7381154236040617
5119861390 -0.3845887968414708 -0.7365171313285828
5120356685 -0.3890579954573983 -0.7348981593784533
5120851980 -0.39357821878634003 -0.7323749253624364
5121347275 -0.39837546411313507 -0.7309353226109555
5121842570 -0.40357647444072525 -0.7282645765103792
5122337865 -0.4085480460995122 -0.7257186425359625
5122833160 -0.4135645612290031 -0.72335747354909
5123328455 -0.4189191727261794 -0.720889361281144
5123823750 -0.4229356724964945 -0.7191519894097981
5124319045 -0.4282987086396468 -0.7162937710159704
5124814340 -0.43300041870066996 -0.7135395156709772
5125309635 -0.43763397555602224 -0.7119192135961432
5125804930 -0.4417075420680799 -0.7091264316910192
5126300225 -0.4469006390948045 -0.7058658537111784
5126795520 -0.4523938408023433 -0.7035054313509088
5127290815 -0.45604838666162995 -0.7005723307007238
5127786110 -0.460600147121831 -0.6973960556482014
5128281405 -0.46480278906069306 -0.695285251266078
5128776700 -0.470025183338868 -0.6920703963229531
5129271995 -0.47431131413108424 -0.6889821385082445
5129767290 -0.47875111510879115 -0.6862450555751198
5130262585 -0.48367224241557877 -0.6829389710175363
5130757880 -0.4883192856060831 -0.6799873113632202
5131253175 -0.4921172292608964 -0.6770311248929877
5131748470 -0.49639155362781723 -0.6743360506860834
5132243765 -0.5008099016390348 -0.6708907735975165
5132739060 -0.5053107456157082 -0.6673546496190523
5133234355 -0.5092161611506814 -0.6640958974235937
5133729650 -0.5134802366557875 -0.6609978675842285
5134224945 -0.517634950186077 -0.6580685157524911
5134720240 -0.5225433205303393 -0.6538149149794328
5135215535 -0.5265712612553647 -0.6506364282808805
5135710830 -0.5311683635962637 -0.6466645441557232
5136206125 -0.5337811645708586 -0.6452109060789409
5136701420 -0.5384967578084845 -0.6403604934090062
5137196715 -0.5436116237389413 -0.635462738965687
5137692010 -0.5463482110123885 -0.6327569735677618
5138187305 -0.5501597492318404 -0.6291625342871013
5138682600 -0.5557096129969546 -0.6243683946760077
5139177895 -0.5575533760221381 -0.6224069124773929
5139673190 -0.5630542541805067 -0.6166537560914692
5140168485 -0.5657022532663847 -0.6137647534671583
5140663780 -0.5682262558686105 -0.6115333626144811
5141159075 -0.576254455666793 -0.6033731510764674
5141654370 -0.5770546731195951 -0.6025447939571581
5142149665 -0.5806735628529599 -0.5977875684436998
5142644960 -0.58723342104962 -0.5919552790491205
5143140255 -0.5887438152965746 -0.5895963311195374
5143635550 -0.5929077832322371 -0.5845203681995994
5144130845 -0.5936133171382704 -0.5832860375705519
5144626140 -0.6004768955080133 -0.5760367324477748
5145121435 -0.6038023170671964 -0.5713855530086317
5145616730 -0.6062916078065571 -0.5684467334496347
5146112025 -0.6089934957654852 -0.5646742613692033
5146607320 -0.612277394846866 -0.5602596182572214
5147102615 -0.6180330075715718 -0.5529818221142417
5147597910 -0.6195499865632308 -0.5500962106805098
5148093205 -0.62275356995432 -0.5457068368008262
5148588500 -0.6256372552168997 -0.5421870005758185
5149083795 -0.6296405102077284 -0.5356232210209495
5149579090 -0.6326908720167059 -0.531416306370183
5150074385 -0.6374621391296387 -0.5217410765196148
5150569680 -0.6375448829249332 -0.5205792345498738
5151064975 -0.6403903082797402 -0.5163112565090782
5151560270 -0.6431786951265837 -0.5114358851784154
5152055565 -0.6461294732595745 -0.5061794080232319
5152550860 -0.6494050716098986 -0.5003946799980966
5153046155 -0.6516611074146471 -0.49528645057427256
5153541450 -0.6536346517111126 -0.49149830247226517
5154036745 -0.6570406869838112 -0.48578535255632904
5154532040 -0.6591401790317736 -0.4805527219646855
5155027335 -0.6615393632336667 -0.475581650671206
5155522630 -0.6641132611977426 -0.47048561353432505
5156017925 -0.6662466118210241 -0.46550781632724564
5156513220 -0.6686045496087325 -0.45969577996354355
5157008515 -0.6710117647522374 -0.45515232650857224
5157503810 -0.6727015878024855 -0.4500200277880618
5157999105 -0.6756287656332317 -0.4436554077424501
5158494400 -0.6772118712726393 -0.439005351380298
5158989695 -0.6792115380889491 -0.43349857549918325
5159484990 -0.6812425349888048 -0.42841087046422455
5159980285 -0.6833384758547733 -0.42265698941130386
5160475580 -0.6848814267861215 -0.41703972534129496
5160970875 -0.6869425020719829 -0.4119771530753688
5161466170 -0.6889000409527829 -0.4052179785151231
5161961465 -0.6899391444105851 -0.40072886253658097
5162456760 -0.6924150272419578 -0.3942484306661706
5162952055 -0.6935611524079975 -0.3886314661879289
5163447350 -0.6950069791392276 -0.38320699961561905
5163942645 -0.6965108137381705 -0.3778119589153089
5164437940 -0.6978655614350971 -0.371749305411389
5164933235 -0.6990726307818764 -0.36604847562940496
5165428530 -0.7003724794638785 -0.3607326244053088
5165923825 -0.7012041336611697 -0.3545529763949545
5166419120 -0.7030623900262933 -0.34793568284888016
5166914415 -0.7026325370136061 -0.3444102312389173
5167409710 -0.7051489353179932 -0.33490359312609624
5167905005 -0.7044780505330939 -0.3320737308577487
5168400300 -0.7050997144297549 -0.3271347158833554
5168895595 -0.7068855542885629 -0.31828734121824565
5169390890 -0.707513363737809 -0.3128019194853933
5169886185 -0.7081960878874126 -0.3059344809306295
5170381480 -0.7073887116030643 -0.30254088420616954
5170876775 -0.708568949448435 -0.2954936215752049
5171372070 -0.7104298597887942 -0.285641842766812
5171867365 -0.7097092710043255 -0.28228795685266195
5172362660 -0.7097643111881456 -0.2763879628557908
5172857955 -0.7091490689076876 -0.2719769493529671
5173353250 -0.7097125022034896 -0.2651210490025972
5173848545 -0.7103705719897622 -0.2558947221228951
5174343840 -0.7095786897759688 -0.252136725344156
5174839135 -0.7097696944286949 -0.24535335678803294
5175334430 -0.7090533752190439 -0.2405137372644324
5175829725 -0.7079726834046213 -0.2359255152313333
5176325020 -0.7084247156193382 -0.22600675021347247
5176820315 -0.7079251847769085 -0.22057747919308512
5177315610 -0.7070834354350441 -0.214908640635641
5177810905 -0.7064312790569506 -0.20908713419186442
5178306200 -0.7053654789924622 -0.20237810831320913
5178801495 -0.7049520799988195 -0.1959762730096516
5179296790 -0.704645291755074 -0.18702653050422668
5179792085 -0.7027791581655803 -0.18290457364759946
5180287380 -0.7016367661325555 -0.17708733521009745
5180782675 -0.7000222739420439 -0.17225789317959234
5181277970 -0.6985550020870409 -0.16588619037678368
5181773265 -0.6973734529394853 -0.15851103083083504
5182268560 -0.6959209065688284 -0.1525000035762787
5182763855 -0.6944489133985419 -0.147198412763445
5183259150 -0.6926836277309217 -0.14068349097904406
5183754445 -0.6912308680383783 -0.13453768821139084
5184249740 -0.6891555284198961 -0.12772384442781148
5184745035 -0.6874242550448367 -0.12264065287615124
5185240330 -0.6852164676314906 -0.11652248862542604
5185735625 -0.6832891169347262 -0.11022384307886425
5186230920 -0.6812618657162315 -0.10458041570688549
5186726215 -0.6790129793317694 -0.09812241596610922
5187221510 -0.676650910001052 -0.09247718594576183
5187716805 -0.6741138288849279 -0.08682361676504738
5188212100 -0.6718100936789262 -0.0797334611415863
5188707395 -0.6692892030665749 -0.07491276962192435
5189202690 -0.6669077559521324 -0.06849320585790433
5189697985 -0.6641089696633188 -0.06290333188678089
5190193280 -0.6613328362766066 -0.05737631767988205
5190688575 -0.658433315001036 -0.05059240993700529
5191183870 -0.6557097842818812 -0.04534062233410383
5191679165 -0.6524383457083451 -0.03987468955548186
5192174460 -0.6494375592783878 -0.03365555386009969
5192669755 -0.6464138940760964 -0.028698461914533062
