# HZ S RI R 50
5000000000 -0.06769496202468872 -0.7505991709859747
5000495295 -0.0752278852619623 -0.7521876441804987
5000990590 -0.0821851856614414 -0.7538760116225794
5001485885 -0.09099474353225608 -0.7551414809728924
5001981180 -0.09934233325092416 -0.7564288754212228
5002476475 -0.10706562744943719 -0.757467690267061
5002971770 -0.11601244148455168 -0.758742094039917
5003467065 -0.12383145799762324 -0.7599399403521889
5003962360 -0.13235127925872803 -0.7603263258934021
5004457655 -0.14116353110263222 -0.7606735919651232
5004952950 -0.14864593587423625 -0.7619829805273759
5005448245 -0.1571681930830604 -0.7627039175284537
5005943540 -0.16518089724214455 -0.7630581761661329
5006438835 -0.17265794386989192 -0.7632853608382376
5006934130 -0.17922788623132205 -0.7644063485296149
5007429425 -0.19101766928246147 -0.7634261062270716
5007924720 -0.19739572390129692 -0.7643192473210787
5008420015 -0.20532798453381187 -0.7641584308523881
5008915310 -0.2133424760479676 -0.7645952105522156
5009410605 -0.22052174728167684 -0.7642957317201715
5009905900 -0.23014592653826663 -0.7638291653833891
5010401195 -0.23913578375389702 -0.7628929269941229
5010896490 -0.2459499992822346 -0.7627154871037132
5011391785 -0.2540730363444278 -0.7623394790448641
5011887080 -0.26162099838256836 -0.7614883968704625
5012382375 -0.27056557881204707 -0.7603383001528288
5012877670 -0.2784538080817775 -0.7594810504662363
5013372965 -0.28612650852454335 -0.7589452611772638
5013868260 -0.29459005123690557 -0.7573153564804479
5014363555 -0.30292953158679764 -0.7561486300669218
5014858850 -0.309751747470153 -0.7553933168712416
5015354145 -0.3186657632652082 -0.753371398699911
5015849440 -0.3255502377685748 -0.7521976514866477
5016344735 -0.3334712166535227 -0.7508110278531125
5016840030 -0.3423950985858315 -0.7480507210681313
5017335325 -0.35001308353323685 -0.7463112944050839
5017830620 -0.3577869895257448 -0.744357632963281
5018325915 -0.365642553881595 -0.7428819882242303
5018821210 -0.3740180652392538 -0.7410391694621036
5019316505 -0.38181777533731964 -0.7379942222645408
5019811800 -0.3901558816432953 -0.7347369946931538
5020307095 -0.3971350616530368 -0.7330653416483026
5020802390 -0.404557057117161 -0.7307520006832323
5021297685 -0.41221878403111506 -0.727892910179339
5021792980 -0.4195663646647805 -0.7262332659018668
5022288275 -0.42774379880804764 -0.7224578982905338
5022783570 -0.43514442757556315 -0.7194417401363975
5023278865 -0.44201400091773585 -0.7168888135960227
5023774160 -0.4496183897319593 -0.7133552118351585
5024269455 -0.4574452497457203 -0.7104820765947041
5024764750 -0.46483173652699117 -0.7068173822603727
5025260045 -0.47174386444844696 -0.7038308099696511
5025755340 -0.4787669432790656 -0.7006781446306329
5026250635 -0.48567576000564977 -0.6965063998573705
5026745930 -0.4933406208690844 -0.6928581564049971
5027241225 -0.5006867804025349 -0.6886204512495744
5027736520 -0.5085963073529696 -0.6842580406289351
5028231815 -0.5155436177002756 -0.6803976171895078
5028727110 -0.5214945736684298 -0.6768185308105067
5029222405 -0.5280595955095793 -0.6732173373824671
5029717700 -0.535366061486696 -0.6684869370962444
5030212995 -0.5418279421956915 -0.6643277939997221
5030708290 -0.5502327680587769 -0.6588949937569467
5031203585 -0.5552633592956945 -0.6555046094091315
5031698880 -0.5621734983042667 -0.6503983767409074
5032194175 -0.569917547075372 -0.6445291167811343
5032689470 -0.5757105193640056 -0.6406150805322748
5033184765 -0.5818966187928852 -0.636353401761306
5033680060 -0.5887056024451005 -0.630446289715014
5034175355 -0.5945998461622941 -0.626077840202733
5034670650 -0.6014103042451959 -0.6206861734390259
5035165945 -0.6058284640312195 -0.6164530107849523
5035661240 -0.6144980411780508 -0.6092181613570765
5036156535 -0.6194738839801989 -0.6048780867927953
5036651830 -0.6253719737655238 -0.599276580308613
5037147125 -0.6311714711942171 -0.5934307481113233
5037642420 -0.6370373744713632 -0.5886752887776023
5038137715 -0.6436263950247514 -0.58204227999637
5038633010 -0.650064164086392 -0.5755197280331662
5039128305 -0.6539191038985002 -0.5711619603006464
5039623600 -0.6611430111684298 -0.5644091210867229
5040118895 -0.6660030766537315 -0.558341267861818
5040614190 -0.6710997976754841 -0.5525259657909996
5041109485 -0.6769237988873532 -0.5453268164082578
5041604780 -0.681146966783624 -0.5406473718191448
5042100075 -0.6870122614659762 -0.5336450997151827
5042595370 -0.6919826865196228 -0.528171862426557
5043090665 -0.6969902609523974 -0.521512856608943
5043585960 -0.7021635739426864 -0.5145980056963468
5044081255 -0.7070961782806798 -0.5079758700571562
5044576550 -0.7118088979470102 -0.5015580058097839
5045071845 -0.716569533473567 -0.49478915490602193
5045567140 -0.7206874583896837 -0.48789095721746745
5046062435 -0.7256944587356166 -0.48123064480329814
5046557730 -0.7302857292325873 -0.47364626119011327
5047053025 -0.7348691915210924 -0.466768321238066
5047548320 -0.7386642945440192 -0.46008207609778956
5048043615 -0.7433233543446189 -0.4528684239638479
5048538910 -0.7472387615003084 -0.44548021805913823
5049034205 -0.7509734410988657 -0.43888760867871734
5049529500 -0.7555092573165894 -0.4304583794192264
5050024795 -0.755863861033791 -0.42999565758203206
5050520090 -0.7630204432889035 -0.4168430080539302
5051015385 -0.7672728174611142 -0.4084312994229166
5051510680 -0.770358073083978 -0.4019954518267983
5052005975 -0.7738522416666934 -0.39422748120207535
5052501270 -0.7772960380504006 -0.3857378818486866
5052996565 -0.7805735845314828 -0.3782985131991537
5053491860 -0.7836090169454876 -0.37027654522343684
5053987155 -0.7868481811724211 -0.3622032780396311
5054482450 -0.7906209199052108 -0.3537296590052153
5054977745 -0.7928893973952845 -0.34623315302949204
5055473040 -0.795769685193112 -0.33838945940921183
5055968335 -0.7983375693622389 -0.32929324946905436
5056463630 -0.8009027807336104 -0.32163436946116
5056958925 -0.8029037086587203 -0.31366457594068425
5057454220 -0.8059872357468856 -0.30407432035395976
5057949515 -0.8082383024065118 -0.2956495457573941
5058444810 -0.810259433169114 -0.2876524423298083
5058940105 -0.8121810869166726 -0.2787600912545857
5059435400 -0.813953415343636 -0.27076100832537603
5059930695 -0.8158625395674455 -0.2616017100058104
5060425990 -0.8169853687286377 -0.25409225256819473
5060921285 -0.8190030455589294 -0.2438091063185742
5061416580 -0.8201572612712258 -0.23548959901458338
5061911875 -0.8211272954940796 -0.2270107786906393
5062407170 -0.822602137138969 -0.21745324762243973
5062902465 -0.8234899138149462 -0.20902289528595774
5063397760 -0.8241611875985798 -0.20025146321246498
5063893055 -0.8254701369687131 -0.18979399376793912
5064388350 -0.8253322118207028 -0.18242251873016357
5064883645 -0.8259295350626895 -0.17307328550439133
5065378940 -0.8268480269532454 -0.16156455168598577
5065874235 -0.8264394873066953 -0.15576253752959401
5066369530 -0.8265907042904904 -0.14497048917569613
5066864825 -0.8262376377457067 -0.13493476259080986
5067360120 -0.8262615047003093 -0.12544334562201248
5067855415 -0.8253455413015265 -0.11860115904557078
5068350710 -0.8249545881622716 -0.10826764334189265
5068846005 -0.8242582553311398 -0.09810941744791835
5069341300 -0.8235958344057986 -0.08877214985458474
5069836595 -0.8224221185634011 -0.08027325021593194
5070331890 -0.8210483412993582 -0.07102772358216737
5070827185 -0.8202065135303297 -0.059750937121479136
5071322480 -0.8185459093043679 -0.05253849511868075
5071817775 -0.81666499376297 -0.04367274222405333
5072313070 -0.8154210793344598 -0.032726794775379334
5072808365 -0.8132539203292445 -0.021561381652166967
5073303660 -0.8108906463572854 -0.01711378158315232
5073798955 -0.8087508803919742 -0.005845786905602405
5074294250 -0.8065508604049683 0.0031034339121297785
5074789545 -0.8036304304474279 0.014526517228468469
5075284840 -0.8008128185021249 0.02293444013125018
5075780135 -0.7982180934203299 0.030893497953289432
5076275430 -0.7950134245972884 0.040072752064780184
5076770725 -0.7918781104840731 0.0490630735692225
5077266020 -0.7884241154319361 0.05983477046615199
5077761315 -0.7850134592307242 0.06946032219811489
5078256610 -0.7814545380441766 0.07649013556932148
5078751905 -0.7776666785541334 0.08531896142583144
5079247200 -0.7735900533826727 0.09590305623255278
5079742495 -0.7694148734996193 0.10409149880471982
5080237790 -0.7652123068508349 0.1111641675233841
5080733085 -0.7607716886620772 0.12239827176457957
5081228380 -0.7560074517601415 0.129085484696062
5081723675 -0.7509380704478213 0.14149184603440135
5082218970 -0.7462833366895977 0.14803360716292732
5082714265 -0.7410767925413031 0.15614685337794454
5083209560 -0.7361789659449929 0.16568170487880707
5083704855 -0.7304122197000604 0.17424206357253225
5084200150 -0.7243665770480507 0.18193364143371582
5084695445 -0.719475573615024 0.18909395054767006
5085190740 -0.7132118344306946 0.1989610697093763
5085686035 -0.7075611258807936 0.20665739790389412
5086181330 -0.7010674162914878 0.21460910298322378
5086676625 -0.6945350828923678 0.222944869806892
5087171920 -0.6879583785408422 0.2306750973588542
5087667215 -0.681627935484836 0.2388318918253246
5088162510 -0.6753014388837313 0.24582314412844808
5088657805 -0.6674784547404239 0.25417456658262955
5089153100 -0.660603338166287 0.2614356687194423
5089648395 -0.6530418333254362 0.26913709389536006
5090143690 -0.6458476750474227 0.2761909444081156
5090638985 -0.6380469391220495 0.2831195624251115
5091134280 -0.6305330364327681 0.2899016941848554
5091629575 -0.6226213982230738 0.2976786855020021
5092124870 -0.614830732345581 0.3041550140631826
5092620165 -0.6065971474898489 0.3108342729116741
5093115460 -0.5982763108454252 0.3170256426459865
5093610755 -0.5897394701054222 0.32401701180558456
5094106050 -0.5810521621453134 0.3304106232367064
5094601345 -0.5725998847108138 0.3364219728269075
5095096640 -0.5638224388423719 0.34213050886204366
5095591935 -0.554434503379621 0.349044752748389
5096087230 -0.546256567302503 0.35346771541394684
5096582525 -0.5362648807073894 0.36016191306867096
5097077820 -0.527420141194996 0.3646970595184125
5097573115 -0.5181818792694494 0.37033687296666595
5098068410 -0.5087105945536965 0.3756577890170248
5098563705 -0.4993029644614772 0.3801843163214232
5099059000 -0.48961526939743444 0.38458243953554255
5099554295 -0.48005617762866776 0.3892428325979333
5100049590 -0.4712061583995819 0.39497132520926626
5100544885 -0.4605362870191273 0.39972553284544693
5101040180 -0.45055168553402547 0.40379703829163
5101535475 -0.4415616298976697 0.4065503478050232
5102030770 -0.4304756820201874 0.4108696407393405
5102526065 -0.41989508584926005 0.415033663574018
5103021360 -0.4100444034526223 0.4178038945323543
5103516655 -0.3994452592573668 0.4212054249487425
5104011950 -0.3890790609936965 0.4236417161790948
5104507245 -0.37665376537724543 0.42831892716257197
5105002540 -0.36675534436577245 0.43049062082642003
5105497835 -0.35608295233626114 0.4326307757904655
5105993130 -0.34644390093652827 0.4341999951161836
5106488425 -0.3351857050469047 0.436618751601169
5106983720 -0.32362305961157145 0.4387681452851546
5107479015 -0.3128673763651597 0.44049835518786784
5107974310 -0.30268399338973195 0.44120896960559647
5108469605 -0.2911961188441829 0.4429098273578443
5108964900 -0.2795907039391367 0.444473313657861
5109460195 -0.26878241018245097 0.44517206675127935
5109955490 -0.2578135226902209 0.4461807890942222
5110450785 -0.24692194791216598 0.44626144829549286
5110946080 -0.23589505490503812 0.44646080700974716
5111441375 -0.2237596260873895 0.447161559995852
5111936670 -0.21341874881794579 0.44663323226727936
5112431965 -0.20214219705054634 0.44683340191841125
5112927260 -0.1905528126578582 0.4460595218758834
5113422555 -0.1800775520111385 0.4449493492904462
5113917850 -0.1684987121506741 0.4444551844345896
5114413145 -0.15776720721470683 0.44299161277319254
5114908440 -0.1463664079967298 0.44209849207024826
5115403735 -0.1352118010583677 0.4403783443726991
5115899030 -0.12440258264541626 0.4387419757090117
5116394325 -0.11315702686184331 0.43694620226558883
5116889620 -0.10208531076970853 0.43482792220617594
5117384915 -0.09198766358588871 0.43232290525185435
5117880210 -0.08029716971673463 0.43014401981705114
5118375505 -0.06943760145651667 0.4272760764548653
5118870800 -0.05864845353521799 0.42424166202545166
5119366095 -0.047677254598391686 0.4215602733586964
5119861390 -0.03671267158106754 0.4180704763061122
5120356685 -0.026437604407730856 0.41437718585917827
5120851980 -0.015953417181184416 0.41096981105051544
5121347275 -0.005460266612078014 0.407217999822215
5121842570 0.005528810188958519 0.40300499451787847
5122337865 0.015511182185850646 0.3985776556165595
5122833160 0.025441868426768405 0.39432378505405624
5123328455 0.03611168010454429 0.3896721538744475
5123823750 0.04629481446586157 0.3847767789112894
5124319045 0.055827184139113674 0.38001227535699544
5124814340 0.0651208346611575 0.3749581716562572
5125309635 0.07559607256399958 0.3695758392936305
5125804930 0.08510586148814152 0.36398637451623617
5126300225 0.09467875957489014 0.3587080506901992
5126795520 0.1041596100518578 0.35311466141750936
5127290815 0.11340269054237165 0.3470790370514518
5127786110 0.12265337611499585 0.3408780443040948
5128281405 0.1319710965219297 0.3348491693797864
5128776700 0.14060975924918526 0.32868194266369466
5129271995 0.14995171208130686 0.32182581958017853
5129767290 0.15862611171446347 0.3153012253736195
5130262585 0.1670936157828883 0.30865506906258433
5130757880 0.17584533675720818 0.30138074881152105
5131253175 0.18430045717640928 0.29449035933143214
5131748470 0.1921848913556651 0.28725361824035645
5132243765 0.20021920925692507 0.28000570127838537
5132739060 0.20851919211839376 0.2722632492843427
5133234355 0.21629200483623304 0.26487607391257034
5133729650 0.2242937346822337 0.2568127246279466
5134224945 0.2317271616898085 0.2492437582266958
5134720240 0.23896928210007518 0.24125810908643822
5135215535 0.2459828932034342 0.23342882332048917
5135710830 0.2532532136691244 0.22534251840491043
5136206125 0.2608318015148765 0.21604137044203908
5136701420 0.26658934982199417 0.20900260225722664
5137196715 0.27350271061847087 0.20043898883618808
5137692010 0.280153773332897 0.19147793478087374
5138187305 0.28638098114415217 0.18302521188008158
5138682600 0.2929254142861617 0.17400800319094406
5139177895 0.2990567997882241 0.16485343716646494
5139673190 0.3047267120135458 0.15634451728118093
5140168485 0.3098931532157095 0.1481846367058001
5140663780 0.3158653864735051 0.13866104028726878
5141159075 0.3209470039919803 0.1295134762400075
5141654370 0.3264086403344807 0.12010957771225979
5142149665 0.3319038403661628 0.10995268743289144
5142644960 0.3359568040621908 0.10292753538018778
5143140255 0.34124930751951116 0.09217402574263121
5143635550 0.34564845656093796 0.0829377974334516
5144130845 0.3503694612728922 0.07320658901804372
5144626140 0.3544910801084418 0.06318681804757369
5145121435 0.3584612780495694 0.055094491886465174
5145616730 0.3625200469242899 0.0452247532574754
5146112025 0.3663069009780884 0.03448026352807095
5146607320 0.36982276094587224 0.02598014738606779
5147102615 0.3731838041230252 0.015353776514530182
5147597910 0.37652919637529475 0.005616662386608751
5148093205 0.3795052876597957 -0.00340683380828092
5148588500 0.3824253913603331 -0.014070283033345876
5149083795 0.3853167436624828 -0.0228465536707326
5149579090 0.38789753851137665 -0.0337900356634667
5150074385 0.3901358089948955 -0.04470775374456456
5150569680 0.39258751116300883 -0.05290397589928225
5151064975 0.3945677845101607 -0.06283415971617949
5151560270 0.3966861398596513 -0.07189366574350156
5152055565 0.39828228166228846 -0.08264377987698505
5152550860 0.4001221970507973 -0.09177660549941816
5153046155 0.40148843119018957 -0.10223407141472164
5153541450 0.4029617466424641 -0.1116491132660916
5154036745 0.4043456378735994 -0.12143492463387941
5154532040 0.4052407851344661 -0.13122951592269697
5155027335 0.4061784618779233 -0.14116266448246806
5155522630 0.4067166573122928 -0.15090123760072807
5156017925 0.4074232358681528 -0.16080204515080704
5156513220 0.40779522531910944 -0.17071099108771273
5157008515 0.4079752329148744 -0.18041737769779406
5157503810 0.4082981395094018 -0.18964097923354098
5157999105 0.4084266675146003 -0.1994708721574984
5158494400 0.4080889679883656 -0.209350364772897
5158989695 0.40758252928131505 -0.2187938447061338
5159484990 0.40737692149061905 -0.22893424096860385
5159980285 0.40688282721921015 -0.23817735831988485
5160475580 0.40602151500551326 -0.24784816801548004
5160970875 0.405257805397636 -0.25697158198607595
5161466170 0.4041273876240379 -0.26686746666305944
5161961465 0.4029659158305118 -0.27625684832271774
5162456760 0.4017477788423237 -0.28544512391090393
5162952055 0.40043612059793976 -0.2949100450465554
5163447350 0.399087634525801 -0.3043124158131449
5163942645 0.39735933197172063 -0.31342767884856776
5164437940 0.3955103002096477 -0.3227808067673131
5164933235 0.39408618525454875 -0.3315978677649247
5165428530 0.3914585913482465 -0.340982995535198
5165923825 0.3900158436674821 -0.3497881387409411
5166419120 0.3879438387720208 -0.3582902660495357
5166914415 0.38554227195288004 -0.36736681743672017
5167409710 0.38261282130291585 -0.376690968086845
5167905005 0.3805207892468101 -0.3850224849424864
5168400300 0.3774163864160839 -0.3941754698753357
5168895595 0.3752592284428446 -0.4022512153575295
5169390890 0.37187786792453964 -0.41107461327000666
5169886185 0.3685905902009261 -0.41977833917266444
5170381480 0.3659797781392148 -0.42810257798747015
5170876775 0.362879205691187 -0.43625328729027196
5171372070 0.35944488958308574 -0.4445450729445407
5171867365 0.3549658797289196 -0.4539606979018764
5172362660 0.3516735309048703 -0.4619361162185669
5172857955 0.34809245404444245 -0.46990883977789627
5173353250 0.345572724154121 -0.4768141508102417
5173848545 0.34024369089226975 -0.4861139262977399
5174343840 0.3369184120705253 -0.49398727636588247
5174839135 0.333744172987185 -0.5007720871975547
5175334430 0.3284344798640201 -0.5098981135769894
5175829725 0.3238514818643269 -0.5175202426157499
5176325020 0.3202711484934154 -0.5247775065271478
5176820315 0.3150033637097007 -0.5325777781637091
5177315610 0.31134020497924403 -0.539163024801957
5177810905 0.3064242224944265 -0.5475216225573891
5178306200 0.302197465771123 -0.5545891962553325
5178801495 0.29663533913461787 -0.5622555237067374
5179296790 0.2921249599833238 -0.5694211094002974
5179792085 0.2877560273597115 -0.5762600334067094
5180287380 0.2826139299493087 -0.5833186507225037
5180782675 0.27831248233192846 -0.5896498592276322
5181277970 0.2720072802744414 -0.5968005468970851
5181773265 0.2658431765280272 -0.6043222013272738
5182268560 0.26155330476007965 -0.6103811358150683
5182763855 0.25632809965234055 -0.617080597501052
5183259150 0.2503146411556947 -0.6236891275958011
5183754445 0.24492014944553375 -0.6307323198569449
5184249740 0.23792374369345212 -0.6369746609737998
5184745035 0.2342928232331025 -0.6426438406894082
5185240330 0.2278917698483718 -0.6487907798666703
5185735625 0.22274738550186157 -0.654404524125551
5186230920 0.2166908932359595 -0.6606707165115758
5186726215 0.21009612397143715 -0.6667143639765287
5187221510 0.205442308595306 -0.672206953952187
5187716805 0.19744376524498589 -0.6784755713061282
5188212100 0.19155205550946688 -0.6839994631315532
5188707395 0.18571661412715912 -0.6894024485035947
5189202690 0.18007677950357137 -0.6952121916570162
5189697985 0.1728466521752508 -0.7003852066240812
5190193280 0.16739541762753538 -0.7055825685199938
5190688575 0.16039397449869858 -0.7106456599737468
5191183870 0.15366002682008242 -0.7161716473729987
5191679165 0.1471394982777144 -0.7209679672592565
5192174460 0.14007781602834402 -0.7260424526114213
5192669755 0.1336176497371573 -0.7307948564228258
5193165050 0.12781953654791178 -0.7349681320943331
5193660345 0.11974137982255534 -0.7404589621644271
5194155640 0.113000908180287 -0.744853393027657
