# HZ S RI R 50
5000000000 -0.12516949129732033 0.11695530069501776
5000495295 -0.12172332249189678 0.11501356488779972
5000990590 -0.11844570385782342 0.11293485956756692
5001485885 -0.11528743764287547 0.11082693424664046
5001981180 -0.11222071906453684 0.10871031370602156
5002476475 -0.1089859863645152 0.10629178269913322
5002971770 -0.10533966280912098 0.10444060987547825
5003467065 -0.10233004548047718 0.10190203746682719
5003962360 -0.09929126540296956 0.09981318053446318
5004457655 -0.09611705494554419 0.09745941977751882
5004952950 -0.09283943239011262 0.09518301957531979
5005448245 -0.09010258395420878 0.0927060317052038
5005943540 -0.08698846713492744 0.09038916818405453
5006438835 -0.08379565218561574 0.0879290601924846
5006934130 -0.08096397158346678 0.08541321832882731
5007429425 -0.07772368506381386 0.08337559668641341
5007924720 -0.07512327832610984 0.08043097038018077
5008420015 -0.07225349388624493 0.07796140446474678
5008915310 -0.06949025353318766 0.07514340626566034
5009410605 -0.06677304404346567 0.07226277299617466
5009905900 -0.06367424679429907 0.06982289568374031
5010401195 -0.061140566868217366 0.06671098109922911
5010896490 -0.058441622280760816 0.06415555116377379
5011391785 -0.055776564306334445 0.06142575195745418
5011887080 -0.05327042741210837 0.0583204564295317
5012382375 -0.050639638971341286 0.05553065318810312
5012877670 -0.04807446759782339 0.05242445359104558
5013372965 -0.045524784412823226 0.049377650218574626
5013868260 -0.04331788263822857 0.04627397421159243
5014363555 -0.040984130807613074 0.04317976612793772
5014858850 -0.0386784680579838 0.040159471921230615
5015354145 -0.03645343058987668 0.03685703265823816
5015849440 -0.03409914280238904 0.03395385687288485
5016344735 -0.032297717113243904 0.03044096527523116
5016840030 -0.03024850403399844 0.02736957037919446
5017335325 -0.027962231616440573 0.0238607958155243
5017830620 -0.026255755244117034 0.020588413174999386
5018325915 -0.024220502396163187 0.017403107626657737
5018821210 -0.022205760800524763 0.014032438789543352
5019316505 -0.020711784986288923 0.01052592488888063
5019811800 -0.018647720056929086 0.007167097671251548
5020307095 -0.017064320217621953 0.0037402492506723654
5020802390 -0.015392373168939039 0.0001671914207307916
5021297685 -0.013770471523074727 -0.003244512175258837
5021792980 -0.012075658250404032 -0.006623183033968273
5022288275 -0.0105384796563732 -0.010277173187779752
5022783570 -0.009109904989600182 -0.013730871883269987
5023278865 -0.007615858836001472 -0.01725894036261659
5023774160 -0.0063739891997293425 -0.02073673972565877
5024269455 -0.00500177371462709 -0.024284562488135538
5024764750 -0.004043056041394409 -0.027812370442246135
5025260045 -0.002835688720408239 -0.03150186530853573
5025755340 -0.0014201738920650985 -0.03481205788097883
5026250635 -0.0004565529035110223 -0.038527221271866245
5026745930 0.0005776221912942434 -0.04193368377654176
5027241225 0.0016326370501988812 -0.04560001468972156
5027736520 0.0025423714204838403 -0.0491478762736446
5028231815 0.0035130084541283154 -0.052879423687332554
5028727110 0.0045319639734531705 -0.056389720228157546
5029222405 0.005275414668415722 -0.06019432332954908
5029717700 0.006064012744709065 -0.06384072060647764
5030212995 0.006842787573604207 -0.0673438142004766
5030708290 0.007390044090387069 -0.0707853950167957
5031203585 0.007707474067022926 -0.07465355568810512
5031698880 0.008744907516397928 -0.07810772053505245
5032194175 0.00926272355412182 -0.08153455077033293
5032689470 0.009466308659236682 -0.085348847273149
5033184765 0.01020136215773068 -0.08878516484248011
5033680060 0.010642860574941886 -0.09257917341433074
5034175355 0.011040217831338706 -0.09596155740712818
5034670650 0.011417731201570285 -0.09947819498024489
5035165945 0.011896482472749133 -0.10341389320398632
5035661240 0.012052391606726144 -0.10677079150551244
5036156535 0.012003984106214423 -0.11021238290949871
5036651830 0.012368075990755307 -0.11396210601455287
5037147125 0.012437378791602035 -0.11766094047772258
5037642420 0.012455406353661888 -0.12086773977467888
5038137715 0.012493002424506764 -0.12456378693643369
5038633010 0.012485257055806486 -0.12842984026984164
5039128305 0.012565076547233682 -0.1315723296843077
5039623600 0.012261653613103064 -0.13509204513148257
5040118895 0.012569876093613474 -0.138808631583264
5040614190 0.012393200083782798 -0.14259386533185056
5041109485 0.012041228137126095 -0.14618543025694394
5041604780 0.012089535692020467 -0.149729607136626
5042100075 0.01171448807183065 -0.1530575791471883
5042595370 0.011113013925128862 -0.15674385350001485
5043090665 0.0109413992613554 -0.1602627572260405
5043585960 0.010547826507765996 -0.16370508074760437
5044081255 0.010107186083730898 -0.16750287068517586
5044576550 0.009531211255020216 -0.1707381817855333
5045071845 0.008980234643738521 -0.17425950342103055
5045567140 0.008296132234758452 -0.17793936635318555
5046062435 0.007811113848890129 -0.1814647763967514
5046557730 0.0069223145807259965 -0.18491179221554807
5047053025 0.006412541395739505 -0.1883436841400046
5047548320 0.005190582063637282 -0.19184357555289017
5048043615 0.004553377089139663 -0.1950700110510776
5048538910 0.003920340126282291 -0.19853221664303228
5049034205 0.0026510595589091905 -0.20185671511449313
5049529500 0.0019175582320282334 -0.20523205007377424
5050024795 0.0017468810669685666 -0.20849451814827166
5050520090 -0.0005637098005727717 -0.21173009041108584
5051015385 -0.0016101690401372157 -0.2151656150817871
5051510680 -0.0026130111593949167 -0.2186656139398876
5052005975 -0.0038389624831707855 -0.22176049414433932
5052501270 -0.004744401691775573 -0.2251293957233429
5052996565 -0.006252670611597989 -0.22849762047591962
5053491860 -0.007254781299515774 -0.23166144600040034
5053987155 -0.00859160338969607 -0.23501665498081006
5054482450 -0.010050383984650435 -0.23817152177032672
5054977745 -0.011604462750256062 -0.24141300195141843
5055473040 -0.013409167822254332 -0.24426378701862536
5055968335 -0.014145532622933388 -0.247479647397995
5056463630 -0.016152490028425268 -0.2504299243814067
5056958925 -0.01729188673198223 -0.25379617904361923
5057454220 -0.019021787337566678 -0.2567842932123887
5057949515 -0.020818786793633512 -0.2595888831113514
5058444810 -0.022297410686549387 -0.2626173935438457
5058940105 -0.02414143585452908 -0.26555171295216207
5059435400 -0.025811061557186276 -0.2681950911095268
5059930695 -0.027187359862421687 -0.2713683545589447
5060425990 -0.029711410403251648 -0.2745751220928995
5060921285 -0.03161782075307871 -0.2770749769712749
5061416580 -0.03323228970954293 -0.2800655223821339
5061911875 -0.03547776706124607 -0.2827015158377196
5062407170 -0.03724592375127893 -0.28513217756622716
5062902465 -0.03884868402230112 -0.2878687068035728
5063397760 -0.04118995682189339 -0.29070372644223663
5063893055 -0.04336568889649291 -0.2933307352818941
5064388350 -0.04525470027798101 -0.29603989657602814
5064883645 -0.0482826323101395 -0.2983664885947579
5065378940 -0.04873923604425631 -0.3013710834478077
5065874235 -0.05061378702521324 -0.30376350252251877
5066369530 -0.05404873172703542 -0.3060954307254992
5066864825 -0.05567582677069463 -0.3083337043461047
5067360120 -0.058451894278589045 -0.31068482838178935
5067855415 -0.05996166169643402 -0.31330790958906474
5068350710 -0.06206058455925239 -0.31559367713175324
5068846005 -0.0640130564570427 -0.3180400760550248
5069341300 -0.06735550180861824 -0.32018448804554184
5069836595 -0.06918334176665858 -0.3225077045591254
5070331890 -0.07146808387417543 -0.32489350908680964
5070827185 -0.07343817580687373 -0.3269578500797874
5071322480 -0.07665928649274927 -0.32913943497758164
5071817775 -0.078905493805283 -0.3311921844356938
5072313070 -0.08103307689491071 -0.33323860952728673
5072808365 -0.08270063290470525 -0.33575298284229477
5073303660 -0.08650960459520943 -0.33745142503788594
5073798955 -0.088245427137927 -0.33954621302454097
5074294250 -0.09084799062264592 -0.34189089505296005
5074789545 -0.09309855770123632 -0.3437615633010864
5075284840 -0.09616105415319141 -0.34574731086429794
5075780135 -0.09971753547066137 -0.3471654230042508
5076275430 -0.1007377011211295 -0.3496308091439699
5076770725 -0.10404438839146965 -0.3512942053769764
5077266020 -0.1072814393984644 -0.3534853097639586
5077761315 -0.1095145815297177 -0.3548823155854878
5078256610 -0.11234332111320998 -0.3564689112337012
5078751905 -0.11545612545389879 -0.3582826868483895
5079247200 -0.1181723628389208 -0.3598851075297908
5079742495 -0.11975083539360448 -0.3617330507228249
5080237790 -0.12432994693517685 -0.3631977156588906
5080733085 -0.12641355160035586 -0.36469547685823944
5081228380 -0.129365662210866 -0.3657448887825012
5081723675 -0.13208428966371635 -0.3672208017424533
5082218970 -0.13442041528852364 -0.3689117729663849
5082714265 -0.13825251554187976 -0.3696255291763105
5083209560 -0.14040750029839968 -0.3710799593674509
5083704855 -0.14369078764789983 -0.37259875316368907
5084200150 -0.14665359101797404 -0.37332178730713694
5084695445 -0.14964712371951655 -0.3743512018730766
5085190740 -0.15255943097566305 -0.37579058345995453
5085686035 -0.15527887407102084 -0.37673383951187134
5086181330 -0.1584126972838452 -0.3779197256816061
5086676625 -0.16099082482488533 -0.37898708174103185
5087171920 -0.1642104669621116 -0.37979185581207275
5087667215 -0.16640125920898036 -0.38076974686823395
5088162510 -0.17006698956615046 -0.3811715951091365
5088657805 -0.17317596783763484 -0.38252070703004537
5089153100 -0.1756591271413 -0.3832776405309376
5089648395 -0.1785087028616353 -0.384401693155891
5090143690 -0.18207450054193797 -0.3843354206336172
5090638985 -0.184515223691338 -0.385402439456237
5091134280 -0.18739592872167887 -0.3862100416108182
5091629575 -0.1907503416663722 -0.386415410982935
5092124870 -0.19295587116166166 -0.3874936197933398
5092620165 -0.19657371702947116 -0.3875691592693329
5093115460 -0.19952277917610972 -0.3879908433085994
5093610755 -0.20196465520482315 -0.3886669607538926
5094106050 -0.20530961610768972 -0.3890160902550346
5094601345 -0.20828524780900856 -0.3893159376947503
5095096640 -0.21117840393593437 -0.38977770742617157
5095591935 -0.21329263872221896 -0.39020174428036336
5096087230 -0.21728056277099408 -0.3898999612582357
5096582525 -0.21916075364539497 -0.3907580767807208
5097077820 -0.2237146136007811 -0.3903219527319858
5097573115 -0.22634140911855197 -0.3902618163510373
5098068410 -0.22846504261619166 -0.390958004876187
5098563705 -0.23246845681416362 -0.39073896094372396
5099059000 -0.233548881976228 -0.3915810396796779
5099554295 -0.23824940857134366 -0.39036253251527486
5100049590 -0.24149710724228307 -0.39196890592575073
5100544885 -0.24419738195444407 -0.3923844742147546
5101040180 -0.24606934032942118 -0.392589271068573
5101535475 -0.25117486323180954 -0.39106259847942154
5102030770 -0.2525988652517921 -0.39158104124822113
5102526065 -0.25513767725542974 -0.39162814303448323
5103021360 -0.2575782819798118 -0.39189190770450394
5103516655 -0.2603133665887933 -0.3921105500898863
5104011950 -0.2637920724718194 -0.3910121760870281
5104507245 -0.26879558594603287 -0.3888326146100697
5105002540 -0.268491257178156 -0.39061530953959417
5105497835 -0.2725276586256529 -0.3892831363176045
5105993130 -0.27570771386748866 -0.3887936316038433
5106488425 -0.27824261313990545 -0.3883809353175916
5106983720 -0.28123411536216736 -0.38753486463898107
5107479015 -0.2835477292537689 -0.3872539416739815
5107974310 -0.2873868205045399 -0.38604207415329783
5108469605 -0.2890774999794207 -0.38590696610902486
5108964900 -0.292179336673335 -0.3850239844698655
5109460195 -0.29451826842207657 -0.38449621671124506
5109955490 -0.2986353306393874 -0.38287803530693054
5110450785 -0.3001506391324495 -0.3823003031705555
5110946080 -0.3039586151901044 -0.38118144712950053
5111441375 -0.3058971935196927 -0.3807360859293687
5111936670 -0.3081671501460828 -0.38011323464544194
5112431965 -0.3112608884510241 -0.37879020916788203
5112927260 -0.31403756455371257 -0.37765858047886897
5113422555 -0.31561402741231415 -0.37706015298241063
5113917850 -0.31890885139766495 -0.37563205079028483
5114413145 -0.32078502836980316 -0.37506471966442306
5114908440 -0.32346475751776443 -0.3738140275603847
5115403735 -0.32678026745193883 -0.3719883498392607
5115899030 -0.32869478746464376 -0.37127027542967544
5116394325 -0.33055851020311056 -0.37024351797605815
5116889620 -0.33367456260480377 -0.36854738938181025
5117384915 -0.33536182422386973 -0.36784598701878596
5117880210 -0.3385148895414252 -0.3658138701790257
5118375505 -0.3407612615510037 -0.3642897307872772
5118870800 -0.3424649991487202 -0.3635022875509764
5119366095 -0.3454112347803618 -0.36147927453643397
5119861390 -0.34738256115662425 -0.36026556084030553
5120356685 -0.34957775159886006 -0.3590620364013471
5120851980 -0.35156613117770147 -0.35719463699742365
5121347275 -0.3540042419182627 -0.35578061248126785
5121842570 -0.35570875594490453 -0.3550981785121717
5122337865 -0.357857042237332 -0.35291774963077743
5122833160 -0.3601110577583313 -0.35144432438047307
5123328455 -0.3620665277305402 -0.35019595842612417
5123823750 -0.36488935508226095 -0.3476434914689315
5124319045 -0.3665124130876441 -0.34653543327984054
5124814340 -0.36827949003169413 -0.3445358417536083
5125309635 -0.37042196800834254 -0.34318414330482483
5125804930 -0.37233839693822357 -0.3416860182034342
5126300225 -0.3745775724712171 -0.3393859157436772
5126795520 -0.3764929002837131 -0.33802991164358037
5127290815 -0.3781413828071795 -0.33639850271375554
5127786110 -0.3802322651210584 -0.33399697510819687
5128281405 -0.3817475485174279 -0.3324698899921618
5128776700 -0.3835531018282238 -0.3308714173342052
5129271995 -0.38538412357631485 -0.3290656052137676
5129767290 -0.3870152705594113 -0.3268683772338064
5130262585 -0.38921583953656647 -0.3248420216535267
5130757880 -0.39075833715890584 -0.32302466505452204
5131253175 -0.3922575947485472 -0.32142484972351476
5131748470 -0.393332523734946 -0.3196374695552023
5132243765 -0.39521471763912003 -0.3177046462109214
5132739060 -0.39674307170667145 -0.31569542539747136
5133234355 -0.3986278662556096 -0.31340840772578593
5133729650 -0.4003401539827648 -0.31086661784272446
5134224945 -0.4016286213147013 -0.30953219219257955
5134720240 -0.40294480166937174 -0.30735478432554947
5135215535 -0.4053732752799988 -0.30417069008475855
5135710830 -0.4051862045338279 -0.3042029565886447
5136206125 -0.40717889290106923 -0.30152588925863566
5136701420 -0.4093636713529888 -0.2981751921929811
5137196715 -0.4090150641767602 -0.2976656995321575
5137692010 -0.4121298946832356 -0.2935819202347806
5138187305 -0.41253470747094406 -0.29256857539478104
5138682600 -0.4134897103435115 -0.2905587099100414
5139177895 -0.4150038408605676 -0.28810189899645355
5139673190 -0.41613353396716873 -0.28588454660616425
5140168485 -0.4170063279177013 -0.2839085710676093
5140663780 -0.41846321915325363 -0.2811306887551358
5141159075 -0.4193083659598702 -0.27876823983694377
5141654370 -0.42026295159992416 -0.2770543176876871
5142149665 -0.42102592556100144 -0.27462684951330485
5142644960 -0.4227481186389923 -0.27164978416342483
5143140255 -0.4239581462584044 -0.2685401769060838
5143635550 -0.4244038839089243 -0.2668854311892861
5144130845 -0.42439411815844086 -0.2656892318474619
5144626140 -0.42598169885183634 -0.2625134179466649
5145121435 -0.42709468069829437 -0.25920963601062175
5145616730 -0.4273985028266907 -0.2576837774954344
5146112025 -0.4279597574158719 -0.25532570638154684
5146607320 -0.4285701544661271 -0.2533334289726458
5147102615 -0.4288430684491208 -0.251180762523099
5147597910 -0.4305216952374107 -0.24719417644174477
5148093205 -0.4305422117835597 -0.2457007757927242
5148588500 -0.43075399492916305 -0.24334452811040377
5149083795 -0.4312791949824283 -0.2412370890378952
5149579090 -0.4316509867969312 -0.23901050263329557
5150074385 -0.4341179163832414 -0.2332841628476193
5150569680 -0.4328039319891679 -0.23367735978804136
5151064975 -0.4331864526397304 -0.23140204188070798
5151560270 -0.4330061595690878 -0.2299854676974447
5152055565 -0.4337152666167209 -0.22683445246596085
5152550860 -0.43447170445793554 -0.22320706514935745
5153046155 -0.43410783692410115 -0.22182253630537735
5153541450 -0.43457291157622085 -0.21891777766378304
5154036745 -0.4347400006495024 -0.2164708470043383
5154532040 -0.4348008742457942 -0.214227778346915
5155027335 -0.4348340316822654 -0.2120879943433561
5155522630 -0.43501094140504537 -0.20913737933886678
5156017925 -0.4346033099450563 -0.2071127585674587
5156513220 -0.4348985537102348 -0.20439164026787407
5157008515 -0.4349772679178338 -0.2019521288181606
5157503810 -0.43465995318011236 -0.19954639516378703
5157999105 -0.4346311280601903 -0.19685039865343193
5158494400 -0.4342997685859078 -0.19480961247494347
5158989695 -0.4338730087405757 -0.1921914533564919
5159484990 -0.43373918690179525 -0.1896982545915403
5159980285 -0.4333757193464982 -0.1879054229510458
5160475580 -0.43299285989058645 -0.18527979207666298
5160970875 -0.4327616754331087 -0.18247873532144646
5161466170 -0.4323158279845589 -0.18025453388690948
5161961465 -0.4319257234272204 -0.17749268914523877
5162456760 -0.4318454579303139 -0.17492723778674477
5162952055 -0.4311491768611105 -0.17294107612810636
5163447350 -0.4306003796426873 -0.1706656288159521
5163942645 -0.4300400912761688 -0.1682373865654594
5164437940 -0.4291400611400604 -0.16622965116249888
5164933235 -0.4289203443025288 -0.16313185189899645
5165428530 -0.42797091760133443 -0.16105018791399503
5165923825 -0.42730017555387395 -0.15926367593439003
5166419120 -0.42661063922078984 -0.1565839138470198
5166914415 -0.4261372905028494 -0.15425398239963933
5167409710 -0.42513228403894526 -0.15175563332281614
5167905005 -0.42444222067531784 -0.14929120164168508
5168400300 -0.42333840696435227 -0.14771249733473124
5168895595 -0.422532352961992 -0.1454535573720932
5169390890 -0.42186505386703893 -0.14302170747204832
5169886185 -0.42081679482209056 -0.1407808669303593
5170381480 -0.4201488604671077 -0.13742202677224813
5170876775 -0.41891474629703324 -0.13621347201497933
5171372070 -0.41772798174305964 -0.13361444677177228
5171867365 -0.4167592494111312 -0.13146218735920756
5172362660 -0.4154625064448306 -0.12959618160599157
5172857955 -0.414654741161748 -0.12653391651417079
5173353250 -0.41353991313984517 -0.12398232872548856
5173848545 -0.41202602731554133 -0.12286145671417839
5174343840 -0.41078604522504303 -0.12073773459384315
5174839135 -0.4094387339918237 -0.11878530445851777
5175334430 -0.4080092059938531 -0.11666405710734819
5175829725 -0.40695205644557353 -0.11344938450738003
5176325020 -0.40595540874882746 -0.11090965529805735
5176820315 -0.4039526315111863 -0.11025374853297283
5177315610 -0.4025708734989166 -0.10840717624676854
5177810905 -0.4010290519187325 -0.10564542875478142
5178306200 -0.3994965427800229 -0.1041434466054565
5178801495 -0.3981524470605348 -0.10129812006887637
5179296790 -0.3963776622947894 -0.09832724026943508
5179792085 -0.3943408413937217 -0.09918899167525141
5180287380 -0.3928565931947608 -0.0959649646752759
5180782675 -0.39171413057728816 -0.09274907645426299
5181277970 -0.3892968438173595 -0.09295164127098887
5181773265 -0.38783919340685796 -0.08930138576971858
5182268560 -0.3857561553779401 -0.08911646392784621
5182763855 -0.3839027740453419 -0.08754893549178776
5183259150 -0.38217463932539286 -0.08450210447374143
5183754445 -0.38060128218249273 -0.0828694736486987
5184249740 -0.37821544785248606 -0.08221839446770518
5184745035 -0.37669879668637324 -0.07945783201016877
5185240330 -0.3746775969078666 -0.07852720979012941
5185735625 -0.37252265371774373 -0.0763154057295699
5186230920 -0.3707093298435211 -0.07481984323576878
5186726215 -0.3684850413548319 -0.0737288711886657
5187221510 -0.36653505657848556 -0.07190984016970585
5187716805 -0.3641158954093331 -0.07078521149723153
5188212100 -0.3621823379867955 -0.06897156685590744
5188707395 -0.3603454263586747 -0.06793590242925443
