# HZ S RI R 50
5000000000 0.4490473003763902 0.34704435028527914
5000495295 0.4538379091965525 0.3387289157039241
5000990590 0.46095220979891327 0.3267253998078798
5001485885 0.4666427922876258 0.31631831903206675
5001981180 0.4726047641352603 0.3061108542116065
5002476475 0.47817539070781906 0.29564038703316137
5002971770 0.4839153760357907 0.28450802595991836
5003467065 0.4888307938450261 0.2740163724673422
5003962360 0.4934625107991068 0.26348817505334554
5004457655 0.4984327350792132 0.25284997569887263
5004952950 0.5029622661439996 0.24111727821199516
5005448245 0.5075378041518362 0.23061518214250865
5005943540 0.512440091685245 0.21920126833413778
5006438835 0.5169784395318282 0.20832049611367678
5006934130 0.5207478968720687 0.19686060673312136
5007429425 0.5241954765821758 0.1853279698836176
5007924720 0.5283561003835577 0.17406767685162394
5008420015 0.5314733103701943 0.1637718999072125
5008915310 0.5344551205635071 0.15202536551575913
5009410605 0.5377847489557768 0.14147724838633285
5009905900 0.5412108396228991 0.12957964994405446
5010401195 0.5439492746403343 0.11823289370850514
5010896490 0.5467795321815893 0.10710815575562026
5011391785 0.5490073687151859 0.09567942705593611
5011887080 0.5512244356305975 0.0840619978936095
5012382375 0.5532141704308359 0.07292957015727695
5012877670 0.5550974670209383 0.0615330218876663
5013372965 0.5571457147598267 0.050211188040281594
5013868260 0.5588534976306715 0.03858203695792901
5014363555 0.5602647662162781 0.0279031453752204
5014858850 0.5615310700316178 0.016283658676241573
5015354145 0.5626285389850014 0.005494167243963794
5015849440 0.5633103627907602 -0.005929611868372089
5016344735 0.5641431337908694 -0.016901622771432524
5016840030 0.5647021437946119 -0.02900737396588451
5017335325 0.5655552901719746 -0.04015612543413514
5017830620 0.5656747378801045 -0.05135893900143473
5018325915 0.5661461133705942 -0.06223400878278833
5018821210 0.5658337850319711 -0.07372679130027168
5019316505 0.5656150799048575 -0.0848571422852968
5019811800 0.5652891397476196 -0.09630369669512699
5020307095 0.5646693518287257 -0.10707604806674154
5020802390 0.5645945323140997 -0.11753142899588535
5021297685 0.5637919181271603 -0.1287126799947337
5021792980 0.5631533798418547 -0.13934714229483353
5022288275 0.5616841316223145 -0.15204331827791115
5022783570 0.5604700069678458 -0.1619889132286373
5023278865 0.5588056790201288 -0.1729701882914493
5023774160 0.5579702854156494 -0.1821023868887048
5024269455 0.5558487051411679 -0.19375863671302795
5024764750 0.5541467980334633 -0.20548872806523977
5025260045 0.5527096296611586 -0.21426292155918322
5025755340 0.5501913271452251 -0.22691626062518672
5026250635 0.5480865491063971 -0.2365683293656299
5026745930 0.5459457667250383 -0.2465354682583558
5027241225 0.5439176684931705 -0.25680547482088995
5027736520 0.5407069984235262 -0.267750598882374
5028231815 0.5380356688248483 -0.27781172175156443
5028727110 0.5356113816562452 -0.28788331151008606
5029222405 0.5325296270219904 -0.297670022437447
5029717700 0.5292568865575289 -0.3080212332700428
5030212995 0.5262126765753093 -0.3181473095166056
5030708290 0.52276033790488 -0.32781588874365153
5031203585 0.5201664943444101 -0.3366772203068984
5031698880 0.5162669482984041 -0.34717130347302083
5032194175 0.5114902257919312 -0.35765982772174637
5032689470 0.5086177242429633 -0.3668265530937596
5033184765 0.5043022287519354 -0.3772989040926883
5033680060 0.49985908363994797 -0.3866828695723885
5034175355 0.49608139615309865 -0.39585493897136886
5034670650 0.49202535340660497 -0.4049458927229831
5035165945 0.48727986059690775 -0.41367067788776596
5035661240 0.48384599466072886 -0.42339430984697846
5036156535 0.478159542146482 -0.43285644838684484
5036651830 0.4738645177138479 -0.4410292317992763
5037147125 0.46968135237693787 -0.4501337816840724
5037642420 0.46545357139487015 -0.459527020391665
5038137715 0.4599596826653731 -0.4675587274526295
5038633010 0.45458224572633443 -0.4763482024795131
5039128305 0.4493675624069415 -0.48513602426177577
5039623600 0.4440852984001762 -0.49367455118580866
5040118895 0.4385978877544403 -0.5031258024667439
5040614190 0.43329036392663656 -0.5100913236015722
5041109485 0.42841878219654683 -0.5188873535708377
5041604780 0.42228300320474726 -0.5265721615992094
5042100075 0.41709350912194504 -0.5344193264057762
5042595370 0.4114896764880733 -0.5425073473077071
5043090665 0.4053777581767032 -0.5513174690698323
5043585960 0.39883142709732056 -0.5587265052293476
5044081255 0.39346557228188767 -0.5663304140693263
5044576550 0.38719066036374944 -0.5740388537708082
5045071845 0.38139844725006505 -0.5811236939932171
5045567140 0.375008540718179 -0.5888181015064842
5046062435 0.3688887436138956 -0.5961470196121618
5046557730 0.3622440648706336 -0.603436501402604
5047053025 0.35616866538399145 -0.6109993206827264
5047548320 0.3480628697495711 -0.6180181064103779
5048043615 0.3428276196906441 -0.6244583255366275
5048538910 0.33579433748596593 -0.6318364613934567
5049034205 0.3293135730843795 -0.6382303394769367
5049529500 0.323035318600504 -0.6448675425429093
5050024795 0.3200490223734002 -0.6497945189476013
5050520090 0.3090046973604905 -0.6575430380670648
5051015385 0.3023581991070195 -0.6646636065683866
5051510680 0.2954499470560174 -0.670352998532747
5052005975 0.28848756614484283 -0.6765596364673815
5052501270 0.2805353779541819 -0.683407093349256
5052996565 0.27383764637143987 -0.6893588680970041
5053491860 0.2662651930984698 -0.6948162317276001
5053987155 0.2595841163083127 -0.7009154307214838
5054482450 0.25202471645254837 -0.7070131082283823
5054977745 0.24485249268381218 -0.7113788723945618
5055473040 0.2374490326956699 -0.7184109938772101
5055968335 0.22976050957253105 -0.7233858296745702
5056463630 0.22210879467035594 -0.7285981178283691
5056958925 0.21566872377144664 -0.7340090651261179
5057454220 0.20749157902441526 -0.7395911059881511
5057949515 0.19869851281768397 -0.7440818140381261
5058444810 0.19190670706723867 -0.7496929921601948
5058940105 0.18365392324171567 -0.7540655010624936
5059435400 0.17542481579278646 -0.7592366933822632
5059930695 0.16754143018471568 -0.7641265956979049
5060425990 0.16066185581056694 -0.7678231910655373
5060921285 0.15261326024406835 -0.7730139242975336
5061416580 0.1446412825270703 -0.7772681085686934
5061911875 0.13579776098853663 -0.7818854576662967
5062407170 0.1292032622977307 -0.7856356595691881
5062902465 0.11896822287848122 -0.7904347683254042
5063397760 0.11310779381739466 -0.794129563005347
5063893055 0.10425800634057898 -0.7984132453014976
5064388350 0.09498522587512669 -0.8015336802131251
5064883645 0.08787488898164347 -0.805631907362687
5065378940 0.0797733829209679 -0.8095792877046686
5065874235 0.0712903538032582 -0.8130317675439935
5066369530 0.06193918970070387 -0.8162696863475599
5066864825 0.05552185875804801 -0.8193666589887518
5067360120 0.042570294518219795 -0.8229983135273582
5067855415 0.03870082117224995 -0.8257017857150027
5068350710 0.02823458621768575 -0.8290823133368241
5068846005 0.02271216784260775 -0.8322104184251082
5069341300 0.012578243242674753 -0.8351136351886549
5069836595 0.001974200339693772 -0.8375049076582256
5070331890 -0.004215379784765996 -0.8403952090363753
5070827185 -0.012028221531133903 -0.8429834748569288
5071322480 -0.023466015920827265 -0.8454892007928145
5071817775 -0.030319737858678166 -0.8478052333781594
5072313070 -0.03931957130369387 -0.8497411075391268
5072808365 -0.04709595696706521 -0.8523820324947959
5073303660 -0.057070155284906686 -0.854162733805807
5073798955 -0.06352411837954271 -0.85666571165386
5074294250 -0.07466481743674529 -0.858015377270548
5074789545 -0.08201796090916584 -0.860198908730557
5075284840 -0.09229174805314917 -0.8612626320437381
5075780135 -0.09964493897400405 -0.8630394684640985
5076275430 -0.10985837484660901 -0.8645348266551369
5076770725 -0.11767073485412095 -0.86568536256489
5077266020 -0.127488374710083 -0.8666639359373796
5077761315 -0.13533628300616615 -0.8684182574874476
5078256610 -0.14238696819857546 -0.8694408159506949
5078751905 -0.152773233620744 -0.8717626270494963
5079247200 -0.16107204870173805 -0.8713345904099313
5079742495 -0.16835151848040128 -0.872395004096784
5080237790 -0.1782504727965907 -0.8725230787929735
5080733085 -0.18649457865639738 -0.8735393505347403
5081228380 -0.19615946396401054 -0.8737459151368392
5081723675 -0.20501199992079483 -0.8739585625497919
5082218970 -0.21409106960422114 -0.8748237741620917
5082714265 -0.2219011211081555 -0.8747746850314894
5083209560 -0.23112655548672928 -0.8755075460986087
5083704855 -0.23962083929463437 -0.8750307309000116
5084200150 -0.24769845604896545 -0.874443885527159
5084695445 -0.2572997824141854 -0.8737617354643973
5085190740 -0.2657580234502491 -0.8741062158032468
5085686035 -0.2751967483445218 -0.8734618111660606
5086181330 -0.28395188168475505 -0.8730836196949607
5086676625 -0.29206298683819015 -0.8727325514743203
5087171920 -0.3003083342000058 -0.872233299832595
5087667215 -0.31092383987025213 -0.8713276449002718
5088162510 -0.3178275964762035 -0.8702132450906854
5088657805 -0.3269283598975131 -0.8691474544374567
5089153100 -0.3360013601027037 -0.8678043484687805
5089648395 -0.3452684926359277 -0.8666261214958993
5090143690 -0.3527858743542119 -0.8654150272670545
5090638985 -0.36208394326661764 -0.8644286300006666
5091134280 -0.37126732813684565 -0.8617332577705383
5091629575 -0.38009210009323924 -0.8598806356128893
5092124870 -0.3868788151364577 -0.8590563096498188
5092620165 -0.39635359456664637 -0.8571750207951194
5093115460 -0.4052168538695888 -0.8546662142402247
5093610755 -0.41387652723412766 -0.8530163043423703
5094106050 -0.42147509518422577 -0.8504168014777335
5094601345 -0.4308855361060092 -0.8479702002123782
5095096640 -0.43853512092640523 -0.8457153878713909
5095591935 -0.4469844683220512 -0.8434475095648515
5096087230 -0.4549018913193753 -0.8408427458060416
5096582525 -0.46417856373284994 -0.8380153586989955
5097077820 -0.4713589000074487 -0.8349770809474745
5097573115 -0.4806555180173171 -0.8311059349461606
5098068410 -0.4873652113111396 -0.8293628723997819
5098563705 -0.4966611752384587 -0.8250804323899118
5099059000 -0.5037322703160738 -0.8233079000523216
5099554295 -0.5144345509378534 -0.8184102742295516
5100049590 -0.5191109494159096 -0.8168121199858817
5100544885 -0.5283028922582927 -0.8124051407763833
5101040180 -0.5361924579269007 -0.8089878559112549
5101535475 -0.545115517942529 -0.8045559713715001
5102030770 -0.5522144907399228 -0.8015933130916796
5102526065 -0.5607338516335738 -0.796762648381685
5103021360 -0.5662588790843361 -0.7941123121663144
5103516655 -0.5776737646052712 -0.7871494230471159
5104011950 -0.5825336606878984 -0.7854067651849044
5104507245 -0.5908816864615992 -0.7802899950429013
5105002540 -0.5958774748601412 -0.7774646564533836
5105497835 -0.6052079608565882 -0.7722358327162894
5105993130 -0.6136165355381212 -0.7666226625442505
5106488425 -0.6186348011619166 -0.7641108381120783
5106983720 -0.6266883360712152 -0.7588145325058385
5107479015 -0.6337494630562631 -0.754308753891995
5107974310 -0.6409849242160195 -0.7494489989782634
5108469605 -0.6475857402149 -0.7444515667463604
5108964900 -0.654563423834349 -0.7398512394804704
5109460195 -0.662271565512607 -0.7340485265380458
5109955490 -0.6681637669864454 -0.7298898477303354
5110450785 -0.6752316041996604 -0.7240726006658453
5110946080 -0.6824663187328138 -0.7187701400957609
5111441375 -0.6874513124164782 -0.7137995456394396
5111936670 -0.695238869441183 -0.7088569151727777
5112431965 -0.7019837090843603 -0.702489413713154
5112927260 -0.7090460563960829 -0.6966750684537386
5113422555 -0.7156273126602173 -0.6916421494985882
5113917850 -0.7215370535850525 -0.6857648742826361
5114413145 -0.7281448809724105 -0.6800413382680792
5114908440 -0.7340814941807797 -0.6741873716053209
5115403735 -0.7399617778627496 -0.6679585795653494
5115899030 -0.7458955582819486 -0.6625027593813444
5116394325 -0.7526421107743916 -0.6566191064684015
5116889620 -0.7579739972164756 -0.651156955643704
5117384915 -0.7646402559782329 -0.6436145305633545
5117880210 -0.7703139374130651 -0.6382742367292705
5118375505 -0.775830112005535 -0.632674731706318
5118870800 -0.7816952247368661 -0.6258632854411477
5119366095 -0.7870126366615295 -0.6199909197656732
5119861390 -0.7935601723821539 -0.6122137496345922
5120356685 -0.7989703165857416 -0.6059557230849015
5120851980 -0.8027667528704593 -0.6004252904339841
5121347275 -0.8097493930866844 -0.592950375456559
5121842570 -0.8147269456010116 -0.5857918576190346
5122337865 -0.8202441868029142 -0.5794031337687844
5122833160 -0.8249012984727558 -0.5731118541014822
5123328455 -0.8305182582453677 -0.56505538915333
5123823750 -0.8357254454964086 -0.5578385591506958
5124319045 -0.8406016450179251 -0.5511867027533682
5124814340 -0.844842465300309 -0.5450309264032465
5125309635 -0.8506438763518083 -0.5363319767148871
5125804930 -0.8552750600011725 -0.5298386341647098
5126300225 -0.8603891698937667 -0.521443994421708
5126795520 -0.864312397806268 -0.5144039078762657
5127290815 -0.8690637820645383 -0.5066110774090415
5127786110 -0.8728483319282532 -0.4998783045693448
5128281405 -0.877427339553833 -0.4925357636652495
5128776700 -0.882004091614171 -0.48404845281651143
5129271995 -0.885599042239942 -0.4770518635448657
5129767290 -0.8898385574943141 -0.4697820230534202
5130262585 -0.8940566119394804 -0.46060886508540105
5130757880 -0.8978663996646279 -0.45276170498446416
5131253175 -0.9019077733943337 -0.4442558649339174
5131748470 -0.9054851500611556 -0.4368371508623424
5132243765 -0.910233801917026 -0.42644857262310226
5132739060 -0.9126513161157307 -0.42082909220143366
5133234355 -0.9168221229001096 -0.41149523226838364
5133729650 -0.9197595276330647 -0.40408309666733994
5134224945 -0.9228501759077373 -0.39495954701775
5134720240 -0.9258333538707934 -0.3867417213163878
5135215535 -0.9295374374640616 -0.37746049071613114
5135710830 -0.9319615928750289 -0.3686850368976593
5136206125 -0.9352620212655318 -0.3605619559162541
5136701420 -0.9379562108140242 -0.3527054441602607
5137196715 -0.9409913012855932 -0.34217965602874756
5137692010 -0.9426408064992804 -0.33586026492871734
5138187305 -0.9451914649260672 -0.32612924513063934
5138682600 -0.947779191167731 -0.31687075997653763
5139177895 -0.9498430992427626 -0.30888814047763224
5139673190 -0.951162968811236 -0.3023270462688647
5140168485 -0.9548942603563008 -0.2879020587394112
5140663780 -0.9552313999125832 -0.28290826866501256
5141159075 -0.9583949791757684 -0.2699295799983175
5141654370 -0.9590316571687397 -0.2633178688977894
5142149665 -0.9605879313067386 -0.2555146468313117
5142644960 -0.9623366061009859 -0.24363437687095843
5143140255 -0.9637649153408251 -0.23606292040724502
5143635550 -0.965494221762607 -0.22330266786249062
5144130845 -0.9656523560222826 -0.21908858889027646
5144626140 -0.9666281687585931 -0.20834402740001678
5145121435 -0.9677623384877255 -0.19691986394555946
5145616730 -0.9680490681999608 -0.18991149020822426
5146112025 -0.9689465886668155 -0.17920345695395218
5146607320 -0.9695397929141396 -0.16943475760911642
5147102615 -0.9697106417856718 -0.16174745716546712
5147597910 -0.9696509775362516 -0.1518000215291977
5148093205 -0.9701224659618578 -0.14121611416339874
5148588500 -0.969996618597131 -0.1321304385599337
5149083795 -0.9701190214408072 -0.1205448072991873
5149579090 -0.9696005300471657 -0.11297581305629328
5150074385 -0.9694127973757292 -0.09877466018262662
5150569680 -0.9686825244050277 -0.0922075972745293
5151064975 -0.9678904382806075 -0.08281249356897254
5151560270 -0.9669720216801292 -0.07411053933595356
5152055565 -0.9660668498591373 -0.0638671305618788
5152550860 -0.9649044714475933 -0.054316964784735126
5153046155 -0.9637028512201811 -0.04502851829717034
5153541450 -0.9621729882139909 -0.035020816875131505
5154036745 -0.9606688900997764 -0.025046983047535543
5154532040 -0.9589921455634268 -0.01512705309218482
5155027335 -0.957188418037013 -0.005518154535246522
5155522630 -0.9552851570279974 0.004247800741148622
5156017925 -0.9531344834126925 0.014313142403568091
5156513220 -0.9510247864221272 0.023726641249499823
5157008515 -0.9486391889421564 0.03393869317675892
5157503810 -0.9460515568130895 0.043917230673526465
5157999105 -0.943203800602963 0.05330339858406469
5158494400 -0.9407914814196134 0.06252769870977652
5158989695 -0.9375150987976476 0.07302776528032202
5159484990 -0.9344233180347242 0.08179453054541036
5159980285 -0.9311955163353368 0.09166212027010165
5160475580 -0.9275415633854113 0.10210171537963968
5160970875 -0.9241273277684262 0.11097683757543564
5161466170 -0.9202017784118652 0.12105863580578252
5161961465 -0.9161711586149115 0.13047097937056892
5162456760 -0.9123503471675672 0.1395339259975835
5162952055 -0.9081108444615414 0.14939082139416746
5163447350 -0.9036117823500383 0.15899378061294556
5163942645 -0.8988542274424904 0.16892541866553457
5164437940 -0.8947860065259432 0.17742703384474703
5164933235 -0.8901698903033608 0.18480344822532252
5165428530 -0.8845034335788927 0.19732741384129776
5165923825 -0.8794240386862504 0.2061710985083329
5166419120 -0.874277042715173 0.21422479184050308
5166914415 -0.868896340069018 0.22359782457351685
5167409710 -0.8633597838251215 0.23264147968668686
5167905005 -0.8581708983371132 0.23949137486909566
5168400300 -0.8514587659584848 0.25140126049518585
5168895595 -0.8458144947102195 0.2597521684671703
5169390890 -0.8402397601228011 0.2664102331588143
5169886185 -0.8340560166459334 0.2745878837610546
5170381480 -0.8271210946534809 0.2855388726058759
5170876775 -0.8196643339960199 0.2951344173205526
5171372070 -0.8137045283066598 0.3011398785992673
5171867365 -0.8075624767102694 0.30841283578621714
5172362660 -0.7997602663542095 0.31795019695633336
5172857955 -0.7928265929222107 0.3268017910028759
5173353250 -0.786096127409684 0.3327592862279792
5173848545 -0.7761364045896029 0.346729565607874
5174343840 -0.7722520702763608 0.3480405525157326
5174839135 -0.7631182325513739 0.35729595548228216
5175334430 -0.7562856329114813 0.36367426420512955
5175829725 -0.7471446834112468 0.3731496741897182
5176325020 -0.7394205143577174 0.38019623881892156
5176820315 -0.7294417933413857 0.390672095512089
5177315610 -0.7235506114206816 0.3942955167669999
5177810905 -0.7144455846987272 0.40168016521554245
5178306200 -0.7052913088547555 0.4103372489151202
5178801495 -0.6974941837160211 0.41554759050670426
5179296790 -0.6874538126744723 0.42382419893616124
5179792085 -0.6801591044978091 0.42747267139585393
5180287380 -0.6702413370734767 0.436125763152775
5180782675 -0.6611958208837008 0.4424492230540828
5181277970 -0.651550973716535 0.44906254818564967
5181773265 -0.6421463709128531 0.4549499781508195
5182268560 -0.6330207272579795 0.46027201570962606
5182763855 -0.6235548163715162 0.46667402669003133
5183259150 -0.6137723075716119 0.4719972328135842
5183754445 -0.6041232127892343 0.4775086092321496
5184249740 -0.5934365611327322 0.48351819421115677
5184745035 -0.5838286876678467 0.488210213811774
5185240330 -0.5733590094666732 0.4935094322028913
5185735625 -0.5629348221578097 0.49884174372020523
5186230920 -0.5532296111709193 0.5027399282706412
5186726215 -0.5422993616053933 0.5084109149481121
5187221510 -0.5324143014456096 0.5117161681777552
5187716805 -0.5207830228303608 0.5173459743198595
5188212100 -0.5107482107062089 0.5210530036374142
5188707395 -0.5012486937798952 0.5238706563648424
5189202690 -0.4896937593033439 0.5279415563533181
5189697985 -0.4788847298998582 0.5317600055744773
5190193280 -0.4675135910511017 0.5350622346526698
5190688575 -0.4571041433434737 0.5392936875945643
5191183870 -0.44565887827622264 0.5420390712587457
5191679165 -0.43452428202880056 0.5449422441030803
5192174460 -0.4229963327708997 0.5479863662468759
5192669755 -0.4122653587868339 0.5503448498876471
5193165050 -0.40010262476770503 0.5528074879395334
5193660345 -0.38867974281311035 0.5537605881690979
5194155640 -0.37782190504826996 0.5570080594012612
