# HZ S RI R 50
5000000000 0.5002004394405767 -0.24122852087020874
5000495295 0.4983072280883789 -0.24908987001368874
5000990590 0.4959251582622528 -0.2581891762582879
5001485885 0.4932604620331212 -0.2674559480265567
5001981180 0.49046018249110174 -0.2755947599285527
5002476475 0.4880785251918592 -0.2837257008803518
5002971770 0.4852708483997144 -0.2925473718266738
5003467065 0.48192138264053747 -0.3017791540999162
5003962360 0.4796480097268757 -0.3096018402199996
5004457655 0.476363690275895 -0.3183020321946395
5004952950 0.47291851984827143 -0.3268086408313952
5005448245 0.46982194091144364 -0.3349721965036894
5005943540 0.4662763021494213 -0.3429761168203856
5006438835 0.4629125344125848 -0.3515341172092839
5006934130 0.4594278900246871 -0.3595170064976341
5007429425 0.45609223372057867 -0.36750877217242595
5007924720 0.4521129507767527 -0.37565396961412933
5008420015 0.4485149461972086 -0.3829555087967923
5008915310 0.44412637227459956 -0.3912497021650013
5009410605 0.4405515868412821 -0.3991101415533769
5009905900 0.4367367076246362 -0.40695420221278544
5010401195 0.4323472929628272 -0.4148081494005103
5010896490 0.4281311741000728 -0.4223248503710094
5011391785 0.4244497873281178 -0.42984167525642797
5011887080 0.41975839357627065 -0.43766368219726964
5012382375 0.41530464981731613 -0.4451375901699066
5012877670 0.41224505085694163 -0.4518773806722541
5013372965 0.4062612825318387 -0.45917120732759176
5013868260 0.402340829372406 -0.46663476134601395
5014363555 0.39776166959812764 -0.47375016463430303
5014858850 0.3930576396615882 -0.4803341031074524
5015354145 0.3876212019669382 -0.48798377733481557
5015849440 0.3818050575883765 -0.49469481487023204
5016344735 0.37771704322413396 -0.5011359343403264
5016840030 0.37262447413645294 -0.5088437481930381
5017335325 0.3678054213523865 -0.5150342238576788
5017830620 0.36264099572834213 -0.5216606071120814
5018325915 0.3579767644405365 -0.528479350240607
5018821210 0.3527452804540333 -0.5356163539384541
5019316505 0.34736352060970505 -0.5414629076656542
5019811800 0.34184976941660833 -0.5479937572228281
5020307095 0.3360804617404938 -0.5538865735656336
5020802390 0.3317263126373291 -0.5599610648657146
5021297685 0.32523539348652486 -0.566215455532074
5021792980 0.32016856576267044 -0.5721307145921808
5022288275 0.3140145932373248 -0.5784304989011664
5022783570 0.3080229916070637 -0.5848314291552493
5023278865 0.30228559594405324 -0.5904728676143446
5023774160 0.2968484163284302 -0.5958525538444519
5024269455 0.2901945365102668 -0.6021696172262493
5024764750 0.2850975519732425 -0.6075076962772169
5025260045 0.2797990911885312 -0.6125952726916263
5025755340 0.27155753342728867 -0.6189443249451486
5026250635 0.26726596449550827 -0.6235579064017848
5026745930 0.2607256770133972 -0.629230398880808
5027241225 0.25488894079860885 -0.6346606298496849
5027736520 0.24842603818366402 -0.6396323160121316
5028231815 0.2411728101341348 -0.6449722647666931
5028727110 0.2352834806630486 -0.650326923320168
5029222405 0.22985081374645233 -0.6547182767014754
5029717700 0.22457122567452883 -0.6589312647518358
5030212995 0.2162513968191649 -0.6643944163071481
5030708290 0.20992706402351982 -0.6691454335262901
5031203585 0.20412934767572502 -0.6738756581356651
5031698880 0.19700828429899717 -0.6786141113231057
5032194175 0.19077398118219877 -0.6825557131516305
5032689470 0.18469316865268506 -0.6868981656275297
5033184765 0.17688219955092982 -0.6918849819584897
5033680060 0.170804320981628 -0.6958036610954687
5034175355 0.16420721850897135 -0.6999033658128035
5034670650 0.15842159406134956 -0.703872401463358
5035165945 0.15022876545002586 -0.7075593408785368
5035661240 0.1445567819632982 -0.7117462942474767
5036156535 0.1370596971951033 -0.7160253775747198
5036651830 0.1297760496014043 -0.7192098623827884
5037147125 0.12244155689289696 -0.7233215601820695
5037642420 0.11743300015989103 -0.7269344988622164
5038137715 0.10977115364451158 -0.7302596600432145
5038633010 0.10206672078684757 -0.7338662555343226
5039128305 0.09520873780313291 -0.7370888590812683
5039623600 0.08919664080205716 -0.7406058374204134
5040118895 0.08206773000328164 -0.7441642127538982
5040614190 0.07443280557268545 -0.7469818560700667
5041109485 0.06709406799391697 -0.749946305626317
5041604780 0.05977788724397358 -0.7531302194846304
5042100075 0.053525946054019426 -0.7554937663831209
5042595370 0.04595497368197692 -0.7586702547575298
5043090665 0.03929660743788669 -0.7607698377810026
5043585960 0.03132381133343044 -0.7645013551963004
5044081255 0.02447354646497651 -0.7669817993515416
5044576550 0.017566349847536338 -0.7686005266089189
5045071845 0.009720613199629281 -0.7720800795053181
5045567140 0.0031669287893332934 -0.7738906490175348
5046062435 -0.0050048503632608215 -0.7770475996168036
5046557730 -0.011094800098554083 -0.7789106212164226
5047053025 -0.018185931895124286 -0.7811397000362998
5047548320 -0.026250967069676046 -0.7834413867247733
5048043615 -0.03342951010716589 -0.7855473160743713
5048538910 -0.040386093878432325 -0.7866484522819519
5049034205 -0.04868437643898161 -0.7882478676344219
5049529500 -0.054264124875005926 -0.7901436435548883
5050024795 -0.05737477266474774 -0.7919453037412543
5050520090 -0.06891697802041706 -0.7932914746435065
5051015385 -0.07594197517947147 -0.7947265537161576
5051510680 -0.08426883503010399 -0.7963893539027164
5052005975 -0.09156503097007149 -0.7982093127150285
5052501270 -0.09914494854839224 -0.7990234588321886
5052996565 -0.1061322606707874 -0.8001762848151358
5053491860 -0.11386587235488389 -0.801256073148627
5053987155 -0.12134344130754471 -0.802228751935457
5054482450 -0.12895871306720533 -0.8031178336394461
5054977745 -0.1360570302135066 -0.8042052513674686
5055473040 -0.14341192496450325 -0.8049722251139189
5055968335 -0.15053629718328776 -0.8057981007977536
5056463630 -0.1585235917254498 -0.8064030408859253
5056958925 -0.1652852453683552 -0.8073067602358366
5057454220 -0.17317911355119003 -0.8075051244936491
5057949515 -0.1804801758966948 -0.8080675852926154
5058444810 -0.18797470707642405 -0.8083682499433819
5058940105 -0.19498231928599508 -0.8090568561302988
5059435400 -0.2030866491167169 -0.8093032868284928
5059930695 -0.21002581245020815 -0.8092724022112394
5060425990 -0.21777290733237015 -0.8090040652375472
5060921285 -0.22517882601210945 -0.8089186109994587
5061416580 -0.23318675238835185 -0.8087001317425778
5061911875 -0.23963186693818947 -0.808593684121182
5062407170 -0.24744132474849098 -0.8090137368754337
5062902465 -0.25637542887737874 -0.8078498526623374
5063397760 -0.2623205969208165 -0.8081579051519695
5063893055 -0.27028503229743556 -0.8065349898840252
5064388350 -0.2781337029055545 -0.8059511216063249
5064883645 -0.28364436563692597 -0.8058029664190192
5065378940 -0.290116548538208 -0.8056757638328954
5065874235 -0.2991052348362772 -0.8037677909198561
5066369530 -0.30588840340313156 -0.803120355857046
5066864825 -0.3128620386123657 -0.8015821607489335
5067360120 -0.32242216718824285 -0.7998474052077845
5067855415 -0.32563817187359456 -0.8004295857329118
5068350710 -0.3359633903754385 -0.7975505621809709
5068846005 -0.3419087795834792 -0.7969969573773836
5069341300 -0.34855636170035914 -0.7955014925254019
5069836595 -0.35646657253566544 -0.7941276556567142
5070331890 -0.3647144279981914 -0.7918390663046586
5070827185 -0.3704812620815478 -0.7907210682567797
5071322480 -0.3793749401443883 -0.7880583562349018
5071817775 -0.3859642775435197 -0.7866982943133304
5072313070 -0.39307128128252533 -0.7842955557923568
5072808365 -0.39844209426327754 -0.7833354473114014
5073303660 -0.4069753995067195 -0.780360221862793
5073798955 -0.4128052262883437 -0.7790192679355019
5074294250 -0.4217389916118823 -0.7757856312550997
5074789545 -0.4267870815176713 -0.774320806327619
5075284840 -0.43174900506672104 -0.7731820501779255
5075780135 -0.4420772351716694 -0.7688036906091791
5076275430 -0.44808068400935125 -0.7670187259975233
5076770725 -0.45476552059775904 -0.7640445608841745
5077266020 -0.4602446367866115 -0.762329659963909
5077761315 -0.4678377760084052 -0.7590617851207131
5078256610 -0.47402076031032364 -0.7564636813966852
5078751905 -0.4810548612945958 -0.7533690019657737
5079247200 -0.4873141003282447 -0.7503652133439717
5079742495 -0.49392786778901754 -0.7478980578874287
5080237790 -0.5003932039988669 -0.7442811351073416
5080733085 -0.5068028914301019 -0.7417348748759219
5081228380 -0.5137443354255274 -0.7377860295145136
5081723675 -0.5195781055249666 -0.7350090397031683
5082218970 -0.5260793158882543 -0.7315209947134319
5082714265 -0.5321530699729919 -0.7284872437778273
5083209560 -0.5390568093249672 -0.7253781525712264
5083704855 -0.5446374384980452 -0.720820310868715
5084200150 -0.5493495778033608 -0.7181979637396964
5084695445 -0.5568440870234841 -0.714178132383447
5085190740 -0.5627083997977408 -0.7108704039925023
5085686035 -0.5692330912539834 -0.706397251078957
5086181330 -0.5753951543255856 -0.7028700646601225
5086676625 -0.581331193447113 -0.6991536554537321
5087171920 -0.5870804472973472 -0.6950551961597643
5087667215 -0.5932234055117557 -0.6916771625217638
5088162510 -0.5985155701637268 -0.6865156543882269
5088657805 -0.6044440332211947 -0.6825754767970035
5089153100 -0.610742659945237 -0.6785415442366349
5089648395 -0.6157909004311812 -0.6749013129033541
5090143690 -0.6216709802025243 -0.6695332087968525
5090638985 -0.6267175799921939 -0.6661988308555201
5091134280 -0.6327814051979467 -0.661434575131065
5091629575 -0.638260565306011 -0.6566184727769149
5092124870 -0.6432511022216395 -0.6524955222481176
5092620165 -0.6477618531176919 -0.6485403274234972
5093115460 -0.654882478086572 -0.6422588354662845
5093610755 -0.6586381855763888 -0.6393717339164332
5094106050 -0.664543236556806 -0.6337752404965853
5094601345 -0.6679525312624479 -0.6307527799355356
5095096640 -0.6764613452710604 -0.6223033823465046
5095591935 -0.6783540499837775 -0.6210204143273202
5096087230 -0.684741264895389 -0.6147378212527225
5096582525 -0.6886875723537645 -0.6101558804512024
5097077820 -0.6940425069708573 -0.6047261576903494
5097573115 -0.7002247164123937 -0.5974739068432858
5098068410 -0.7026931988565546 -0.5957587769157008
5098563705 -0.7084152824000308 -0.5892359363405328
5099059000 -0.7139423269974557 -0.582817554473877
5099554295 -0.7190314154875906 -0.5769212026345102
5100049590 -0.7224706819182948 -0.5740885860041568
5100544885 -0.7252049195139032 -0.5704248641666613
5101040180 -0.7312765121459961 -0.5630468945754202
5101535475 -0.7374516631427565 -0.5555653979903773
5102030770 -0.7404550094353525 -0.5512330532073975
5102526065 -0.7447308333296525 -0.5458832885089674
5103021360 -0.7482013231829593 -0.5413617930914226
5103516655 -0.7548116445541382 -0.5329720628888983
5104011950 -0.7558376381271764 -0.5304326822883204
5104507245 -0.7611803820258692 -0.5230817732058073
5105002540 -0.7648608966877586 -0.517409600709614
5105497835 -0.7686972806328222 -0.5120791698756971
5105993130 -0.7733140336839777 -0.5045571546805533
5106488425 -0.7767591758778221 -0.4995353457174803
5106983720 -0.7798121006865251 -0.4940058494869031
5107479015 -0.7837067967966983 -0.4876947544122997
5107974310 -0.787600903134597 -0.48156599465169403
5108469605 -0.7911636641151026 -0.4753338506347255
5108964900 -0.7948458100620069 -0.4686011483794765
5109460195 -0.7986004227086118 -0.462189854759919
5109955490 -0.8011343824236017 -0.4570363838421671
5110450785 -0.8048205156075326 -0.4500012538935009
5110946080 -0.8080262604512667 -0.44339728355407715
5111441375 -0.8105604460364894 -0.43707880848332453
5111936670 -0.8145463215677362 -0.4301385644235109
5112431965 -0.8174403090226022 -0.4243132095587881
5112927260 -0.8199189179822018 -0.41786294704989385
5113422555 -0.8232734611159876 -0.41132378421331706
5113917850 -0.8254022315928811 -0.40500963832202713
5114413145 -0.8284899372803537 -0.3982402619562651
5114908440 -0.8309230961297688 -0.3912331399164702
5115403735 -0.8336028927250912 -0.3841657716976969
5115899030 -0.8358505901537443 -0.3779813490415874
5116394325 -0.8385060868765178 -0.37084891451032537
5116889620 -0.8405334541672155 -0.36406567535902323
5117384915 -0.8428008650478563 -0.35782885708306966
5117880210 -0.8449800610542297 -0.3497863066823859
5118375505 -0.847106441071159 -0.3440910075840197
5118870800 -0.8488400954949228 -0.33725691625946447
5119366095 -0.8508111207108748 -0.3302394371283682
5119861390 -0.852960068928568 -0.32220803907043055
5120356685 -0.854588856822566 -0.3158293633084548
5120851980 -0.8562109658592626 -0.3090906394155402
5121347275 -0.857963784744865 -0.30173995306617335
5121842570 -0.8592753410339355 -0.29438586454642446
5122337865 -0.8609071530793843 -0.2872187981480046
5122833160 -0.8621014513467488 -0.2815715921552558
5123328455 -0.8636718047292609 -0.2731510526255557
5123823750 -0.8648961656971982 -0.2660348572229084
5124319045 -0.8659942024632504 -0.25910030226958425
5124814340 -0.8670275556413751 -0.25273824679224116
5125309635 -0.8680117820438585 -0.24408070978365445
5125804930 -0.8690288349201805 -0.23699120079216204
5126300225 -0.8698069641464635 -0.22964077874233849
5126795520 -0.8707421923938551 -0.22207451807825188
5127290815 -0.8711579002832112 -0.21507303024593152
5127786110 -0.8716228698429308 -0.20737884076018082
5128281405 -0.8720162573613619 -0.20044140988274625
5128776700 -0.872545810122239 -0.1927696544873087
5129271995 -0.872646755293796 -0.1856324131551542
5129767290 -0.8727770039909765 -0.17828690613570966
5130262585 -0.8728338730962653 -0.17009414889310537
5130757880 -0.8728211114281103 -0.16354880834880628
5131253175 -0.8727615507025468 -0.1559790961052242
5131748470 -0.8725446368518629 -0.1485440095788554
5132243765 -0.8723023220112449 -0.14102135990795336
5132739060 -0.8718869686126709 -0.13334135554338755
5133234355 -0.8716501436735454 -0.1250991829131779
5133729650 -0.8705547859794215 -0.11994247412995289
5134224945 -0.8704020631940741 -0.11050733374921899
5134720240 -0.8693660811374062 -0.10426223866249386
5135215535 -0.8683438206973829 -0.09564445285420668
5135710830 -0.8673914639573348 -0.08767422092588324
5136206125 -0.8667895699802198 -0.0793512067512462
5136701420 -0.8656311505719235 -0.07233447385461707
5137196715 -0.8638454550190976 -0.0673621814501913
5137692010 -0.8627005721393385 -0.05919824148479261
5138187305 -0.861379651646865 -0.04993780192575956
5138682600 -0.8598948434779519 -0.0404302687629273
5139177895 -0.8583837277010867 -0.03634031960054448
5139673190 -0.8560945485767565 -0.03150840025199087
5140168485 -0.8546438154421354 -0.016904545996926333
5140663780 -0.8523473049464979 -0.015201006574850334
5141159075 -0.8505082569624248 -0.002177582220419457
5141654370 -0.8483614294152511 0.0021443646401166916
5142149665 -0.8459212591773585 0.006222249842003772
5142644960 -0.8436873774779471 0.018093877373949477
5143140255 -0.8411656712230883 0.022790106405553064
5143635550 -0.838619655684421 0.03307241534716204
5144130845 -0.8359647738306146 0.03838657587766647
5144626140 -0.8333393554938467 0.04203883950647555
5145121435 -0.8302473582719502 0.05538268230463329
5145616730 -0.8274842814395302 0.062152611189766935
5146112025 -0.824575242243315 0.06728579456868924
5146607320 -0.821165238556109 0.07451189936775911
5147102615 -0.817898226411719 0.08134343788812035
5147597910 -0.8145328101358915 0.08921858236977928
5148093205 -0.8111844282401236 0.0950465390556737
5148588500 -0.8078228329357348 0.10200627030510652
5149083795 -0.8040544139711481 0.11074924939557125
5149579090 -0.8005666387708563 0.11666424376399893
5150074385 -0.7959775140410975 0.12815873168016734
5150569680 -0.7927142789489344 0.13033580387893476
5151064975 -0.7889522188588193 0.13666051234069623
5151560270 -0.7848043755481118 0.14383386702913986
5152055565 -0.7805535322741458 0.1499867596124348
5152550860 -0.7761733939773158 0.1574663574758329
5153046155 -0.7720885276794434 0.1628179409002003
5153541450 -0.767722371377443 0.16948885666696648
5154036745 -0.7626913346742329 0.17712622410372683
5154532040 -0.7582023049655714 0.18328647393929332
5155027335 -0.7536174215768513 0.18940242889680362
5155522630 -0.748788529320767 0.1959958641152633
5156017925 -0.7434819654414528 0.20236223230236455
5156513220 -0.7384410688751623 0.20962976703518316
5157008515 -0.7336128981489884 0.21468027014481394
5157503810 -0.7287052273750305 0.2211457686988931
5157999105 -0.7228068427035683 0.22768769766155042
5158494400 -0.7176616160493148 0.23293366165537582
5158989695 -0.7121516466140747 0.23961584113146128
5159484990 -0.7065164039009496 0.24495728157068553
5159980285 -0.700753695086429 0.25101033402116674
5160475580 -0.6952446542288128 0.256277239636371
5160970875 -0.6894165622560602 0.2624111708841826
5161466170 -0.683533671655153 0.2681132774603994
5161961465 -0.6778567872549358 0.27316517108365107
5162456760 -0.6715324332839564 0.2789893416981948
5162952055 -0.6656079260926497 0.2837267110222264
5163447350 -0.6592221322812533 0.28953819212160614
5163942645 -0.6526621956574289 0.2951833558709998
5164437940 -0.6467332055694178 0.29919326462243734
5164933235 -0.639667670977743 0.30533997008675023
5165428530 -0.6343147189993608 0.3079221813302291
5165923825 -0.6258953276433443 0.3156372873406661
5166419120 -0.6201066186553553 0.31922856914369685
5166914415 -0.613597782034623 0.32397424233587163
5167409710 -0.6073696989762155 0.327358929734481
5167905005 -0.5990933242597078 0.3341826796531677
5168400300 -0.5925235058131971 0.338285882222025
5168895595 -0.5856518306230244 0.34205503997049835
5169390890 -0.5793664580897281 0.34557991278798955
5169886185 -0.5703022825090509 0.352664872219688
5170381480 -0.5642860155356558 0.3548373078045092
5170876775 -0.5571298379647104 0.3582469381784138
5171372070 -0.5495101621276454 0.3626606605554882
5171867365 -0.5413748214119359 0.3673430932195563
5172362660 -0.5350679974806937 0.36915450190242965
5172857955 -0.5279179246802079 0.372541429180848
5173353250 -0.5176870352343509 0.3789728770130559
5173848545 -0.5113103640706915 0.3810456316722067
5174343840 -0.5047146834825215 0.3833204617625789
5174839135 -0.4956190272381431 0.3877670466899872
5175334430 -0.48917491969309357 0.38907794262233536
5175829725 -0.4803761824181205 0.39325081674676193
5176325020 -0.47260919840712295 0.39578955895022344
5176820315 -0.46434072914876434 0.3989981428573006
5177315610 -0.4564966684893558 0.40134246725785105
5177810905 -0.44958531699682536 0.40253808780720357
5178306200 -0.43971125389400284 0.406865246986088
5178801495 -0.4321716961107756 0.40847915097286824
5179296790 -0.4235364763360274 0.41125218021242244
5179792085 -0.4174182007187291 0.41141730233242635
5180287380 -0.40817271721990483 0.4141867129426253
5180782675 -0.3995601707383206 0.4165658903749366
5181277970 -0.3910343803857502 0.4183236627202285
5181773265 -0.38292462261099564 0.4197861395384136
5182268560 -0.3743486592644139 0.4212287554615422
5182763855 -0.36678528942559896 0.4222950449115352
5183259150 -0.3578140531715594 0.42394726213655975
5183754445 -0.3499111219456321 0.42459841778403834
5184249740 -0.34148073196411133 0.42591764895539536
5184745035 -0.33293690179523666 0.4267180875728005
5185240330 -0.3247425430699399 0.4272471540852597
5185735625 -0.31575590842648554 0.4286177926941922
5186230920 -0.30766336227718155 0.42887485811584874
5186726215 -0.29935761501914576 0.42960044898484884
5187221510 -0.2909516284340306 0.42945591085835505
5187716805 -0.2818729501021536 0.43038510491973475
5188212100 -0.27361232983438594 0.4301195160338753
5188707395 -0.26507087287149933 0.43071634047909785
5189202690 -0.2569824817933534 0.4296997738511939
5189697985 -0.24825802288557353 0.42954050082909434
5190193280 -0.23973051889946587 0.4291085491054936
5190688575 -0.23090875227200358 0.4293868416234067
5191183870 -0.22284524613305143 0.4281386482088189
5191679165 -0.21431272594552292 0.4276267525396849
5192174460 -0.20554905188711067 0.42669593660455
5192669755 -0.19770501005022148 0.4257383848491468
5193165050 -0.18889085085768448 0.42485349429281133
