# HZ S RI R 50
5000000000 -0.3721068689697667 -0.31893681538732427
5000495295 -0.3736406501970793 -0.3183482555966628
5000990590 -0.3751243901880164 -0.3176282079596269
5001485885 -0.3776756556410539 -0.315738729740444
5001981180 -0.3803813833939402 -0.31363704643751444
5002476475 -0.3818128234461734 -0.3126381808205655
5002971770 -0.3836788158667715 -0.31122711614558574
5003467065 -0.3852874683706384 -0.3103476809827905
5003962360 -0.38743388809655843 -0.3084155038783425
5004457655 -0.38917604245637594 -0.3072732012522848
5004952950 -0.3913394338206241 -0.3053981018693824
5005448245 -0.3931300483251873 -0.30406279469791214
5005943540 -0.39505520462989807 -0.3025124904356505
5006438835 -0.3965883631455271 -0.3011059588507602
5006934130 -0.39799188155876963 -0.3003510456336172
5007429425 -0.40022225285831253 -0.2982298669062163
5007924720 -0.4026895588950107 -0.29537969357088995
5008420015 -0.4040531469018836 -0.2949694206840114
5008915310 -0.4056340722661269 -0.29290763327949926
5009410605 -0.40739160462429647 -0.29166144446322795
5009905900 -0.4093207230693416 -0.2891248323415455
5010401195 -0.41084349155426025 -0.28803253016973795
5010896490 -0.4128774875088742 -0.28547193031562
5011391785 -0.41435532193434865 -0.28410418880613225
5011887080 -0.41616157795253556 -0.2820717927656676
5012382375 -0.41794732526728984 -0.27990228251407023
5012877670 -0.4194305601872896 -0.27861116591252777
5013372965 -0.4209081420772954 -0.27643830525247676
5013868260 -0.4227926684053321 -0.274254814574593
5014363555 -0.42469150455374466 -0.27218565658519145
5014858850 -0.4262890941218326 -0.2703351817632976
5015354145 -0.42796805187275533 -0.26822001996793243
5015849440 -0.4291295769967531 -0.26615896977876363
5016344735 -0.43076638485255997 -0.2643141762206429
5016840030 -0.4327769106940219 -0.26145175256227193
5017335325 -0.43446182734087896 -0.2597499834863763
5017830620 -0.4356990989885832 -0.2575306704169826
5018325915 -0.43741756363918904 -0.255216636155781
5018821210 -0.4385439565307216 -0.2532453380132976
5019316505 -0.4400889591166848 -0.25108078827983454
5019811800 -0.4417874107235356 -0.24798216945246646
5020307095 -0.44315661411536367 -0.24585700740939692
5020802390 -0.4442243654476969 -0.24448688955683456
5021297685 -0.44544892405208786 -0.24169288105086276
5021792980 -0.44685351691747965 -0.23953775355690404
5022288275 -0.44823513689794037 -0.23713954734174827
5022783570 -0.44985888035673843 -0.23441800082984723
5023278865 -0.4504062423580571 -0.23261207734283648
5023774160 -0.45199158160310043 -0.22951250091979378
5024269455 -0.4529041726338236 -0.2274799966498425
5024764750 -0.45434752890938207 -0.22417250589320534
5025260045 -0.4550042434742576 -0.222649211162015
5025755340 -0.45671450307494715 -0.2195071185889997
5026250635 -0.45794187721453217 -0.21629262754791662
5026745930 -0.45821884588191386 -0.21541862895614222
5027241225 -0.46037063943712336 -0.2108276400126909
5027736520 -0.46058435973368195 -0.20950331342847725
5028231815 -0.4614377115902148 -0.20684218955667397
5028727110 -0.4629565838136171 -0.2030305133054131
5029222405 -0.46323992860944646 -0.20158946592556803
5029717700 -0.4646485479254472 -0.19759852243097206
5030212995 -0.46543278035364655 -0.19470790263853574
5030708290 -0.4664697427498667 -0.19220467852918724
5031203585 -0.46719494462013245 -0.18951350372088582
5031698880 -0.4679160337699087 -0.1864310981411683
5032194175 -0.4689592123031616 -0.18315781966636055
5032689470 -0.4696296077025564 -0.1801562536703913
5033184765 -0.47051690754137543 -0.17668681317254117
5033680060 -0.47068570632683604 -0.1752500981092453
5034175355 -0.4713712773824993 -0.17178150305622503
5034670650 -0.4723426213389949 -0.16692050664048447
5035165945 -0.4723203950806668 -0.16565502552609696
5035661240 -0.4729700574749394 -0.16240351058934865
5036156535 -0.4731707055317728 -0.15952451919254504
5036651830 -0.4733401035007678 -0.15636122932559565
5037147125 -0.4738163853946485 -0.15347443599449961
5037642420 -0.47399481817295674 -0.15010561597974678
5038137715 -0.4743156480161767 -0.14767526795989588
5038633010 -0.4741154799335881 -0.14525469274897324
5039128305 -0.47511331031196996 -0.1412771148116965
5039623600 -0.474621024570967 -0.13870204122442947
5040118895 -0.4751046550901313 -0.1348998232891685
5040614190 -0.47493688683760793 -0.1312854627245351
5041109485 -0.4748954867061816 -0.1290199074305986
5041604780 -0.47498919618757146 -0.12586335837841034
5042100075 -0.47466845888840525 -0.12192529439926147
5042595370 -0.47476344673257126 -0.11947637051343918
5043090665 -0.4745931311657554 -0.11555466330365131
5043585960 -0.47416186332702637 -0.11296796955560383
5044081255 -0.474246914449491 -0.10945584389724229
5044576550 -0.47372529381199885 -0.10562662035226822
5045071845 -0.4735246849687476 -0.10302194364761051
5045567140 -0.4731633616121192 -0.09939446692403994
5046062435 -0.47256063630706385 -0.09612400829792023
5046557730 -0.47225983205594513 -0.09272554399151552
5047053025 -0.4716782946335642 -0.0891482202630294
5047548320 -0.47125347664481715 -0.08625727068436773
5048043615 -0.47068828030636434 -0.08225875465493453
5048538910 -0.47000345901439067 -0.0793504785550268
5049034205 -0.4689910380463851 -0.07624043994828274
5049529500 -0.46857336947792455 -0.07256754330898586
5050024795 -0.4661756189245927 -0.07260353314249139
5050520090 -0.46588757477308573 -0.06713618181253735
5051015385 -0.4649618079787807 -0.06393650409422423
5051510680 -0.4644409041655691 -0.060232710485395635
5052005975 -0.4629295985949667 -0.056397067480965665
5052501270 -0.4619853167157424 -0.053111659460946134
5052996565 -0.4608163849303597 -0.049822775549010226
5053491860 -0.4597938750919543 -0.0467303277630555
5053987155 -0.45857057602782 -0.043178615405371316
5054482450 -0.4570419960900357 -0.03985195999082766
5054977745 -0.45595643081163106 -0.036786513893227825
5055473040 -0.45454975178367213 -0.033126135797877064
5055968335 -0.45303450916942795 -0.03057409009258998
5056463630 -0.45162054739500346 -0.026962515162794215
5056958925 -0.45007063213147613 -0.023338426100580317
5057454220 -0.4485185428669578 -0.0203170175419042
5057949515 -0.4472424074223167 -0.01681950678558726
5058444810 -0.44529005728269877 -0.014037007073822775
5058940105 -0.4437756569761979 -0.010860525463756762
5059435400 -0.44165193093450444 -0.007324747398103538
5059930695 -0.43957541177147313 -0.004554147930129578
5060425990 -0.43798581706850154 -0.0010152672368444894
5060921285 -0.43596302365001877 0.0021841169678066905
5061416580 -0.43360485371790436 0.005284506288406096
5061911875 -0.43188090543997915 0.008251195185278592
5062407170 -0.4296132561407591 0.011508398248176826
5062902465 -0.4275129735469818 0.014234728277905992
5063397760 -0.4248903283947392 0.017411156116347564
5063893055 -0.4229554753554495 0.020646536526711362
5064388350 -0.4200945778896934 0.023725084274222975
5064883645 -0.417997840203737 0.026908429535595996
5065378940 -0.4150262757351524 0.02951858486784132
5065874235 -0.413015731071171 0.03276307175033971
5066369530 -0.4104307419375369 0.035457420505975425
5066864825 -0.40774843253587423 0.03893306106328964
5067360120 -0.4052663947406568 0.041430436074733734
5067855415 -0.4023767160741906 0.044404139644221255
5068350710 -0.39934186088411433 0.047669352865532824
5068846005 -0.3966119461937955 0.05053185142184559
5069341300 -0.3940709390138325 0.052877164788936316
5069836595 -0.3909106129094174 0.05628231795210587
5070331890 -0.38755515531489726 0.05957162419432088
5070827185 -0.38455870747566223 0.06130977484740709
5071322480 -0.3812952841583051 0.06423798732851681
5071817775 -0.3782446243261036 0.06559922859856956
5072313070 -0.3750018320585552 0.06911540933345493
5072808365 -0.3715911162526984 0.07243472376936361
5073303660 -0.3689035945817044 0.07322901448136881
5073798955 -0.365159776649977 0.0778106752979128
5074294250 -0.36237497549307973 0.07739922365075663
5074789545 -0.35855321350850555 0.08040558272286465
5075284840 -0.35508331813310323 0.08381270774100956
5075780135 -0.3516614280248943 0.08573250433332041
5076275430 -0.34818192375333684 0.08759739916575582
5076770725 -0.34486598090121623 0.08846666507030788
5077266020 -0.3406481068385275 0.09287473637806742
5077761315 -0.33721915514845596 0.09346924761408254
5078256610 -0.3332078347080632 0.09603482680885415
5078751905 -0.32971678752648204 0.09768286308175639
5079247200 -0.32627744894278676 0.0987111561392483
5079742495 -0.32189558838543136 0.10251382542283911
5080237790 -0.31800944867886993 0.10292264897572367
5080733085 -0.3143923564961082 0.10490575315136659
5081228380 -0.31022825052863673 0.10698826062051874
5081723675 -0.30602553486824036 0.10848263651132584
5082218970 -0.30203149977483246 0.11033624685124348
5082714265 -0.2981127641702953 0.1123024013481642
5083209560 -0.2938809567376187 0.11313455473435552
5083704855 -0.2895228862762451 0.11519730875366613
5084200150 -0.2853942811489105 0.1168125793337822
5084695445 -0.2813221451483275 0.11770163319612804
5085190740 -0.27708014845848083 0.11962070590571354
5085686035 -0.27277387600196035 0.12054586685017536
5086181330 -0.2684388317559895 0.12199400718274869
5086676625 -0.2636403347316541 0.12246869896587573
5087171920 -0.2598212141739695 0.12356367119048771
5087667215 -0.2553132631276783 0.12465352761118036
5088162510 -0.2507139781588002 0.12598374995746112
5088657805 -0.24612321508558174 0.12663746899680087
5089153100 -0.24187951103637093 0.127052283600757
5089648395 -0.2373181612868058 0.12806543002003118
5090143690 -0.2328775289811586 0.1286659272093522
5090638985 -0.22840851231625206 0.12905753207834145
5091134280 -0.22348739834208237 0.12943234177012192
5091629575 -0.219279419434698 0.12994910698187978
5092124870 -0.21446988378700457 0.13034409833581825
5092620165 -0.20991700730825724 0.1307761324079413
5093115460 -0.20509725338534304 0.1313305826563584
5093610755 -0.2005906128569653 0.13140031930647397
5094106050 -0.19612278828495427 0.13146031765561356
5094601345 -0.1913345040459382 0.13112883975631312
5095096640 -0.18613492030846446 0.13172908362589383
5095591935 -0.18130802794506676 0.13127151915901586
5096087230 -0.1768813784185209 0.13122692939482236
5096582525 -0.1716805759229158 0.13152675644347542
5097077820 -0.16720411887294367 0.1310792110468212
5097573115 -0.1627855034250962 0.13042338741453072
5098068410 -0.1572841343126799 0.13060666777585683
5098563705 -0.15300613171175906 0.13002128036398636
5099059000 -0.1480685354847657 0.12931211528025174
5099554295 -0.1432819342926929 0.12901773813523745
5100049590 -0.13924154011826767 0.12738709700734993
5100544885 -0.13467922571458316 0.1266106688662579
5101040180 -0.1300655783791291 0.12571257431256144
5101535475 -0.12482514153969915 0.12487548236784182
5102030770 -0.12030195876171715 0.12371862248370522
5102526065 -0.11557301486793317 0.12268916831204765
5103021360 -0.11084579911671187 0.1214837059378624
5103516655 -0.10556249634215706 0.12025451620942668
5104011950 -0.1012047866457387 0.11890059944830443
5104507245 -0.0961775140542733 0.11751891672611237
5105002540 -0.09205575365769236 0.11574798822402954
5105497835 -0.0866488198700704 0.11440217220469524
5105993130 -0.0825135190235941 0.11272012520777552
5106488425 -0.07779809950213683 0.11123485627927278
5106983720 -0.07278284665785338 0.10938850790262222
5107479015 -0.06793357353461416 0.10781457941783101
5107974310 -0.0635524886219125 0.10564733414273512
5108469605 -0.059008366771434485 0.10392567750654723
5108964900 -0.05388922616839409 0.10258481298622332
5109460195 -0.0499916033525216 0.09988295286893845
5109955490 -0.044871570444420764 0.09801731925261647
5110450785 -0.040382238006905505 0.09568930064377032
5110946080 -0.03591712074060189 0.09358802516209452
5111441375 -0.03128916740809616 0.09109133521192952
5111936670 -0.02652338745170518 0.08854387112353977
5112431965 -0.022414684393688253 0.08650581342609305
5112927260 -0.017781782013021018 0.08362349436471336
5113422555 -0.013472496580920722 0.08109922001236364
5113917850 -0.008925593850251875 0.07821380896003623
5114413145 -0.004676265445979018 0.07512793219403217
5114908440 -0.00039984937757253647 0.07264498542798192
5115403735 0.003906151132756158 0.0696005456541714
5115899030 0.008090780263668612 0.06653573756155215
5116394325 0.012220792815481362 0.06335457492815821
5116889620 0.016360827378536526 0.060710830123800984
5117384915 0.020586356716720683 0.057450352726798305
5117880210 0.024576156057025258 0.05420226133183429
5118375505 0.028730150802355064 0.05093602640064139
5118870800 0.03248044122990809 0.047404863920650984
5119366095 0.036528011489855614 0.044157739924757106
5119861390 0.04049977934674213 0.04076584663830305
5120356685 0.04420340276862446 0.0371952364711385
5120851980 0.04793614325554747 0.03353212616945568
5121347275 0.05177934310938183 0.030061727291659304
5121842570 0.055491459408873005 0.026622054608244645
5122337865 0.05915355251023644 0.02281893485862958
5122833160 0.06296522209518834 0.019270494286166995
5123328455 0.06652786504281194 0.015368018642460046
5123823750 0.07004454575086895 0.011064768229660234
5124319045 0.07340721001750544 0.007339965895210442
5124814340 0.07684390835071865 0.0034261235575142658
5125309635 0.0803271535980074 -0.000679647844088705
5125804930 0.08364991765273244 -0.004667484250507857
5126300225 0.08686867748436175 -0.008902982122411853
5126795520 0.09016202194126029 -0.013071029201934212
5127290815 0.09337970849714781 -0.01738265146942515
5127786110 0.09645029784817445 -0.02182362865852682
5128281405 0.09951250490389373 -0.02585290715490517
5128776700 0.10246853961756355 -0.03035554985858892
5129271995 0.10551277195152484 -0.034727997489665687
5129767290 0.10827142941324334 -0.039183582130231355
5130262585 0.1111331770294591 -0.04356375924850765
5130757880 0.1139285387961488 -0.04836966175782053
5131253175 0.1165855107338805 -0.052623342134450614
5131748470 0.11930517303316217 -0.0571040330748809
5132243765 0.12176445244174254 -0.0617766744996372
5132739060 0.12446157281336032 -0.06622771761919323
5133234355 0.12675260713225917 -0.07110876982149325
5133729650 0.12926472645056875 -0.07567650863998815
5134224945 0.13165166974067688 -0.08045725053862522
5134720240 0.13378428785424484 -0.085214658787376
5135215535 0.13623094088152835 -0.09001127630472183
5135710830 0.13789976270575272 -0.09487266289560418
5136206125 0.14049619593118368 -0.09969424260290045
5136701420 0.1424710546669207 -0.10456958844473488
5137196715 0.14446983996190524 -0.10924442935931056
5137692010 0.1464645282218331 -0.11444248494349028
5138187305 0.14821064236916995 -0.11957283631751411
5138682600 0.15017510950565338 -0.12428327336123116
5139177895 0.15172067049302554 -0.12944852521545008
5139673190 0.15365456123101084 -0.13430936556113393
5140168485 0.15466387334622836 -0.1398435768328215
5140663780 0.15688803791999817 -0.14409288136582626
5141159075 0.1578397837124373 -0.15001705681022845
5141654370 0.15906557911320737 -0.15510499163677818
5142149665 0.16015835263227163 -0.16028901464060732
5142644960 0.16190514439030698 -0.16501067814074064
5143140255 0.1620576483638663 -0.17119713284467397
5143635550 0.16360489553526827 -0.17580971670778175
5144130845 0.1647972346920716 -0.18128193679608798
5144626140 0.16520260039128756 -0.1864508280628606
5145121435 0.16644161076922165 -0.19154804396001915
5145616730 0.16670340142751994 -0.19713278350077176
5146112025 0.16873327132902646 -0.20136028920349322
5146607320 0.16862618531051435 -0.2072882040550834
5147102615 0.16942340370855832 -0.21279160050969376
5147597910 0.16917488527925392 -0.21832512868078133
5148093205 0.17107437394167246 -0.22242415343460284
5148588500 0.17038273889767497 -0.22877793876748337
5149083795 0.1711740642786026 -0.23360738158226013
5149579090 0.17144917186937833 -0.23896696144028715
5150074385 0.17123367990318097 -0.24410792557816757
5150569680 0.17267120982471265 -0.24868647754192352
5151064975 0.1729960959208639 -0.2540372327754372
5151560270 0.17238401896075198 -0.25977759925942673
5152055565 0.17254731137501567 -0.2644298829530415
5152550860 0.17299242003967888 -0.2701102714789541
5153046155 0.17255450471451408 -0.2751753596883071
5153541450 0.17236902760831932 -0.28041185830768783
5154036745 0.17215823029216967 -0.2858282766844097
5154532040 0.17192712347758443 -0.2908507052220796
5155027335 0.17218069496907687 -0.2956670726600446
5155522630 0.17098400859456314 -0.3012510553786629
5156017925 0.1707809214529238 -0.3064491215505098
5156513220 0.16956444633634468 -0.31208220751662
5157008515 0.16948723557748294 -0.31696921116427373
5157503810 0.16880224566710622 -0.32203186970008046
5157999105 0.1674380224002035 -0.32755697871509354
5158494400 0.1665643971217306 -0.33269447401950236
5158989695 0.1656486666516254 -0.33754992798755046
5159484990 0.16494070385631762 -0.3429799252434781
5159980285 0.16374232188651436 -0.34816908679510417
5160475580 0.16231683837740044 -0.3532830476760864
5160970875 0.16094148943298742 -0.35850019517697784
5161466170 0.1600803277994457 -0.3636937455127114
5161961465 0.1575698358447928 -0.3692513123938912
5162456760 0.15635127770273308 -0.37424300218883316
5162952055 0.1547166258096695 -0.37920929413092763
5163447350 0.1537061710106699 -0.38404916148436696
5163942645 0.15113624538245954 -0.3889752547991903
5164437940 0.15021756997233943 -0.39407089352607727
5164933235 0.1484681077693638 -0.39906883867163406
5165428530 0.14680520092186175 -0.40382487836636993
5165923825 0.14519667233291425 -0.40911023710903366
5166419120 0.142973183017028 -0.41373433251129954
5166914415 0.1409775606895748 -0.41880280563705846
5167409710 0.13917416020443565 -0.4236521658144499
5167905005 0.13720773474166267 -0.42812859855200114
5168400300 0.13464353900206716 -0.4331696221702977
5168895595 0.13354659472641192 -0.4376303726120999
5169390890 0.1310466214230186 -0.44267865701725606
5169886185 0.12873333770977824 -0.44722916577991684
5170381480 0.1266162885647071 -0.45184454321861267
5170876775 0.12417817743201005 -0.4565571781836058
5171372070 0.12252609039607801 -0.46095145689813716
5171867365 0.11945585788864839 -0.46541110622255427
5172362660 0.11753611776389573 -0.4699085056781769
5172857955 0.11369867426784415 -0.47449928522109985
5173353250 0.11222758065713079 -0.4791739692813472
5173848545 0.10813731268832558 -0.48370210904824107
5174343840 0.10669090873316715 -0.48720732801838923
5174839135 0.10360273993328999 -0.49209623744613246
5175334430 0.09905956214980076 -0.49764369820293625
5175829725 0.09583812795187298 -0.5012022978381107
5176325020 0.09459497505112698 -0.5051623080906115
5176820315 0.09147078347833533 -0.5092851205875999
5177315610 0.08677131761061518 -0.5136619931773135
5177810905 0.08257296955899189 -0.5182540604942724
5178306200 0.08032121626954329 -0.5221265428944638
5178801495 0.07792755726136659 -0.5259572424386677
5179296790 0.07495305373480446 -0.5295803766501578
5179792085 0.06953386178142146 -0.5339423731753701
5180287380 0.066453770195183 -0.5379331237391421
5180782675 0.062172121711467444 -0.541689461783359
5181277970 0.06079059251044926 -0.5454194483004118
5181773265 0.0574458888486812 -0.5492421043546576
5182268560 0.05265240822183458 -0.5530516097420141
5182763855 0.04855280114631904 -0.5567212449876886
5183259150 0.04567944356485417 -0.5605438539856359
5183754445 0.04395881099136252 -0.5644286870956421
5184249740 0.03997890533585297 -0.5672303657782706
5184745035 0.03496027541788001 -0.5709004559014973
5185240330 0.03112653368397763 -0.5743537953025416
5185735625 0.028918207672081496 -0.5777233964518497
5186230920 0.025309588171933826 -0.5814088363396493
5186726215 0.019949794992020254 -0.5854282253666928
5187221510 0.01655528895360859 -0.5877089155347723
5187716805 0.013319029472768307 -0.5910799566068148
5188212100 0.008360116938619237 -0.5941583859293085
5188707395 0.004272975125595143 -0.5974118772305941
5189202690 0.00037591551479540373 -0.6003145763748571
5189697985 -0.0035239593370964654 -0.6034319149820428
5190193280 -0.007592142314503067 -0.6062512585991308
5190688575 -0.01210504373241412 -0.609513028671867
