# HZ S RI R 50
80000000 -0.34881657205129923 -0.9612665239133333
80049511 -0.3498838308610414 -0.9605088108464291
80099022 -0.35115770446626765 -0.9600957161501834
80148533 -0.3522430846565648 -0.9595606421169481
80198044 -0.3533656252057929 -0.9595202897724352
80247555 -0.3546464631431981 -0.958949791757684
80297066 -0.35563178909452337 -0.9583430196109571
80346577 -0.35657429381420735 -0.9581300428039149
80396088 -0.3578683969221617 -0.9576807367174249
80445599 -0.35896915354226766 -0.9571018281735872
80495110 -0.36018580668850947 -0.9569112470275477
80544621 -0.3611949399897927 -0.9563005096034
80594132 -0.36231196397229243 -0.9559804012900904
80643643 -0.3635318890998238 -0.9557927031266061
80693154 -0.3646278961708671 -0.9549132836492438
80742665 -0.36576335994820847 -0.9547999940420452
80792176 -0.3669809761800264 -0.9544639367806284
80841687 -0.3679819514876918 -0.9541146096430326
80891198 -0.3691351256872478 -0.9534728213360435
80940709 -0.3702053035560407 -0.953246926006518
80990220 -0.3713848512423666 -0.9526877842451397
81039731 -0.372393095179608 -0.9522200320896349
81089242 -0.37370824656988444 -0.9518872468095076
81138753 -0.37444742416080673 -0.9514170916456925
81188264 -0.37592669694047226 -0.9507075485430265
81237775 -0.3769484585837314 -0.9504793129469219
81287286 -0.37796368253858464 -0.9498400280350133
81336797 -0.3791852248342414 -0.9497517221852353
81386308 -0.3800585991457889 -0.9489888454738417
81435819 -0.38129621430447225 -0.9487260423208538
81485330 -0.3823967403487155 -0.9482690252755818
81534841 -0.3837784262079942 -0.9479152811200995
81584352 -0.3848650126080764 -0.9474096235476042
81633863 -0.38582938438967657 -0.9467436545773557
81683374 -0.387087870585291 -0.9463989640537062
81732885 -0.38797127886822347 -0.9459124897655687
81782396 -0.3891629482570447 -0.9452340634245622
81831907 -0.39018894339862625 -0.9451601975842526
81881418 -0.39157832923688385 -0.9447602535548963
81930929 -0.39258935890699687 -0.9438751183058086
81980440 -0.39357177207344457 -0.9436373208698473
82029951 -0.3947166973038724 -0.9429131401212592
82079462 -0.39580737132775157 -0.9428614001525076
82128973 -0.39696288108825684 -0.9422547095700314
82178484 -0.3978234058932254 -0.9418102565564608
82227995 -0.39896509208177267 -0.9412455872485512
82277506 -0.4002057470773396 -0.9407494507337871
82327017 -0.4012866569192786 -0.9399839890630621
82376528 -0.4023498092827044 -0.9399169369747764
82426039 -0.40367781488518967 -0.9393376080613387
82475550 -0.4046405287165391 -0.9389630618848299
82525061 -0.4057977685802861 -0.9383806837232489
82574572 -0.40666223984015615 -0.9379412845561379
82624083 -0.4080904941809805 -0.9373099270619845
82673594 -0.4090443959361629 -0.9369007819577267
82723105 -0.41029917723254156 -0.9364117540811238
82772616 -0.4112255777183332 -0.9356070380461844
82822127 -0.4124077166381635 -0.9353483632991189
82871638 -0.4133942770330529 -0.9346443477429842
82921149 -0.4144989440315648 -0.9343656646577936
82970660 -0.41564671930513886 -0.9334914088249207
83020171 -0.41668586825069626 -0.9333552373083014
83069682 -0.417603357842094 -0.9325678944587708
83119193 -0.41855196890078095 -0.9324475526809692
83168704 -0.4195332338935451 -0.9313813793031793
83218215 -0.42067983432819966 -0.9314205646514893
83267726 -0.42182339649451406 -0.9308153641851324
83317237 -0.42312447648299367 -0.9303072157659029
83366748 -0.42394512107497767 -0.9298122493844283
83416259 -0.4250758431459728 -0.9293391986897117
83465770 -0.42630505404974284 -0.9285976384815416
83515281 -0.4273377029519332 -0.9283157869389183
83564792 -0.42844873353054647 -0.927612979161112
83614303 -0.4293963517013349 -0.9271325249420969
83663814 -0.43046333915308904 -0.9260079452866002
83713325 -0.43131487777358607 -0.9261607151282462
83762836 -0.4325505777409202 -0.9252276295109799
83812347 -0.43344937343346446 -0.9250372271788748
83861858 -0.4347557205902903 -0.924026608467102
83911369 -0.4358836757509332 -0.9238423109054565
83960880 -0.43688976450970296 -0.923035885158338
84010391 -0.43788535814536245 -0.9229063705394143
84059902 -0.4388066091035542 -0.9224146573167098
84109413 -0.43989023252537374 -0.9214513866524947
84158924 -0.44076098580109446 -0.9215111826595507
84208435 -0.4419592995392649 -0.9204388888258683
84257946 -0.44305788843255295 -0.9200876606138129
84307457 -0.4440665448966779 -0.919583355125628
84356968 -0.44518470764160156 -0.918832424439882
84406479 -0.44602832511851664 -0.9185542621110615
84455990 -0.4467762755720239 -0.9182082195031015
84505501 -0.44788686695851776 -0.9176442717251024
84555012 -0.4491369238025264 -0.916888625998246
84604523 -0.4503485889811265 -0.9163229245888559
84654034 -0.45109777074111135 -0.9160433913532057
84703545 -0.4524205750540683 -0.9153266235401756
84753056 -0.45326214558199834 -0.9143436613835787
84802567 -0.4545354341205798 -0.9139912504898874
84852078 -0.45511538574570104 -0.9132385316647982
84901589 -0.4562864240847136 -0.9132699401755082
84951100 -0.4571288557429063 -0.9122920538249769
85000611 -0.45863526745846395 -0.9115493360318636
85050122 -0.45944048385871084 -0.9112552467145418
85099633 -0.46070050252111333 -0.9101483194451583
85149144 -0.46190858044122396 -0.9099120968266537
85198655 -0.4626267003385644 -0.9096555364759344
85248166 -0.4638616426994926 -0.9089815930316323
85297677 -0.4644492346989481 -0.9084941242870531
85347188 -0.4655129548750426 -0.9073068813273781
85396699 -0.46634008225641754 -0.9075559032590765
85446210 -0.46760383091474833 -0.9061601977599295
85495721 -0.4687748488626982 -0.9061627419371354
85545232 -0.46957535022183466 -0.905153026706294
85594743 -0.47036823787187276 -0.9052198246905678
85644254 -0.471509365659011 -0.9043035162122626
85693765 -0.47243719195064743 -0.9042240443982577
85743276 -0.4734507203102112 -0.9033111929893494
85792787 -0.47426962068206385 -0.9034431702212283
85842298 -0.4757884881998363 -0.9024291603188765
85891809 -0.4765902600790325 -0.9020048944573653
85941320 -0.47757588248503835 -0.9014234448734083
85990831 -0.4786262135756643 -0.9005370861605594
86040342 -0.47955037418164703 -0.9004316329956055
86089853 -0.48049171504221466 -0.8993821269587466
86139364 -0.4815359868501362 -0.8993561142369321
86188875 -0.48218651508030136 -0.8989408424026087
86238386 -0.4836547170814715 -0.89833087356467
86287897 -0.48444811293953344 -0.8980042307000411
86337408 -0.48571728091490896 -0.897215231468803
86386919 -0.4862975086036481 -0.8972030972179613
86436430 -0.48771600189961883 -0.8962036339860213
86485941 -0.4885952158978111 -0.8953454274880258
86535452 -0.4893635683938077 -0.8950814259679694
86584963 -0.4905394488259366 -0.8947323466602125
86634474 -0.4917048325664119 -0.8940033316612244
86683985 -0.4925029387599544 -0.8929359254084135
86733496 -0.4934487813397458 -0.8930803066805789
86783007 -0.4943364011613946 -0.8924481617776971
86832518 -0.49559134088064494 -0.891681106466996
86882029 -0.4967561693567979 -0.8914051683325517
86931540 -0.4972805412192094 -0.8913577198982239
86981051 -0.4984185915244253 -0.8901762429036593
87030562 -0.49968100064679194 -0.8894635470289933
87080073 -0.5007889459007665 -0.8892475272479811
87129584 -0.5014640061478866 -0.8881845944806149
87179095 -0.5026562778573287 -0.8880984657689145
87228606 -0.5035313242360165 -0.8875386840418765
87278117 -0.5046669087911907 -0.8872093401457134
87327628 -0.5056834126773634 -0.8860584905273036
87377139 -0.5066037993682059 -0.8861165548625746
87426650 -0.5075615644454956 -0.8853055583803278
87476161 -0.508645120419954 -0.8854278577001471
87525672 -0.5100038396684747 -0.8845202860079313
87575183 -0.510934735599317 -0.8837338748731112
87624694 -0.5120943376892492 -0.8834849345056635
87674205 -0.5128820507149947 -0.8824255591944644
87723716 -0.5138356560154965 -0.8823980343969244
87773227 -0.5149750709533691 -0.8813054498873258
87822738 -0.5157941736673054 -0.8812878100495589
87872249 -0.517028061967147 -0.8803438826611167
87921760 -0.517743938847592 -0.8806547271577936
87971271 -0.5191992772252936 -0.8796545769038954
88020782 -0.520044882046549 -0.8786182968240035
88070293 -0.5209117092584309 -0.8788994142883703
88119804 -0.5223020597508079 -0.8779856719468769
88169315 -0.5233388794095892 -0.8769055322596901
88218826 -0.5242602072264019 -0.8770040116812053
88268337 -0.5253171826663771 -0.8759893586761073
88317848 -0.5263264430196661 -0.8762145544353285
88367359 -0.5279157883242557 -0.8751871554475081
88416870 -0.5285118410461828 -0.8741388101326791
88466381 -0.5298057355378804 -0.8738633927546049
88515892 -0.5310112426155492 -0.8734630377669084
88565403 -0.5319903932119671 -0.8725179684789557
88614914 -0.5329312744893526 -0.8722740913692274
88664425 -0.5340128007688021 -0.8717914255041825
88713936 -0.535334405146147 -0.8711062450157968
88763447 -0.5359219814601698 -0.8710038191393802
88812958 -0.5375037318781802 -0.8699349290446231
88862469 -0.5384922623634338 -0.868775486946106
88911980 -0.5394161563170584 -0.8688309098544874
88961491 -0.5407032056858665 -0.8680556008690282
89011002 -0.5417281859799435 -0.8669518326458178
89060513 -0.5427117786909404 -0.8671888175763582
89110024 -0.5439862044234025 -0.866239607334137
89159535 -0.5449422064580416 -0.8653763281671625
89209046 -0.5461365549187911 -0.8643773605949
89258557 -0.5470678555338007 -0.8643838763237
89308068 -0.5483946580635873 -0.8630920334866172
89357579 -0.5495301077240392 -0.8628779241913244
89407090 -0.5506098113561931 -0.8617059180611059
89456601 -0.5516984525479769 -0.8612119304506403
89506112 -0.5530072921200803 -0.860824117535039
89555623 -0.5537760038124887 -0.8602845072746277
89605134 -0.5550997696424785 -0.8594051850469488
89654645 -0.555910471238588 -0.858382268955833
89704156 -0.5570212947694879 -0.858187873112528
89753667 -0.5584396280740437 -0.8572886680301867
89803178 -0.5593747622088382 -0.8561426150171381
89852689 -0.5602786321389047 -0.8559724280708715
89902200 -0.5616492597680343 -0.8550310040775099
89951711 -0.5626166870719508 -0.8538357113537035
90001222 -0.5643416235321447 -0.8527874946594238
90050733 -0.565374515558544 -0.8523663251023543
90100244 -0.5666240641945287 -0.850914948864987
90149755 -0.5678134811551947 -0.8499813362171775
90199266 -0.5690931709189164 -0.8495685081732901
90248777 -0.569628894329071 -0.8489191783101935
90298288 -0.5709512014138071 -0.8480711673435412
90347799 -0.5716971033497861 -0.847351632620159
90397310 -0.5728931866194072 -0.8461342736294395
90446821 -0.5738058247064289 -0.8459152265598899
90496332 -0.574972369168934 -0.8443147696946797
90545843 -0.5759210931627374 -0.8441358459623236
90595354 -0.5769864979543184 -0.8425389465532804
90644865 -0.5778593295498898 -0.8423981007776762
90694376 -0.5788712877976266 -0.8411050125172264
90743887 -0.5799833943969325 -0.8411930862225985
90793398 -0.5810379574173375 -0.8390698150584572
90842909 -0.5821639362134432 -0.8388187289237976
90892420 -0.583124766224309 -0.8375698641726845
90941931 -0.58405118553262 -0.8370994486306843
90991442 -0.5849624433015522 -0.8355967276974728
91040953 -0.5859090654473555 -0.835807270125339
91090464 -0.587137360321848 -0.8343576694789686
91139975 -0.5878790993439523 -0.8332532801126179
91189486 -0.5887807356683832 -0.8330476974186144
91238997 -0.5899244766486319 -0.8313982141645331
91288508 -0.5907005824540791 -0.8310639262199402
91338019 -0.5917592111386751 -0.8294940183037206
91387530 -0.5926554359887776 -0.8291162189684416
91437041 -0.5936718206656607 -0.8277131350416886
91486552 -0.5944674046416032 -0.827635175303409
91536063 -0.5955533730356317 -0.8261493162104958
91585574 -0.596340537071228 -0.8249588985192148
91635085 -0.5969219772439254 -0.8247322283293071
91684596 -0.5982064008712769 -0.8232629769726804
91734107 -0.59881224444038 -0.8225661924010829
91783618 -0.599781428512774 -0.8217441439628601
91833129 -0.600785421697717 -0.8202717147375408
91882640 -0.6015542902444538 -0.8198666039266085
91932151 -0.6024667055983293 -0.8183922265705309
91981662 -0.6031469922316702 -0.8178757335010328
92031173 -0.6040554391710382 -0.8166497569335135
92080684 -0.6048660999850223 -0.8156120243825411
92130195 -0.6056691784607736 -0.8145657056256345
92179706 -0.6064720498888116 -0.8138712048530579
92229217 -0.6069870622534501 -0.8130987568905479
92278728 -0.6079088512219881 -0.8115045177309137
92328239 -0.6086345722800807 -0.8114274614735654
92377750 -0.609474778175354 -0.8096315484297903
92427261 -0.6101028981961703 -0.8095357135722512
92476772 -0.6110013284181294 -0.8078578177251314
92526283 -0.6114595061854312 -0.8076201959660179
92575794 -0.6124487927085475 -0.8060844477854276
92625305 -0.6130111217498779 -0.8051372703753019
92674816 -0.6137014847052725 -0.8043781518936157
92724327 -0.614116653015739 -0.8035155973936382
92773838 -0.6150228632123846 -0.8019722449152094
92823349 -0.615446150302887 -0.8015142334134955
92872860 -0.6162270903587341 -0.8006255407082407
92922371 -0.6169068876065706 -0.7992902774559824
92971882 -0.6173167699261716 -0.7992254181912071
93021393 -0.6180439371811716 -0.7973521006734747
93070904 -0.618491464539578 -0.797363353402991
93120415 -0.619136697367618 -0.7957737100751776
93169926 -0.6195816585892125 -0.7954903370455692
93219437 -0.6201951033190677 -0.7939823395327518
93268948 -0.6205604892028006 -0.7937257509482535
93318459 -0.6213379031733463 -0.7924782665152299
93367970 -0.6216004333998028 -0.7920167226540414
93417481 -0.6222498699238426 -0.7907051412682784
93466992 -0.6226800303710135 -0.7900759985572413
93516503 -0.6232632743684869 -0.78919623086327
93566014 -0.6236160617125662 -0.789049317962245
93615525 -0.624263932830409 -0.7875474314940604
93665036 -0.6245919560131273 -0.7873611795274835
93714547 -0.6250173386774565 -0.7865424689493681
93764058 -0.6255000233650208 -0.7852920889854431
93813569 -0.6259753641329313 -0.7853631879154005
93863080 -0.6264231957887348 -0.784487783908844
93912591 -0.6267924904823303 -0.7842250278121546
93962102 -0.6275840464391207 -0.7829782429494356
94011613 -0.6277532138322529 -0.7830368782344618
94061124 -0.6285929491645411 -0.7816237775902999
94110635 -0.6287065367949637 -0.7815401993299785
94160146 -0.6294129835931879 -0.7809412887221888
94209657 -0.6298289581349021 -0.7800544751317877
94259168 -0.6304072110276473 -0.780517041683197
94308679 -0.6309847674871746 -0.7790989185634413
94358190 -0.6314017929528889 -0.7793366658060175
94407701 -0.6319879011103982 -0.7782518769565382
94457212 -0.6325496497907137 -0.7784636428481654
94506723 -0.6331274634913394 -0.7773482768159163
94556234 -0.6337493312986273 -0.7772185112300672
94605745 -0.6342027406943472 -0.7767428096972013
94655256 -0.6347090225470694 -0.7764615385155929
94704767 -0.6356073523822584 -0.775414742921528
94754278 -0.6361638150717083 -0.7757649358950163
94803789 -0.636995836308128 -0.7747322822871962
94853300 -0.6374981685688621 -0.7751362700211374
94902811 -0.6382547585587752 -0.7739639533193488
94952322 -0.6388712337142542 -0.7740778577955145
95001833 -0.6398431658744812 -0.7734645197266027
95051344 -0.6406369334773013 -0.7726152947074488
95100855 -0.6413998195999547 -0.7727538284502531
95150366 -0.6419642724488911 -0.7721100010369953
95199877 -0.6429511214557447 -0.7713934841908907
95249388 -0.6437568946888572 -0.7713803335240013
95298899 -0.6445839028609427 -0.770502253582603
95348410 -0.64530800204528 -0.7705068619627702
95397921 -0.646320358703011 -0.7697593852093345
95447432 -0.6470826268196106 -0.7699195993574042
95496943 -0.6478483739652132 -0.7689769017068964
95546454 -0.6490094065666199 -0.768295030844839
95595965 -0.6498406717651769 -0.7686918660214073
95645476 -0.6507047885342648 -0.7674680885515714
95694987 -0.6515543523587679 -0.7677110621803686
95744498 -0.652257357773028 -0.7668673333368803
95794009 -0.6533608028763219 -0.7664097516160262
95843520 -0.6541549814374823 -0.7659761654703241
95893031 -0.6552895182057431 -0.7660067834352192
95942542 -0.6562608480453491 -0.7645694362489801
95992053 -0.6570601871139125 -0.7644860211171602
96041564 -0.6579481833859494 -0.7640831313635174
96091075 -0.6590138140477633 -0.7632972598075867
96140586 -0.6599806704019245 -0.7630786519301566
96190097 -0.661171251221707 -0.7621225683312667
96239608 -0.6621196458214208 -0.7622565282018561
96289119 -0.6629703609566939 -0.7611675387934634
96338630 -0.6638437948728863 -0.7608817345217654
96388141 -0.6651068486665425 -0.7597775710256476
96437652 -0.6657691346971613 -0.7598252861123336
96487163 -0.6668695242781388 -0.7589897231051796
96536674 -0.668113134409252 -0.7587780262294569
96586185 -0.6690359492050973 -0.757643439267811
96635696 -0.6700789112793771 -0.757824254663367
96685207 -0.6711520709489521 -0.7564896188284221
96734718 -0.671950174005408 -0.7561647954740023
96784229 -0.6730613426158303 -0.7552016879382887
96833740 -0.6739077160232946 -0.7549462036082619
96883251 -0.6751825213432312 -0.753793644277673
96932762 -0.6760175416344091 -0.7537027785652562
96982273 -0.6769457333966306 -0.753161398988021
97031784 -0.6783813112660458 -0.7517267559704027
97081295 -0.6792435238235875 -0.7516168701021295
97130806 -0.6802731877879092 -0.7504856021780717
97180317 -0.6811701216195759 -0.7501729381711859
97229828 -0.682368068318618 -0.7490760087966919
97279339 -0.6832294715078253 -0.7487104440990248
97328850 -0.6841997598346911 -0.7478837308130766
97378361 -0.6851949660401595 -0.7473939280760916
97427872 -0.6863055542895669 -0.7466485217997902
97477383 -0.6873285613561931 -0.7459390383017691
97526894 -0.6882803283239666 -0.7452219756026017
97576405 -0.6893934325168007 -0.7445804602221439
97625916 -0.6903082163710343 -0.7438322399791918
97675427 -0.6913320892735532 -0.7428982100988689
97724938 -0.692278642403452 -0.7421111213533502
97774449 -0.6935679567487616 -0.7411800277860541
97823960 -0.6943550925505789 -0.7406647832770097
97873471 -0.6956108306583605 -0.7402722866911637
97922982 -0.696296585233588 -0.7393322743867573
97972493 -0.6974599173194483 -0.7382394138135409
98022004 -0.6985965747582285 -0.7371788150385806
98071515 -0.6994234762693706 -0.7367906727288899
98121026 -0.7004728787823727 -0.736099478445555
98170537 -0.7017174645474082 -0.7349373478638498
98220048 -0.7024182238076863 -0.7344445680317125
98269559 -0.7037985701310007 -0.7331294291897824
98319070 -0.7045799682014867 -0.7330024524738914
98368581 -0.7057171495337236 -0.7315981733171564
98418092 -0.706532286970239 -0.7311978402890658
98467603 -0.7074083434908014 -0.7299897702116716
98517114 -0.7085210712332475 -0.7294618205020302
98566625 -0.7093928424935592 -0.7286869663941232
98616136 -0.7104239244210092 -0.7278049933282953
98665647 -0.7113949531003049 -0.7271975812159086
98715158 -0.7123273862035651 -0.7258220942396867
98764669 -0.7133309025513498 -0.7254255853201214
98814180 -0.7142433492760909 -0.7244344510530171
98863691 -0.7153826638271934 -0.7236300455896478
98913202 -0.7161418858327364 -0.7229948075194108
98962713 -0.7175010725071556 -0.7219631515051189
99012224 -0.7184944215573763 -0.7215817539315474
99061735 -0.7195434915392023 -0.7198945660340158
99111246 -0.7204577546370657 -0.7196162907700789
99160757 -0.7213090156254015 -0.71812420456033
99210268 -0.7221967452450803 -0.7177644215132061
99259779 -0.7231300818292719 -0.7169608316923443
99309290 -0.7243195113382841 -0.7159595426760221
99358801 -0.7254203652080736 -0.7149256154110557
99408312 -0.7264611752409684 -0.7145633603397169
99457823 -0.7272214732672039 -0.7129001523319044
99507334 -0.7282798823557401 -0.7124358572457966
99556845 -0.7294782933435942 -0.7119502174226862
99606356 -0.7303771407980668 -0.7104895805057726
99655867 -0.7312890165730527 -0.7100587048028645
99705378 -0.7322719348104376 -0.7087430546158239
99754889 -0.7333049397719534 -0.7081762364036158
99804400 -0.7346251669682955 -0.7064284901869925
99853911 -0.7352741046955711 -0.7059413414252432
99903422 -0.736596051015352 -0.7046409186563993
99952933 -0.7373512732355219 -0.7041664405872947
100002444 -0.7162489200893202 -0.6668714347638582
100051955 -0.7172185433538336 -0.6658171007507726
100101466 -0.7180595335207487 -0.6649210547146044
100150977 -0.7190846581208078 -0.6639691308925026
