# HZ S RI R 50
5000000000 -0.05004294353880381 0.48509684205055237
5000495295 -0.04339591609804254 0.4814034794506274
5000990590 -0.03415269659538018 0.47797189888201264
5001485885 -0.02498453698660198 0.47404505390869944
5001981180 -0.016371139472252445 0.47042281062979446
5002476475 -0.008239568456223137 0.4666056570253874
5002971770 1.1129304766654968e-05 0.46271796446097524
5003467065 0.009319721132908998 0.4584007671004848
5003962360 0.017237456074278606 0.4540727734565735
5004457655 0.025594664737582207 0.44967639446258545
5004952950 0.034192697390129694 0.4453716717268291
5005448245 0.04212891075171923 0.4408388780920129
5005943540 0.04912190707890611 0.4359053341965926
5006438835 0.05892536004907206 0.4314850521715064
5006934130 0.066160675334303 0.4261267624403301
5007429425 0.07274420480979116 0.4204733701128709
5007924720 0.08218340889403694 0.4156609036420521
5008420015 0.08913915878848026 0.4102306773788051
5008915310 0.09590749168082287 0.404434262137664
5009410605 0.10422817382373308 0.39916616991946574
5009905900 0.11240319515529432 0.3932883566931674
5010401195 0.11898244093907506 0.38777128959956925
5010896490 0.1261674428456708 0.381650541958056
5011391785 0.13290963831700778 0.37593164726307515
5011887080 0.14019639397922315 0.37007437411107513
5012382375 0.1466453930265025 0.36369223029989944
5012877670 0.15305841518075844 0.3575177412284048
5013372965 0.160206191633877 0.3506939066083808
5013868260 0.16651907249500877 0.3446635588219291
5014363555 0.1730125593511682 0.33812927258642095
5014858850 0.17933077639655062 0.3309424425426282
5015354145 0.18565032042955099 0.32448169589042664
5015849440 0.1918383334812365 0.31768072906293365
5016344735 0.19761220640257784 0.3104983019201379
5016840030 0.20345314239200793 0.30378371320272746
5017335325 0.2093860420741533 0.2965911046454781
5017830620 0.2145535624340961 0.2894063999778346
5018325915 0.2201355766308935 0.28271481865330744
5018821210 0.2254403719776555 0.27481352184948166
5019316505 0.23036885104681315 0.2681015729904175
5019811800 0.2359212338924408 0.2606421363981147
5020307095 0.2409067397054873 0.2530665130991685
5020802390 0.24590761724271273 0.24551002053838028
5021297685 0.25051110041768926 0.23791160316843735
5021792980 0.25525072687550593 0.23010171479300448
5022288275 0.25983212496104996 0.2224974624420467
5022783570 0.26419239765719366 0.21495988180762843
5023278865 0.26886796637585286 0.2065442580925791
5023774160 0.2728335794649626 0.19913122057914734
5024269455 0.27663771572865936 0.19131747201869362
5024764750 0.28070230076187536 0.18327269585509048
5025260045 0.28415156979309886 0.17543789665949971
5025755340 0.28811423402083547 0.16667481551044866
5026250635 0.29155265814379644 0.1587325577673159
5026745930 0.2950015554302617 0.15089010251195809
5027241225 0.2979043314331456 0.14344116417985214
5027736520 0.3015362761522594 0.13485212231937208
5028231815 0.3047856845353779 0.12584517778534637
5028727110 0.3072417739190553 0.11835000742422908
5029222405 0.30988672061970357 0.10989399764098619
5029717700 0.3125944639507093 0.10191513480324495
5030212995 0.31514502512781245 0.09331132314707104
5030708290 0.31744846231059026 0.08460180030057304
5031203585 0.31969584759912995 0.07709298439716038
5031698880 0.3216570286374343 0.0686015859246254
5032194175 0.3238616726900402 0.05992634574833669
5032689470 0.32579219654986735 0.051797523506377875
5033184765 0.3277957015915921 0.043225704447219244
5033680060 0.3290907160231942 0.034614574164152145
5034175355 0.33062079548835754 0.0272063523727028
5034670650 0.3317264741972873 0.018467063574414504
5035165945 0.33300592083680003 0.009707214261748288
5035661240 0.3343358384935479 0.0017548137785572755
5036156535 0.33513912244846944 -0.006815675204913867
5036651830 0.33621404672923844 -0.015235054992923611
5037147125 0.3366634218316329 -0.02354751360651694
5037642420 0.3376267379836032 -0.0316181546567302
5038137715 0.3380023319470255 -0.03988495253418621
5038633010 0.33836595321956436 -0.04860911439908178
5039128305 0.3384466375175275 -0.05637350031419804
5039623600 0.3386229402140567 -0.06481769445695375
5040118895 0.33887243898291336 -0.07309510715697941
5040614190 0.3384909818046971 -0.08125115499684685
5041109485 0.33848632479968827 -0.08961977495958931
5041604780 0.3379720182795274 -0.09795733580463811
5042100075 0.3380607805754009 -0.10571462935522984
5042595370 0.3373216704318398 -0.11392223442855634
5043090665 0.33647497233591583 -0.12203612256991236
5043585960 0.3359973054183157 -0.1298253983259201
5044081255 0.33538116279401275 -0.1378898401009409
5044576550 0.33414458287389653 -0.1458725160674045
5045071845 0.33305612520167704 -0.15358632410827436
5045567140 0.33218226150462504 -0.16171548790053317
5046062435 0.3305827253743222 -0.16984851423062777
5046557730 0.3291583594522978 -0.17752041942194888
5047053025 0.328140842287164 -0.18497707341846667
5047548320 0.32618765297688934 -0.19321093904344658
5048043615 0.32464312565954107 -0.2005745243085058
5048538910 0.322939910386738 -0.20825031948717018
5049034205 0.320951571590022 -0.21632917931205348
5049529500 0.3192243058430521 -0.22353780112768473
5050024795 0.31852726559889943 -0.22913265855688797
5050520090 0.3150577702020344 -0.238504979171251
5051015385 0.3129211193636844 -0.2458557094398298
5051510680 0.310052973659415 -0.2533726629457976
5052005975 0.3077114898907511 -0.2609399745338841
5052501270 0.3050237643091302 -0.2684341512228313
5052996565 0.3027068078517914 -0.27537643752600016
5053491860 0.30008860638267115 -0.2827266988001372
5053987155 0.2970887469617944 -0.28985003421181127
5054482450 0.2947221147386651 -0.2965210237001118
5054977745 0.29146039329077067 -0.30367312462706314
5055473040 0.28816295297522293 -0.31122773101455287
5055968335 0.28511324368025126 -0.31781584651846634
5056463630 0.28185589062540156 -0.3243263473636226
5056958925 0.2791045417911128 -0.3309391360533865
5057454220 0.27559060642593786 -0.33825290673657465
5057949515 0.2710755781123513 -0.3450777734580793
5058444810 0.26835840783621134 -0.35125602389636795
5058940105 0.2642252696187873 -0.35813096949928686
5059435400 0.26049905074270147 -0.3644731232994481
5059930695 0.2567634441350636 -0.37082709450470774
5060425990 0.2525558675590314 -0.3770357464489184
5060921285 0.2488626296582975 -0.38345970919257716
5061416580 0.2446769068115636 -0.3895824771178396
5061911875 0.24073290432754316 -0.39548132607811376
5062407170 0.23645650791494469 -0.4021060639306119
5062902465 0.23112758209830836 -0.4085513243549748
5063397760 0.22780224524046244 -0.41386255935618754
5063893055 0.22425084835604617 -0.41932721043887894
5064388350 0.21842473274783084 -0.4254679177936755
5064883645 0.21479436676753194 -0.43090482291422394
5065378940 0.21040421567465128 -0.4364439280409562
5065874235 0.20604537035289563 -0.44193728660282333
5066369530 0.20091759766402997 -0.4475163989945462
5066864825 0.1959817299717351 -0.45318964907997533
5067360120 0.19035608988059194 -0.45847874566128377
5067855415 0.18650566982595543 -0.4634765559121182
5068350710 0.18104649295932368 -0.4682947742311578
5068846005 0.17773813871960892 -0.4729763065513812
5069341300 0.17161198430939725 -0.47890005770482513
5069836595 0.16530264129764155 -0.4836339778021762
5070331890 0.16210220205156425 -0.48787131905555725
5070827185 0.15648899501875826 -0.4928579361815202
5071322480 0.15208214050845095 -0.4974351635104732
5071817775 0.14459190321596047 -0.5027518303770768
5072313070 0.1412263622409419 -0.5065903977343911
5072808365 0.1366747735362304 -0.5107646741365132
5073303660 0.12897295465594844 -0.515586721269708
5073798955 0.12539973306028465 -0.5194433331489563
5074294250 0.11739450418635418 -0.5242278889605874
5074789545 0.11459446737640783 -0.5277303551372728
5075284840 0.10811876623254073 -0.5318471412909659
5075780135 0.10341504216194153 -0.5360436063063773
5076275430 0.09698137366457989 -0.5398971375666166
5076770725 0.09162457444165882 -0.5436932977877165
5077266020 0.08597260674363688 -0.5469354328356291
5077761315 0.0806895070954373 -0.5510736735243547
5078256610 0.07517803185864498 -0.5549790231805098
5078751905 0.06867489650061256 -0.559072428628018
5079247200 0.06436174284470708 -0.5613254371442293
5079742495 0.05740797166761599 -0.5651596659108212
5080237790 0.051929095661953875 -0.5682129201136137
5080733085 0.04608184354085671 -0.5714614265843442
5081228380 0.039900405626547966 -0.5747524186184532
5081723675 0.0346213608588043 -0.577704297868829
5082218970 0.027692110326729323 -0.5809543822941027
5082714265 0.022511036870510953 -0.5838595346400612
5083209560 0.01657987768320661 -0.5870541083185297
5083704855 0.01014529364673715 -0.5891508930607846
5084200150 0.005588155141786525 -0.5919105410575867
5084695445 -0.001676714881078193 -0.5945269277221278
5085190740 -0.007515675437293555 -0.59717395431117
5085686035 -0.014129159628952804 -0.5991220787951821
5086181330 -0.018664059278212096 -0.6018769050899305
5086676625 -0.025751318488466114 -0.604115301056912
5087171920 -0.03197294208956392 -0.6064904457644412
5087667215 -0.03797234751676258 -0.608857976762872
5088162510 -0.04325011254925477 -0.6103700838590923
5088657805 -0.05077623575925827 -0.6117911370177018
5089153100 -0.05741585653863455 -0.6141404007610521
5089648395 -0.06363759287878086 -0.6159560617647672
5090143690 -0.06964859131135438 -0.617470804013704
5090638985 -0.07541682414318386 -0.6192343046790675
5091134280 -0.08178868654527162 -0.6206043613584418
5091629575 -0.08899288859806563 -0.6221582324881303
5092124870 -0.09379427527126513 -0.6237866251092208
5092620165 -0.09988061299449519 -0.6249148375109622
5093115460 -0.10741412914112995 -0.6260581267507452
5093610755 -0.11360184573813488 -0.6276325207007559
5094106050 -0.11969419059000518 -0.627904967257851
5094601345 -0.12601022932090258 -0.6289339034180892
5095096640 -0.13162270737321755 -0.6299207586991159
5095591935 -0.13909251831079783 -0.6306543350219727
5096087230 -0.1438520958549098 -0.6316151211136266
5096582525 -0.1505804108945947 -0.6324009707099513
5097077820 -0.1575180433298412 -0.632200328927291
5097573115 -0.16301990418057694 -0.6322989526547884
5098068410 -0.1693904870434811 -0.6331214998897753
5098563705 -0.17559300833626798 -0.6333118363430625
5099059000 -0.1827992396919351 -0.6331558729472914
5099554295 -0.19016574636885994 -0.6330690007460745
5100049590 -0.19519655328047902 -0.634338727122859
5100544885 -0.2011751752150686 -0.6334235103506791
5101040180 -0.20691680672921633 -0.6340966193299544
5101535475 -0.21472746525940142 -0.6333196320031819
5102030770 -0.2207147761395103 -0.6332109539132369
5102526065 -0.22714007136068845 -0.632339502635755
5103021360 -0.2319496673972983 -0.6323614340079459
5103516655 -0.24036285124327006 -0.6311955891157451
5104011950 -0.2439911475307063 -0.631631757083692
5104507245 -0.252148123163926 -0.6297849040282401
5105002540 -0.2562801053649501 -0.6296107800383317
5105497835 -0.26292173172298233 -0.6286069342964574
5105993130 -0.26965051575710897 -0.6272136663135729
5106488425 -0.2745932607274306 -0.6267653170384859
5106983720 -0.28228993008011266 -0.6250011418995104
5107479015 -0.2862629451249775 -0.6244789173728541
5107974310 -0.2925052156573848 -0.6236045862499037
5108469605 -0.2986973320183001 -0.6218616303644682
5108964900 -0.304825949041467 -0.6205534809514096
5109460195 -0.31068548716996847 -0.6188613929246601
5109955490 -0.31596556619593974 -0.6185400172283775
5110450785 -0.32201871119047465 -0.6160348151859484
5110946080 -0.3289025488652681 -0.6138879060745239
5111441375 -0.3332422203139255 -0.6126629898422643
5111936670 -0.3399994969367981 -0.6101996396717272
5112431965 -0.34491195490485743 -0.6085650669900995
5112927260 -0.350488061967649 -0.6064063404735766
5113422555 -0.3566840996867732 -0.6049678827586927
5113917850 -0.3622702940514213 -0.6024166816159299
5114413145 -0.36750865453167963 -0.6004312571726347
5114908440 -0.37317889458254766 -0.597938807387101
5115403735 -0.3787939360267238 -0.594987037934755
5115899030 -0.38324876835471705 -0.5927439959425675
5116394325 -0.38992002920100566 -0.5907384972823294
5116889620 -0.39441408609089096 -0.5886250451991433
5117384915 -0.40105710531535904 -0.5846709671773409
5117880210 -0.40540786950211777 -0.5826912930137232
5118375505 -0.41067280110559967 -0.5800305699047289
5118870800 -0.41555413290073995 -0.577394005499388
5119366095 -0.42052110245353297 -0.5750942606674997
5119861390 -0.4265118115826657 -0.5710008614941647
5120356685 -0.4314792595411602 -0.5678665732082567
5120851980 -0.43508865017639964 -0.5652441225553814
5121347275 -0.4418278524750157 -0.5615572145110682
5121842570 -0.44582329612029226 -0.5587955399563438
5122337865 -0.45068606263712835 -0.5556321081362272
5122833160 -0.4554456958645268 -0.5521970548127827
5123328455 -0.4601735409937407 -0.5487223926343416
5123823750 -0.4658615683254443 -0.5451201106372633
5124319045 -0.46985625436431483 -0.5416800379753113
5124814340 -0.47429172302547257 -0.5393006582009164
5125309635 -0.47853093398244756 -0.5345726075925326
5125804930 -0.4836607465618535 -0.5309193604870847
5126300225 -0.4877063302617324 -0.527335010076824
5126795520 -0.49255352741793584 -0.5226727724075317
5127290815 -0.4964639967993686 -0.519410186692288
5127786110 -0.5009036613138098 -0.5157685750409177
5128281405 -0.5047754331638938 -0.5121333881428367
5128776700 -0.5093203218359696 -0.5073634637029547
5129271995 -0.5133757214797171 -0.5033217072486877
5129767290 -0.517619810606304 -0.4993562682678825
5130262585 -0.5208061870775724 -0.4955913000985196
5130757880 -0.5253156705906517 -0.49117727656113475
5131253175 -0.5293633561385306 -0.4860187753250724
5131748470 -0.5328369140625 -0.4826515034625405
5132243765 -0.53690526046251 -0.47754899137898493
5132739060 -0.5397187816469293 -0.47395313884082596
5133234355 -0.5442160305223966 -0.46823050630720037
5133729650 -0.5473850620420355 -0.4642060963731063
5134224945 -0.5512252387247587 -0.4591910995935139
5134720240 -0.5542156790432177 -0.4544433653354645
5135215535 -0.5562975061567206 -0.4515178250639062
5135710830 -0.5613011937392386 -0.44433978984230443
5136206125 -0.5638565076024908 -0.44172768216384084
5136701420 -0.5681854423723722 -0.4342004656791687
5137196715 -0.5695762069601762 -0.4319721083892019
5137692010 -0.5731810394086336 -0.4260241875523015
5138187305 -0.5767446223058199 -0.4195847809314728
5138682600 -0.5782780866873892 -0.41642457560489055
5139177895 -0.5817062760654249 -0.4106081159491288
5139673190 -0.5832452742676986 -0.40734897946056564
5140168485 -0.5884872329862494 -0.3990728259086609
5140663780 -0.5897801706665441 -0.3950054206346211
5141159075 -0.5926356315612793 -0.38870837970783834
5141654370 -0.5930484000005221 -0.38722391034427445
5142149665 -0.5958784003006784 -0.38056142079202754
5142644960 -0.5989951805064553 -0.3741796691166727
5143140255 -0.6009530268217388 -0.3698730562862597
5143635550 -0.6035585905376234 -0.36288149105875117
5144130845 -0.6048844142964012 -0.3587617011446702
5144626140 -0.6051276702629892 -0.3559778222912236
5145121435 -0.609270597759046 -0.34692412771676717
5145616730 -0.6102820132908068 -0.34235807782725286
5146112025 -0.6119448040661059 -0.3366370467763198
5146607320 -0.6139710294572931 -0.33105830142372533
5147102615 -0.6140057883764568 -0.32775465281386124
5147597910 -0.6164398475697166 -0.3199862539768219
5148093205 -0.6178640597744992 -0.3149283418529912
5148588500 -0.6192303268533004 -0.3103091857935253
5149083795 -0.6196868858839336 -0.3049270244021165
5149579090 -0.6215057780868128 -0.2980767378681584
5150074385 -0.6235565292207819 -0.29002161559305695
5150569680 -0.6228966179646944 -0.28716593039663213
5151064975 -0.6237871050834656 -0.2818617365862194
5151560270 -0.6245122269580239 -0.2762344181537628
5152055565 -0.6253234179396379 -0.27055972814559937
5152550860 -0.6255029000734028 -0.26503393995134455
5153046155 -0.6263561719342282 -0.259141333793339
5153541450 -0.6267726201760141 -0.2535951012059262
5154036745 -0.6270492139615511 -0.24804531665224777
5154532040 -0.627198012251603 -0.24253902937236585
5155027335 -0.6274240079678988 -0.23681827046369253
5155522630 -0.6274281708817733 -0.23097447580412814
5156017925 -0.6274887699829904 -0.22550881457956215
5156513220 -0.6275359423537004 -0.21994055964444814
5157008515 -0.6272366454726771 -0.214180483629829
5157503810 -0.6271611326619199 -0.20848778909758517
5157999105 -0.6267207766834059 -0.20272868165844365
5158494400 -0.6264008628694635 -0.19744296685645454
5158989695 -0.6258571524369089 -0.19158156451426053
5159484990 -0.6250038711648238 -0.18626946367715536
5159980285 -0.6246599774611624 -0.1797690987586975
5160475580 -0.6237693836814479 -0.17410362080523842
5160970875 -0.622681200504303 -0.16896372955096395
5161466170 -0.6218294940496746 -0.16318810456677488
5161961465 -0.6206972379433481 -0.1573367605083867
5162456760 -0.6196463609996595 -0.15149333602503726
5162952055 -0.618431806564331 -0.14573471561858528
5163447350 -0.617072183834879 -0.14070452749729156
5163942645 -0.6158250507555509 -0.1344588500888724
5164437940 -0.6142177393561915 -0.12939623782509252
5164933235 -0.6121489091923362 -0.12478295007818624
5165428530 -0.6107056235012255 -0.11767707333752983
5165923825 -0.6088504446180243 -0.11341138497779243
5166419120 -0.6069940171743694 -0.10719161441451625
5166914415 -0.6046273426005715 -0.10367773826185026
5167409710 -0.6028954951386702 -0.09597071142573106
5167905005 -0.6006851635481182 -0.09157123220594306
5168400300 -0.5982709432903089 -0.08629573450276726
5168895595 -0.5961530710521498 -0.08017066277955708
5169390890 -0.5935013294219971 -0.07594041330249686
5169886185 -0.5912677959391945 -0.07113910584073317
5170381480 -0.5884554448880648 -0.066318657837416
5170876775 -0.5860024408290261 -0.059543193759102574
5171372070 -0.5832752114848087 -0.055154811394842046
5171867365 -0.5805801811971163 -0.04999576528605662
5172362660 -0.577503568247745 -0.045698248046009166
5172857955 -0.574692754369033 -0.040381810774928646
5173353250 -0.5717481876674452 -0.03371782081299707
5173848545 -0.5683582268263164 -0.029855130534423024
5174343840 -0.5650387155382257 -0.02519086660131028
5174839135 -0.5617738115160089 -0.02286855474506554
5175334430 -0.5586878720082735 -0.016215634973425614
5175829725 -0.554935988626982 -0.01095869720570351
5176325020 -0.5513944437629298 -0.006534421081213574
5176820315 -0.5478001644736842 -0.001959115364833882
5177315610 -0.5440732523014671 0.002480236421290197
5177810905 -0.5400979205181724 0.005862417091664515
5178306200 -0.5362734669133237 0.011969588942041523
5178801495 -0.5324025718789351 0.014415803561477284
5179296790 -0.5284560479615864 0.01952090467277326
5179792085 -0.5243344463800129 0.023474082840900672
5180287380 -0.5201124423428586 0.027362767705007604
5180782675 -0.5158824795170834 0.03183940543155921
5181277970 -0.5115872213715001 0.03689782909656826
5181773265 -0.5071346257862291 0.03859583955062063
5182268560 -0.5030052787379214 0.04308215842435235
5182763855 -0.49843897160730866 0.046815912974508184
5183259150 -0.4936504458126269 0.051288417099337825
5183754445 -0.4891984776446694 0.054276483231469205
5184249740 -0.48453463535559804 0.05838669013035925
5184745035 -0.4797639956599788 0.06106752725808244
5185240330 -0.47500211941568476 0.06465629409802587
5185735625 -0.4703017426164527 0.06802232132146233
5186230920 -0.4656054989287728 0.0706550314238197
5186726215 -0.4606089513552816 0.07367710377040662
5187221510 -0.45545155280514765 0.07687138883691085
5187716805 -0.45046609169558477 0.08000914438774712
5188212100 -0.44543061444633886 0.08273853283179433
5188707395 -0.4407819085999539 0.08518476196025547
5189202690 -0.4354131723705091 0.08826997013468492
5189697985 -0.4302754464902376 0.09076120273063057
5190193280 -0.4248237860830207 0.09337035566568375
5190688575 -0.4195905923843384 0.09580327452797639
5191183870 -0.41412270696539627 0.09827946048033864
5191679165 -0.40908216332134445 0.10050978276290391
5192174460 -0.4034414103156642 0.10251354622213464
5192669755 -0.3981381011636634 0.10498385523494921
