# HZ S RI R 50
5000000000 -0.5583257298720511 0.07987722558410544
5000495295 -0.5563308063306307 0.08000090482987855
5000990590 -0.5539894449083429 0.08226796514109562
5001485885 -0.5510669068286294 0.08837841960944627
5001981180 -0.5491679091202585 0.08918952118409307
5002476475 -0.5463873242077074 0.09349063274107482
5002971770 -0.5439971528555217 0.09501097312099055
5003467065 -0.5412682796779432 0.09704960412100742
5003962360 -0.5382732278422305 0.10149964925489928
5004457655 -0.5359921016191181 0.10368125140666962
5004952950 -0.5334924522199129 0.1061666956857631
5005448245 -0.5304947746427435 0.11006278583877965
5005943540 -0.5279085416542856 0.1120915412902832
5006438835 -0.5248003852994818 0.11540774491272475
5006934130 -0.5225699167502554 0.11660147654382806
5007429425 -0.5189425757056788 0.121218241751194
5007924720 -0.5162726546588697 0.12298487911098882
5008420015 -0.5136264186156424 0.1254103297465726
5008915310 -0.5108813455230311 0.12729093628494362
5009410605 -0.5072061513599596 0.13043469190597534
5009905900 -0.5043020781717802 0.13402316915361503
5010401195 -0.5015209034869546 0.13553198936738467
5010896490 -0.4982627379266839 0.13798775484687403
5011391785 -0.49556868641000046 0.13983803987503052
5011887080 -0.4919234153471495 0.14385545802743813
5012382375 -0.4890015454668748 0.1450898451240439
5012877670 -0.485787476363935 0.14750397989624425
5013372965 -0.4823811760074214 0.1493814407210601
5013868260 -0.47935606460822255 0.15179848906240964
5014363555 -0.4758937202001873 0.1540912860318234
5014858850 -0.47252220856515986 0.1562393456697464
5015354145 -0.4692789567144294 0.15862551802083066
5015849440 -0.4659709052035683 0.16053966393596247
5016344735 -0.4624655434959813 0.1622891653525202
5016840030 -0.4587034316439378 0.1645246650043287
5017335325 -0.4555008772172426 0.16630048579291293
5017830620 -0.4518906630967793 0.16801910808211878
5018325915 -0.44826677441596985 0.17024427024941696
5018821210 -0.44456616828316137 0.17224140857395373
5019316505 -0.4412825782048075 0.1739472558623866
5019811800 -0.43762430078104925 0.17560744599292152
5020307095 -0.4339267235053213 0.17721299748671682
5020802390 -0.4305670433922818 0.17847870603988045
5021297685 -0.42707854823062297 0.18014938266653763
5021792980 -0.42329577866353485 0.1820584221890098
5022288275 -0.41903072752450643 0.1835466842902334
5022783570 -0.41583511703892756 0.18491831970842262
5023278865 -0.4120519474933022 0.18660458294968857
5023774160 -0.4081618911341617 0.1877610605013998
5024269455 -0.40440023572821365 0.1893363947931089
5024764750 -0.40081316232681274 0.19048580370451274
5025260045 -0.3970353995498858 0.19128692699106117
5025755340 -0.3930964454224235 0.193267412875828
5026250635 -0.3893426405756097 0.1942050543270613
5026745930 -0.3854576804135975 0.19498052095112048
5027241225 -0.3814497166558316 0.19626832478924802
5027736520 -0.37784133773101003 0.19688613320651807
5028231815 -0.37453059773696096 0.1974651735079916
5028727110 -0.36983665667082133 0.19926934179506803
5029222405 -0.36585229792092977 0.2007859529633271
5029717700 -0.36239581202205856 0.20037871050207237
5030212995 -0.3582336918303841 0.2013783784289109
5030708290 -0.3538583328849391 0.20302661312253853
5031203585 -0.3509055987784737 0.20220993302370371
5031698880 -0.34614361430469315 0.20398126464141042
5032194175 -0.3424531284131502 0.20434334403590151
5032689470 -0.3389328122138977 0.2042711698695233
5033184765 -0.3341688654924694 0.20568427286650004
5033680060 -0.3307488686160037 0.205303934059645
5034175355 -0.32621620517028005 0.2065675321378206
5034670650 -0.3220758877302471 0.20694261710894735
5035165945 -0.31858943794903 0.20695764296933225
5035661240 -0.31449058495069804 0.20714127782144046
5036156535 -0.31045860679526077 0.2070988495098917
5036651830 -0.3066689074039459 0.2075150938410508
5037147125 -0.3026832279406096 0.20719590469410545
5037642420 -0.29868328100756597 0.20706968950597862
5038137715 -0.2946110242291501 0.20769404267009936
5038633010 -0.2904086520797328 0.20762117599186145
5039128305 -0.28672946597400467 0.20744508897003375
5039623600 -0.28247537110981186 0.20733318517082616
5040118895 -0.2789815021188636 0.20656983475936086
5040614190 -0.2748242193146756 0.20673257739920364
5041109485 -0.27081803428499324 0.20647648604292618
5041604780 -0.26709737432630437 0.20586536275713066
5042100075 -0.26262219956046656 0.20604278774637924
5042595370 -0.2588078614912535 0.20522242784500122
5043090665 -0.25487669988682393 0.20506541666231656
5043585960 -0.2514468305989316 0.20410658811268054
5044081255 -0.24742458996019864 0.20309844848356748
5044576550 -0.24286796466300362 0.20354158470505163
5045071845 -0.23927119531129537 0.20252352560821332
5045567140 -0.23532859510497042 0.2018900568548002
5046062435 -0.23120290354678505 0.20116240335138222
5046557730 -0.22736995000588267 0.20025105931256948
5047053025 -0.22381080373337395 0.19917156978657372
5047548320 -0.21985951536580137 0.19824936829115214
5048043615 -0.21596425222723106 0.19721034247624247
5048538910 -0.2123008833119744 0.19641205668449402
5049034205 -0.20835199324708237 0.19558388935892204
5049529500 -0.20450960648687264 0.19439738988876343
5050024795 -0.20185672766283938 0.1917894466927177
5050520090 -0.19670859685069636 0.1920989453792572
5051015385 -0.19314775968852796 0.19116435317616715
5051510680 -0.1891806855013496 0.1900253342954736
5052005975 -0.18564229027221077 0.1883170557649512
5052501270 -0.1821255032953463 0.18706123687719045
5052996565 -0.17808945163300163 0.18571301275178007
5053491860 -0.17454705897130465 0.1844324053902375
5053987155 -0.1710895260697917 0.18316779011174253
5054482450 -0.1676541268825531 0.18145838144578433
5054977745 -0.16385150975302645 0.1799524387246684
5055473040 -0.16037521707384209 0.17840593896414103
5055968335 -0.15696843125318227 0.17686538319838674
5056463630 -0.15348297906549355 0.17512298728290357
5056958925 -0.14960298569578873 0.1736552119255066
5057454220 -0.14610035011642858 0.17200143321564323
5057949515 -0.14287208255968595 0.17023475860294543
5058444810 -0.13931786465017418 0.16844400841938822
5058940105 -0.13593287844406932 0.16674454745493436
5059435400 -0.13267761155178673 0.16486360916965886
5059930695 -0.12936383642648397 0.16316835974392138
5060425990 -0.12593750890932584 0.16121251096850947
5060921285 -0.12269746708242517 0.15904214193946437
5061416580 -0.11979187279939651 0.1573129327673661
5061911875 -0.11633806440391038 0.15524189252602427
5062407170 -0.11290785827134785 0.15335844692430997
5062902465 -0.1098781008469431 0.151407139081704
5063397760 -0.10658671079497588 0.1493465327902844
5063893055 -0.10331940023522627 0.1471260095897474
5064388350 -0.10043328922045858 0.1447361723372811
5064883645 -0.09717244301971636 0.1428822028009515
5065378940 -0.09422122491033454 0.14057377686626032
5065874235 -0.09098313552768607 0.13832167810515353
5066369530 -0.08794354882679488 0.1360332910951815
5066864825 -0.0848589574820117 0.13381270828999972
5067360120 -0.08188624876110177 0.1312153896218852
5067855415 -0.07868380021107824 0.12906757310817116
5068350710 -0.07584316793240999 0.12649311046851308
5068846005 -0.07293125869412172 0.12435081601142883
5069341300 -0.06994727136273134 0.12143376940175106
5069836595 -0.06708759853714391 0.11901195621804188
5070331890 -0.06428980748904378 0.11652453596654691
5070827185 -0.061567824333906174 0.11404398750317724
5071322480 -0.058809144716513786 0.11136845538490697
5071817775 -0.05628368944713944 0.10878454031128633
5072313070 -0.05371362402250892 0.10620439876067012
5072808365 -0.05102266037934705 0.10348194955210936
5073303660 -0.048261792055870355 0.10106909078987021
5073798955 -0.04601042149098296 0.0980787732099232
5074294250 -0.04323182784413036 0.09557671452823438
5074789545 -0.04121181996245133 0.0925466033973192
5075284840 -0.03856478474642101 0.08985067747141186
5075780135 -0.03612180191435312 0.087320833613998
5076275430 -0.034036792618663686 0.08447326955042388
5076770725 -0.03183587277798276 0.08151225549610037
5077266020 -0.02935158755434187 0.07870880828091972
5077761315 -0.027068549080898886 0.07585446497327403
5078256610 -0.024694276581469336 0.07314598991682655
5078751905 -0.02267037635963214 0.0699928500934651
5079247200 -0.02018847492964644 0.06722653461130042
5079742495 -0.01863888357030718 0.06421484366843574
5080237790 -0.016135359182953835 0.06137024199492053
5080733085 -0.013925462863162943 0.0583998080539076
5081228380 -0.012140628587650625 0.05547423307832919
5081723675 -0.009984400319425683 0.05238095141555134
5082218970 -0.008226056485191771 0.04940247065142581
5082714265 -0.006159219841815923 0.046401681868653545
5083209560 -0.004538258635684063 0.04348499504359145
5083704855 -0.0027481324382518466 0.040609877556562424
5084200150 -0.000814211162689485 0.037616232312039324
5084695445 0.0008515909706291399 0.03463489307384742
5085190740 0.0024408110368408656 0.03157760261705047
5085686035 0.004403833888078991 0.028639717909850572
5086181330 0.006075135873336541 0.025714897207523648
5086676625 0.007758048264996002 0.022523342974876102
5087171920 0.009395595247808256 0.01954726933648712
5087667215 0.011024474754537406 0.01636513518659692
5088162510 0.012748267256507748 0.01347110121461906
5088657805 0.014430432433360502 0.010356733918582139
5089153100 0.015857036617633543 0.007235277738226087
5089648395 0.017496088029522645 0.004039743179945569
5090143690 0.01885972887669739 0.0011510456863202546
5090638985 0.020517583936452866 -0.002070512916696699
5091134280 0.02210150737511484 -0.005279150154245527
5091629575 0.023510549805666272 -0.008498061252267737
5092124870 0.024547114380096133 -0.01160552019351407
5092620165 0.026219284946196957 -0.014992767797881052
5093115460 0.027365428836722123 -0.018130587904076827
5093610755 0.028835447505116463 -0.021262614350569874
5094106050 0.029880343299163014 -0.02451366323389505
5094601345 0.031060841914854552 -0.027787756468904645
5095096640 0.03241952273406481 -0.030968218747722476
5095591935 0.033590986148307196 -0.034465636665883814
5096087230 0.03486091074974913 -0.03746811555404412
5096582525 0.03589393394558053 -0.04110985151246974
5097077820 0.03728559044630904 -0.04429214683018232
5097573115 0.03839714138915664 -0.04756075124207296
5098068410 0.03934082486911824 -0.0510351777468857
5098563705 0.040305054109347496 -0.05448473715468457
5099059000 0.04130860163193 -0.05758739145178544
5099554295 0.042257304058263175 -0.06107280050453387
5100049590 0.044577700919226595 -0.06521131019843251
5100544885 0.04533332507861288 -0.06866520800088581
5101040180 0.04620216806468211 -0.07231865391919487
5101535475 0.04716150835156441 -0.07540786462394815
5102030770 0.048045407784612554 -0.07895197758549138
5102526065 0.04873758181929588 -0.08265959000901173
5103021360 0.04938897353253866 -0.08592135733679722
5103516655 0.049995720974708856 -0.08942408938156932
5104011950 0.050834968293968 -0.09272380330060657
5104507245 0.051012671307513587 -0.09654019498511364
5105002540 0.051665862728106346 -0.09972344652602547
5105497835 0.05244546814968711 -0.10324223300344065
5105993130 0.05296031013131142 -0.10671795786995637
5106488425 0.05349824714817499 -0.1100598189391588
5106983720 0.053470597651443984 -0.1137968427256534
5107479015 0.05418131108346738 -0.11701382578987825
5107974310 0.05445283220002526 -0.12040782837491286
5108469605 0.054894186556339264 -0.12399042084028847
5108964900 0.05549928938087664 -0.12741968506260923
5109460195 0.05548886248939916 -0.1309229386480231
5109955490 0.055552777491117776 -0.1345433467312863
5110450785 0.05609030452998061 -0.13769076921437917
5110946080 0.055936186721450405 -0.14139214471766823
5111441375 0.056573203911906796 -0.14448389959962746
5111936670 0.05659835217030425 -0.14808344448867597
5112431965 0.05639278633814109 -0.15136581894598508
5112927260 0.05632847469103964 -0.15508778942258736
5113422555 0.05626603039471727 -0.15852256197678416
5113917850 0.05678718791980492 -0.16183956751697942
5114413145 0.056106622477895336 -0.16548406058236173
5114908440 0.05611315683314675 -0.16886909462903676
5115403735 0.05609841664370738 -0.17205915717702164
5115899030 0.05581792934160484 -0.1756940107596548
5116394325 0.05557864649515403 -0.17894480181367775
5116889620 0.05512714778122149 -0.18227906760416532
5117384915 0.055663659188308214 -0.18567398112071187
5117880210 0.05486894202859778 -0.18918399512767792
5118375505 0.05438901934968798 -0.19238680914828651
5118870800 0.053896243242841015 -0.19578619771882108
5119366095 0.05327091503300165 -0.19900350743218473
5119861390 0.05317242129852897 -0.20238196300832847
5120356685 0.052649433479497305 -0.20554194168040626
5120851980 0.05200259211032014 -0.20904844685604698
5121347275 0.05157096350663587 -0.21215862271032834
5121842570 0.05119593068957329 -0.21570032835006714
5122337865 0.050692569464445114 -0.21866050911577126
5122833160 0.049784642301107705 -0.22199157821504692
5123328455 0.04930126216066511 -0.22539853500692467
5123823750 0.04836497553869298 -0.228379236240136
5124319045 0.047567247364081834 -0.23181793407389992
5124814340 0.04739494327651827 -0.23488137910240575
5125309635 0.046281529688521436 -0.23827594597088664
5125804930 0.04535702478728796 -0.24127578343215741
5126300225 0.04471189744378391 -0.24462246737982096
5126795520 0.043518716371373126 -0.24791266651530014
5127290815 0.04272323042938584 -0.2509049835957979
5127786110 0.04178023808880856 -0.2539965243715989
5128281405 0.040707931314644064 -0.25724226393197713
5128776700 0.03970054556664668 -0.2602829995908235
5129271995 0.038796529958122654 -0.263343555362601
5129767290 0.03794272851787115 -0.26646911313659266
5130262585 0.036593637576228695 -0.2695087116015585
5130757880 0.03536734004553996 -0.2728113359526584
5131253175 0.034376184014897594 -0.2754426488750859
5131748470 0.03304434253981239 -0.27849449452600983
5132243765 0.03217648891241927 -0.28140674453032644
5132739060 0.030318821633332653 -0.28422911700449494
5133234355 0.029392558002942486 -0.2876436710357666
5133729650 0.028090678253456167 -0.2901737297836103
5134224945 0.026588249167329388 -0.2932141391854537
5134720240 0.025569143165883264 -0.29580352965154144
5135215535 0.02412803971061581 -0.2989729548755445
5135710830 0.02220362120945203 -0.3013157938656054
5136206125 0.02100413253432826 -0.3044907936924382
5136701420 0.01974667000927423 -0.30727345849338333
5137196715 0.018378555676654765 -0.3100476406122509
5137692010 0.017215857870484654 -0.31276802326503556
5138187305 0.015277248562166565 -0.3152017938463311
5138682600 0.013971659697984395 -0.3180260281813772
5139177895 0.012251265984224645 -0.3204626393945594
5139673190 0.010714199197919745 -0.3234355606530842
5140168485 0.009360778096475099 -0.32558236937773855
5140663780 0.007704867785306354 -0.32863822108820867
5141159075 0.005613255020427077 -0.3308917048730348
5141654370 0.003379769574262594 -0.333517545147946
5142149665 0.002469590129820924 -0.3360369691723271
5142644960 0.0014875215527258422 -0.3386293947696686
5143140255 -0.0006656565850502567 -0.3411222617877157
5143635550 -0.0023638841352964703 -0.3436586088255832
5144130845 -0.004859517475492076 -0.3456483216662156
5144626140 -0.006243530219714893 -0.34796684352975144
5145121435 -0.007570445243465273 -0.35051277907271133
5145616730 -0.009373043418714875 -0.3529855671681856
5146112025 -0.012607507946852007 -0.3552636927679965
5146607320 -0.013676550925562256 -0.35738114620509903
5147102615 -0.014176802121494947 -0.35966904382956655
5147597910 -0.01774365258844275 -0.3616238628563128
5148093205 -0.018806468499334233 -0.36407814841521413
5148588500 -0.02037544264213035 -0.36621302993674026
5149083795 -0.021965959648552694 -0.36829424218127604
5149579090 -0.026018672769791203 -0.37010238201994644
5150074385 -0.02853119481158884 -0.37214695466192144
5150569680 -0.027281744307593295 -0.37452583407100876
5151064975 -0.03000921569764614 -0.3763829752018577
5151560270 -0.03173886670878059 -0.3783453200992785
5152055565 -0.03370407380555805 -0.38060391262957927
5152550860 -0.03583153945050741 -0.3828334055448833
5153046155 -0.036389318932043876 -0.38448628469517354
5153541450 -0.03925554611180958 -0.3864735223745045
5154036745 -0.0416481092964348 -0.3881161259977441
5154532040 -0.04339401541571868 -0.39025558139148514
5155027335 -0.04479669269762541 -0.3922154526961477
5155522630 -0.0466855368331859 -0.3940260849500957
5156017925 -0.04929620478498308 -0.39567094884420695
5156513220 -0.050287767264403795 -0.3976625188400871
5157008515 -0.054224295835745964 -0.3990031245507692
5157503810 -0.05506727687622372 -0.40091426905832794
5157999105 -0.057066327255023155 -0.4028999381943753
5158494400 -0.05863060410085477 -0.4048091471195221
5158989695 -0.0607773542012039 -0.4066462328559474
5159484990 -0.0628535088739897 -0.4081777993001436
5159980285 -0.06470479110353872 -0.4098270927604876
5160475580 -0.06636302722127814 -0.41148653783296285
5160970875 -0.0689647542802911 -0.41325128235315023
5161466170 -0.07092026228967466 -0.4146862861357237
5161961465 -0.07299993814606416 -0.4162913325585817
5162456760 -0.07547073262302499 -0.4178705089970639
5162952055 -0.07716069723430433 -0.41947487310359355
5163447350 -0.07924105305420726 -0.4211772460686533
5163942645 -0.0808097735831612 -0.4229057666502501
5164437940 -0.08287773791112397 -0.42405937063066584
5164933235 -0.08539392171721709 -0.42578929035287155
5165428530 -0.08743260683197725 -0.42715530646474736
5165923825 -0.0891303749460923 -0.4289484824004926
5166419120 -0.09151792447817952 -0.4300538787716313
5166914415 -0.09343822849424262 -0.4319211934742175
5167409710 -0.09624077144422029 -0.43274874749936554
5167905005 -0.09808956831693649 -0.4343854408515127
5168400300 -0.1003037408778542 -0.4359231544168372
5168895595 -0.10282453816188009 -0.4368914883387716
5169390890 -0.10428959601803829 -0.4383779466152191
5169886185 -0.10718379993187754 -0.43937070903025177
5170381480 -0.1087693034818298 -0.4412037149855965
5170876775 -0.11114245496298138 -0.44235701466861527
5171372070 -0.11354017649826251 -0.44343727827072144
5171867365 -0.11487955913731926 -0.44490154950242294
5172362660 -0.1167658963485768 -0.4463363274147636
5172857955 -0.11990408873871754 -0.4473705056466554
5173353250 -0.1212389327977833 -0.4488247805520108
5173848545 -0.1250599728603112 -0.4493894028036218
5174343840 -0.12687762552186063 -0.45133709436968755
5174839135 -0.12864677294304497 -0.4519140892907193
5175334430 -0.1307549547207983 -0.4532461244809
5175829725 -0.1329773076270756 -0.45443887302750036
5176325020 -0.13540720625927574 -0.4553512915184623
5176820315 -0.13718279255063912 -0.4564657101505681
5177315610 -0.13985917991713473 -0.4575924685126857
5177810905 -0.1422020424353449 -0.45838814346413864
5178306200 -0.14386403090075442 -0.45972344122434916
5178801495 -0.14570907777861544 -0.4604813613389668
5179296790 -0.14889957010746002 -0.4614796811028531
5179792085 -0.15227451371519188 -0.4621675438002536
5180287380 -0.1544142694849717 -0.4629538325886977
5180782675 -0.15497880389815882 -0.4642722449804607
5181277970 -0.15736892113560125 -0.46529772720838847
5181773265 -0.16100123132530011 -0.4658550682820772
5182268560 -0.16340572034057818 -0.4667865414368479
5182763855 -0.16611627920677788 -0.4672303042913738
5183259150 -0.1664575495217976 -0.4688106351777127
5183754445 -0.17051447065253006 -0.46857506507321406
5184249740 -0.1706804915478355 -0.47054116976888555
5184745035 -0.17504348566657618 -0.47063258917708145
5185240330 -0.17671609081720052 -0.47148600220680237
5185735625 -0.17959847418885483 -0.47195851332262945
5186230920 -0.18255964862672905 -0.47235928554283946
5186726215 -0.18225002367245524 -0.47366680597004135
5187221510 -0.18762943932884618 -0.4736722143072831
5187716805 -0.1889749161506954 -0.4745707355047527
5188212100 -0.19221694689047963 -0.4746018993227105
5188707395 -0.19345649214167343 -0.47589310219413355
5189202690 -0.19663009361216896 -0.4757533543988278
5189697985 -0.1991301461269981 -0.4760609331883882
5190193280 -0.20134999250110827 -0.4765998140761727
