# HZ S RI R 50
5000000000 -0.467698230555183 -0.5950581400017989
5000495295 -0.4723957259404032 -0.5931972233872664
5000990590 -0.4784672919072603 -0.590265016806753
5001485885 -0.48488331468481766 -0.5868988099851107
5001981180 -0.4902236038132718 -0.584008348615546
5002476475 -0.4957537776545474 -0.5814918875694275
5002971770 -0.5027439249189276 -0.5771781613952235
5003467065 -0.5069950975869831 -0.5744508379384091
5003962360 -0.5136950423842982 -0.5708829697809721
5004457655 -0.5181117904813666 -0.5686590608797575
5004952950 -0.5241754870665701 -0.5649456256314328
5005448245 -0.5297288141752544 -0.5614683502598813
5005943540 -0.5353459182538485 -0.5577543942551864
5006438835 -0.5400275619406449 -0.555148814853869
5006934130 -0.5458678916880959 -0.5509399803061235
5007429425 -0.5508633224587691 -0.5471818980417753
5007924720 -0.5571133368893674 -0.5429823398590088
5008420015 -0.5622988249126234 -0.5389569338999296
5008915310 -0.5670102050429896 -0.535083111963774
5009410605 -0.5723275322663156 -0.5315093429465043
5009905900 -0.5773272137892874 -0.5279734636607923
5010401195 -0.582235270424893 -0.5239902860239932
5010896490 -0.5876876617732801 -0.519714377428356
5011391785 -0.5926750114089564 -0.5153593922916212
5011887080 -0.5974921490016737 -0.5111138601052133
5012382375 -0.6021019251723039 -0.5066993707104733
5012877670 -0.6064928424985785 -0.5025710432152999
5013372965 -0.6118424691651997 -0.49744319602062825
5013868260 -0.6171719933810987 -0.4931417734999406
5014363555 -0.621401564071053 -0.48891948555645187
5014858850 -0.6258643896956193 -0.4837712096540551
5015354145 -0.6306679750743666 -0.4792994433327725
5015849440 -0.6355980383722406 -0.4740892413415407
5016344735 -0.6398004764004758 -0.4698737702871624
5016840030 -0.6440728714591578 -0.4650416060497886
5017335325 -0.6484522097989133 -0.46063705965092305
5017830620 -0.6529321827386555 -0.4549061624627364
5018325915 -0.6568053333382857 -0.45047940235388906
5018821210 -0.6609746907886705 -0.4447416678855294
5019316505 -0.6651930401199743 -0.44053651627741364
5019811800 -0.669261750422026 -0.43526587517637955
5020307095 -0.6734167619755393 -0.4298505453686965
5020802390 -0.6773289630287572 -0.42462988746793645
5021297685 -0.681199167904101 -0.41976227885798406
5021792980 -0.685727408057765 -0.4127206723941
5022288275 -0.6893985773387709 -0.40706627463039596
5022783570 -0.6927021741867065 -0.40276805978072316
5023278865 -0.6968062425914564 -0.3967085653229764
5023774160 -0.7003129877542195 -0.39163430897813095
5024269455 -0.7037526714174371 -0.3855030395482716
5024764750 -0.7074574200730575 -0.3796966828797993
5025260045 -0.7103393799380252 -0.37509557604789734
5025755340 -0.7145330874543441 -0.3675613152353387
5026250635 -0.7171911346284967 -0.3625194618576451
5026745930 -0.7205255909969932 -0.35652208798810053
5027241225 -0.7234271262821398 -0.35109296441078186
5027736520 -0.7268238193110416 -0.34457144454905864
5028231815 -0.7299945040753013 -0.33806458429286357
5028727110 -0.732574324858816 -0.3328637935613331
5029222405 -0.7354862031183744 -0.3267858420547686
5029717700 -0.737713663201583 -0.32093738882165207
5030212995 -0.7410426735877991 -0.31291176143445465
5030708290 -0.7436684558266088 -0.3079726711699837
5031203585 -0.745982891634891 -0.3018195974199395
5031698880 -0.7483015436875192 -0.2954171629328477
5032194175 -0.750961046469839 -0.28848988758890254
5032689470 -0.7530728860905296 -0.28293062981806305
5033184765 -0.7551557202088205 -0.27661451226786565
5033680060 -0.7572688021157917 -0.26975961264811066
5034175355 -0.759367679294787 -0.263286796055342
5034670650 -0.7619888907984683 -0.25493954043639333
5035165945 -0.7632119906576056 -0.2503039578073903
5035661240 -0.7650370880177146 -0.2430685319398579
5036156535 -0.7669630709447359 -0.2363179326057434
5036651830 -0.7689918718839946 -0.22973276674747467
5037147125 -0.7701009386464169 -0.22277200457296872
5037642420 -0.7713768074386999 -0.21568118035793304
5038137715 -0.7731475422256872 -0.2091968906553168
5038633010 -0.7742283438381395 -0.20232607737967842
5039128305 -0.7760483308842308 -0.19481174647808075
5039623600 -0.7765795870831138 -0.18878980529935738
5040118895 -0.7779008777518022 -0.18179368894351156
5040614190 -0.7787324346994099 -0.17474116306555898
5041109485 -0.7796007833982769 -0.1678607801073476
5041604780 -0.7805295178764745 -0.16055619324508466
5042100075 -0.7810789503549275 -0.15300763751331128
5042595370 -0.7817265140382867 -0.14637471578623118
5043090665 -0.7822677712691458 -0.13914545194098824
5043585960 -0.7824895476040087 -0.1322915593260213
5044081255 -0.7831011916461744 -0.12492440209576958
5044576550 -0.7834295379488092 -0.11878323045216109
5045071845 -0.7836089259699771 -0.11133983574415508
5045567140 -0.7836662907349435 -0.10338819262228514
5046062435 -0.7835413688107541 -0.09680103785113285
5046557730 -0.7834310061053226 -0.08957263317547347
5047053025 -0.7830818954267 -0.08207218231339204
5047548320 -0.7829778068944028 -0.07498807695351149
5048043615 -0.7824647834426478 -0.06758855596969002
5048538910 -0.7820872413484674 -0.061173160021242345
5049034205 -0.780856257990787 -0.05391866145165343
5049529500 -0.7806057835880079 -0.045987016472377275
5050024795 -0.7799942618922183 -0.0443185062000626
5050520090 -0.77902268735986 -0.03245163738335434
5051015385 -0.7783637486006084 -0.02458853225566839
5051510680 -0.7767327804314462 -0.01752071567860089
5052005975 -0.7760585295526605 -0.010746347178754053
5052501270 -0.7744982901372408 -0.0025649157499796466
5052996565 -0.7731243215109173 0.004407214000821114
5053491860 -0.7715984645642733 0.010934699375770594
5053987155 -0.7700710829935575 0.01880410950826971
5054482450 -0.7682759165763855 0.02593815797253659
5054977745 -0.7661604442094502 0.03402665002565635
5055473040 -0.7642550844895212 0.04050375521183014
5055968335 -0.7624552626358835 0.04788713019929434
5056463630 -0.7601083579816317 0.0550708543313177
5056958925 -0.7576983194602164 0.06258162228684676
5057454220 -0.7553493066837913 0.06909714129410292
5057949515 -0.75298883099305 0.07655410821500577
5058444810 -0.7502963354713038 0.08352378873448622
5058940105 -0.7473578139355308 0.09092200547456741
5059435400 -0.7445446001855951 0.09794937348679493
5059930695 -0.7419394223313582 0.10450650163386997
5060425990 -0.7387950545863101 0.11203181076990931
5060921285 -0.7356817910545751 0.11851088545824352
5061416580 -0.7322788081671062 0.1255635242713125
5061911875 -0.7294773616288838 0.13248088014753243
5062407170 -0.725791755475496 0.14054525447519203
5062902465 -0.7217114034451937 0.14726714319304415
5063397760 -0.7184298069853532 0.15295644261335073
5063893055 -0.7144222416375813 0.1605107682315927
5064388350 -0.710518058977629 0.16816766560077667
5064883645 -0.7068570413087544 0.1731508366371456
5065378940 -0.702263703471736 0.1815057208663539
5065874235 -0.6982218999611703 0.18673253216241537
5066369530 -0.6937018130954943 0.19404688320661845
5066864825 -0.6900675390896044 0.19957104717430316
5067360120 -0.6852177569740697 0.2065216734221107
5067855415 -0.679883454975329 0.214395724629101
5068350710 -0.6754806920101768 0.2185349142865131
5068846005 -0.6712305984999004 0.22498418939741036
5069341300 -0.6662903239852503 0.23098016491061762
5069836595 -0.6603925008522836 0.2385200277755135
5070331890 -0.6554823486428512 0.24461880639979713
5070827185 -0.651309543534329 0.24803842055170158
5071322480 -0.6452782373679312 0.2559143038172471
5071817775 -0.6393040826446131 0.2635531754870164
5072313070 -0.6344099578104521 0.267509777294962
5072808365 -0.6291630895514237 0.2718172434129213
5073303660 -0.6231643212469 0.279014063508887
5073798955 -0.6172895462889421 0.2847987146754014
5074294250 -0.6114238280999033 0.29029227401080887
5074789545 -0.605222341261412 0.295650872745012
5075284840 -0.5999131171326888 0.29980668582414327
5075780135 -0.5926404783600255 0.3075616108743768
5076275430 -0.5875169823044225 0.3105310734949614
5076770725 -0.5806739142066554 0.316995150164554
5077266020 -0.5742311634515461 0.32199724097000926
5077761315 -0.567907032213713 0.32693476269119665
5078256610 -0.5609338314909684 0.3320543530740236
5078751905 -0.5539600190363432 0.3367055074164742
5079247200 -0.5474579804822018 0.34141862392425537
5079742495 -0.5410458696515936 0.3458242886944821
5080237790 -0.533550384797548 0.3506163405744653
5080733085 -0.5271237210223549 0.35449453874638204
5081228380 -0.5201291222321359 0.35953877787840993
5081723675 -0.5126227203168368 0.3635972314759305
5082218970 -0.5054104422268114 0.3680907942746815
5082714265 -0.4981750987078014 0.3719502467858164
5083209560 -0.4904560791818719 0.3758866222281205
5083704855 -0.4830120394104405 0.37969150354987696
5084200150 -0.4762433986914785 0.3834014362410495
5084695445 -0.4676487069380911 0.38708650281554774
5085190740 -0.4603276346859179 0.3906049900933316
5085686035 -0.45229631976077433 0.39434477216319036
5086181330 -0.444778373366908 0.3969915571965669
5086676625 -0.43718668818473816 0.40013896948412847
5087171920 -0.4289959653427726 0.4032617572106813
5087667215 -0.42077019967530904 0.40666663019280685
5088162510 -0.4121982110174079 0.409409866521233
5088657805 -0.4047554590200123 0.41214704670404134
5089153100 -0.39593722004639476 0.414941596357446
5089648395 -0.38763099595120076 0.4172655563605459
5090143690 -0.3802008362192857 0.4193371800999892
5090638985 -0.37141473356046173 0.4218659526423404
5091134280 -0.3634540987642188 0.4238671738850443
5091629575 -0.35503007079425614 0.4252355977108604
5092124870 -0.3463337342990072 0.4276811825601678
5092620165 -0.33798083035569443 0.4295463969832973
5093115460 -0.3291552804018322 0.430882033548857
5093610755 -0.32125984994988693 0.4319410088815187
5094106050 -0.311922456088819 0.43366578535029765
5094601345 -0.3038242427926314 0.43458066331712825
5095096640 -0.29370145264424774 0.43678255614481476
5095591935 -0.2874758525898582 0.4360693097114563
5096087230 -0.2778319575284657 0.437310223516665
5096582525 -0.268807042586176 0.4376220389416343
5097077820 -0.2601644318354757 0.43852952593251276
5097573115 -0.2510072283054653 0.4388722306803653
5098068410 -0.2428142663679625 0.438808853688993
5098563705 -0.23284511503420377 0.4395914736546968
5099059000 -0.22548564092109077 0.43887184795580414
5099554295 -0.21520144923737175 0.4395205629499335
5100049590 -0.20793292083238302 0.44014841318130493
5100544885 -0.2001308085102784 0.43912281801826075
5101040180 -0.19001937932089755 0.43919982565076726
5101535475 -0.18114127689286283 0.438701773944654
5102030770 -0.17225993542294754 0.4377672452675669
5102526065 -0.16424356793102465 0.4365223018746627
5103021360 -0.15593385853265462 0.4353229654462714
5103516655 -0.14659059596689125 0.4338497817516327
5104011950 -0.13715917107306028 0.4330450092491351
5104507245 -0.12990175109160573 0.43126613685959264
5105002540 -0.11973586756932109 0.42989696797571686
5105497835 -0.11235824580255308 0.4278037328469126
5105993130 -0.10213984392191235 0.42644646920655904
5106488425 -0.09603358256189447 0.42387626359337255
5106983720 -0.08623193439684416 0.42204550379200984
5107479015 -0.07759497902895275 0.41963191565714386
5107974310 -0.06881377963643324 0.4173611167230104
5108469605 -0.06058043437568765 0.4147304923910844
5108964900 -0.05234768967095174 0.4122180593641181
5109460195 -0.04322209366058048 0.40917372860406576
5109955490 -0.03531021977725782 0.4066652608545203
5110450785 -0.027052993346986017 0.4034456061689477
5110946080 -0.01849529402036416 0.40008172235990824
5111441375 -0.00973099999521908 0.3968412107542941
5111936670 -0.001976864265376016 0.3933007168142419
5112431965 0.005797795510213626 0.38950630081327337
5112927260 0.014554252799012159 0.3859131728347979
5113422555 0.02249389955479848 0.38202704724512604
5113917850 0.030053066481885157 0.37844537590679367
5114413145 0.03820790703359403 0.3741956368872994
5114908440 0.04596097708532685 0.369948043635017
5115403735 0.05386672855207795 0.36541552292673213
5115899030 0.06158268706578957 0.3609391341083928
5116394325 0.06937806621978157 0.356689862514797
5116889620 0.07682898366137554 0.3519929804300007
5117384915 0.08448409524403121 0.3475792768754457
5117880210 0.0919065040193106 0.34215324646548223
5118375505 0.09900527133753426 0.3373751091329675
5118870800 0.10634988781652953 0.3321105414315274
5119366095 0.11349177282107503 0.32766266716153997
5119861390 0.12079540640115738 0.3217137502996545
5120356685 0.12765061855316162 0.3165262435611926
5120851980 0.13458900545772753 0.31099762100922435
5121347275 0.1410074720257207 0.30526156801926463
5121842570 0.14805538324933304 0.2997994391541732
5122337865 0.1546376700464048 0.29392558493112264
5122833160 0.161241394124533 0.2879488860305987
5123328455 0.16776078390447716 0.28186431840846415
5123823750 0.17431016109491648 0.2758144438266754
5124319045 0.18033475154324582 0.26974965867243317
5124814340 0.1867038529170187 0.2633783895718424
5125309635 0.1929183437636024 0.2571263783856442
5125804930 0.198661448924165 0.2508671942510103
5126300225 0.2045265843993739 0.2443807901520478
5126795520 0.2108208301820253 0.23758122717079364
5127290815 0.21616050836287046 0.23104889298740186
5127786110 0.2217084443882892 0.22438969737605044
5128281405 0.2274652970464606 0.217507687838454
5128776700 0.23281023455293556 0.2103515502653624
5129271995 0.23799621745159752 0.20361012534091347
5129767290 0.24299281208138718 0.1969583261954157
5130262585 0.24817530653978648 0.18952197777597526
5130757880 0.25315023409692866 0.1822935883936129
5131253175 0.2581180569372679 0.17504376486728065
5131748470 0.26281767613009405 0.16806390567829735
5132243765 0.267433668437757 0.16055599482435928
5132739060 0.2719620921109852 0.15310760312958768
5133234355 0.2762992523218456 0.14594918254174685
5133729650 0.2806723227626399 0.13817641844874934
5134224945 0.2847101123709428 0.13075777025599228
5134720240 0.2889576240589744 0.12310918969543357
5135215535 0.2928148994320317 0.11552789297543074
5135710830 0.2966611793166713 0.10791266082148802
5136206125 0.3005792404475965 0.09962273624382521
5136701420 0.3039849369149459 0.09189802408218384
5137196715 0.30717660251416656 0.08474674115055486
5137692010 0.3105793203178205 0.07717536311400564
5138187305 0.3140030409160413 0.06832965032050484
5138682600 0.3172368579789212 0.06041396291632401
5139177895 0.31999340967128154 0.05334438011050224
5139673190 0.3229474833137111 0.045358418241927496
5140168485 0.32566397127352265 0.036644300543948224
5140663780 0.3283505816208689 0.02929928908614736
5141159075 0.3307711560475199 0.020799962411585608
5141654370 0.3335209739835639 0.01258275662793925
5142149665 0.3356514902491319 0.005450184702088958
5142644960 0.33793369719856664 -0.002978813197267683
5143140255 0.33993714734127645 -0.011831174016390977
5143635550 0.341910509686721 -0.01986073339848142
5144130845 0.343797095512089 -0.026938655854840027
5144626140 0.3455619796326286 -0.0349698090239575
5145121435 0.3471020020936665 -0.044992268085479736
5145616730 0.3486099431389256 -0.05206832524977232
5146112025 0.3500570529385617 -0.059868484931556804
5146607320 0.35135644988009807 -0.06859074885907926
5147102615 0.3525008951362811 -0.07600238801617372
5147597910 0.35334782380806773 -0.08504053754241843
5148093205 0.35435921424313593 -0.09353847880112498
5148588500 0.35534554876779256 -0.10074816644191742
5149083795 0.3558742372613204 -0.10934575098125558
5149579090 0.3567042915444625 -0.11669004237965534
5150074385 0.3561792530511555 -0.12706753376283145
5150569680 0.3576213576291737 -0.13296164650666087
5151064975 0.3577326238155365 -0.1413859740683907
5151560270 0.35772071386638443 -0.14908889563460098
5152055565 0.3580191511856882 -0.1573631802671834
5152550860 0.3582292669697812 -0.16540701216772982
5153046155 0.3578803162825735 -0.17342559130568252
5153541450 0.35750509092682287 -0.18155712202975624
5154036745 0.35729359796172694 -0.18938979192783958
5154532040 0.3567989515630822 -0.19761058845018087
5155027335 0.3566516371149766 -0.20503322309569308
5155522630 0.35579521091360794 -0.21310364337343918
5156017925 0.3548921032955772 -0.22127196035887065
5156513220 0.35452232862773697 -0.22889685709225505
5157008515 0.3537831557424445 -0.23668969304938065
5157503810 0.35251121301400035 -0.24419313590777547
5157999105 0.3513485334421459 -0.25236798117035314
5158494400 0.3498224741534183 -0.2604832649230957
5158989695 0.3489624450081273 -0.26768652545778376
5159484990 0.3474610792963128 -0.27545368985125895
5159980285 0.34590471104571696 -0.28297622266568634
5160475580 0.3443135148600528 -0.29092660546302795
5160970875 0.34265125895801346 -0.2980933471729881
5161466170 0.3406700931097332 -0.3064982279350883
5161961465 0.3387542570892133 -0.3139615074584359
5162456760 0.3368833755192004 -0.32103957314240306
5162952055 0.3348206893393868 -0.328532675379201
5163447350 0.3323659238062407 -0.33615940338686895
5163942645 0.3301599511974736 -0.34329734507359955
5164437940 0.32821024248474523 -0.3506117227830385
5164933235 0.3257850675206435 -0.35792630754019084
5165428530 0.3230681497799723 -0.36506753218801397
5165923825 0.32023694640711736 -0.37243486705579254
5166419120 0.31758286294184235 -0.37965212213365657
5166914415 0.31583059147784587 -0.3856356739997864
5167409710 0.31198209524154663 -0.39380893111228943
5167905005 0.30928027943560954 -0.40064266480897603
5168400300 0.3052078265892832 -0.4085360216467004
5168895595 0.3036659532471707 -0.4141541860605541
5169390890 0.30092491287934153 -0.42062334637892873
5169886185 0.29584866762161255 -0.4286831680097078
5170381480 0.29401873130547374 -0.4351855563490014
5170876775 0.290104898967241 -0.4416293141088988
5171372070 0.28599857029161957 -0.44873797422961187
5171867365 0.28303210515724986 -0.45470632377423736
5172362660 0.27961304470112447 -0.46121869118590103
5172857955 0.27696383313128825 -0.46696986022748443
5173353250 0.2710569924429843 -0.4741755284761128
5173848545 0.2672380208969116 -0.4809568022426806
5174343840 0.26495448539131566 -0.48646416946461324
5174839135 0.2607808191525309 -0.49283603931728165
5175334430 0.25821431216440704 -0.4979735408958636
5175829725 0.251916998311093 -0.5053218163942036
5176325020 0.24835261624110372 -0.5111108861471477
5176820315 0.2435011259819332 -0.5173970209924799
5177315610 0.23980746928014254 -0.5230291768124229
5177810905 0.23418896606093959 -0.5297221290437799
5178306200 0.23059334253009997 -0.5349001068817941
5178801495 0.22635540758308612 -0.540123766974399
5179296790 0.22117993392442403 -0.5467603300747118
5179792085 0.21790085419228203 -0.5521269377909208
5180287380 0.21282276903328143 -0.5573860940180326
5180782675 0.207770804825582 -0.563100654827921
5181277970 0.20308577386956467 -0.5683822129902086
5181773265 0.198221239604448 -0.5738833640751085
5182268560 0.19289686648469223 -0.578841275290439
5182763855 0.1882401908698835 -0.5841719351316753
5183259150 0.18359752705222682 -0.589344881082836
5183754445 0.1782686224109248 -0.5940780231827184
5184249740 0.17274358319608787 -0.5991932592893902
5184745035 0.16750408709049225 -0.6043988403521086
5185240330 0.16252645928608744 -0.609132613006391
5185735625 0.15724720766669825 -0.6139114561833834
5186230920 0.1523905310191606 -0.6184679928578829
5186726215 0.14705004660706772 -0.6240590183358443
5187221510 0.14161085847177005 -0.6276770861525285
5187716805 0.13573452830314636 -0.6327510225145441
5188212100 0.13066530384515462 -0.6371069581885087
5188707395 0.1250903943651601 -0.6419028263343008
5189202690 0.11919792467042019 -0.6455675739991037
5189697985 0.11408497040209017 -0.6497291953940141
5190193280 0.10798123165180809 -0.6541181645895305
5190688575 0.10204111549415086 -0.6584637039586118
5191183870 0.09733314027911738 -0.6620832524801555
5191679165 0.09166015370895989 -0.6660417851648832
5192174460 0.08554149144574215 -0.6699312893967879
5192669755 0.07979501587779898 -0.6737618634575292
5193165050 0.0736405696523817 -0.6776172518730164
5193660345 0.06818357266877827 -0.6813483771524931
5194155640 0.06214192941000587 -0.6846793419436404
