# HZ S RI R 50
5000000000 -0.05711638339255985 0.269289819817794
5000495295 -0.05188126862049103 0.26668512193780197
5000990590 -0.047675309604720065 0.26376851922587347
5001485885 -0.04219637791577138 0.2609505323987258
5001981180 -0.03760385415271709 0.2582069760874698
5002476475 -0.03243749529907578 0.25522753125742864
5002971770 -0.02754524016850873 0.2524766137725429
5003467065 -0.02250152110661331 0.2493776686881718
5003962360 -0.01820499842104159 0.24607753047817632
5004457655 -0.013164834413481387 0.24286019645239176
5004952950 -0.008215825220471934 0.23967790838919187
5005448245 -0.004406776328228022 0.23654032380957352
5005943540 -0.00010655849779907025 0.2331159012882333
5006438835 0.005466264133390628 0.2295050173997879
5006934130 0.009729202248548207 0.22604516775984512
5007429425 0.01337697165773103 0.2225119698988764
5007924720 0.01833275950660831 0.21920615042510785
5008420015 0.022086785714093008 0.21548282707992353
5008915310 0.02659882134512851 0.21184007509758598
5009410605 0.03090286882300126 0.20831709080620817
5009905900 0.03523700488241095 0.20408384815642708
5010401195 0.039225168330104726 0.2003322847579655
5010896490 0.043475949646610966 0.1965283900499344
5011391785 0.0472322947492725 0.19268027026402323
5011887080 0.05123487605076087 0.18877605152757546
5012382375 0.05531320564056698 0.18473562598228455
5012877670 0.05902421396029623 0.18061389656443344
5013372965 0.06307530540384744 0.1763926077830164
5013868260 0.06655773834178322 0.17218827495449468
5014363555 0.07009243612226687 0.1679166688730842
5014858850 0.07407265195721074 0.16364841398439908
5015354145 0.07765300454277742 0.15936331058803357
5015849440 0.08117439872340153 0.15508962461822912
5016344735 0.08447653643394772 0.1505892559101707
5016840030 0.08772128702778566 0.14595958355226016
5017335325 0.09100518336421565 0.1415387572426545
5017830620 0.09416519301502328 0.1370555640835511
5018325915 0.09748289459630062 0.13256083899422696
5018821210 0.10049273308954741 0.1277270230807756
5019316505 0.1036384329199791 0.12314260554941077
5019811800 0.1066671233428152 0.11849388950749447
5020307095 0.10940888367201153 0.1136328628972957
5020802390 0.11236572814615149 0.10907836219197825
5021297685 0.1149782942313897 0.10429991860138743
5021792980 0.11780250346974323 0.09949178287857458
5022288275 0.1203894148531713 0.09489625104163822
5022783570 0.12297286132448598 0.08969790449267939
5023278865 0.12553386076500542 0.08498929362548024
5023774160 0.12782022435414164 0.08002100100642756
5024269455 0.13016354802407717 0.07494101594937475
5024764750 0.13237611949443817 0.0701577741848795
5025260045 0.13489534117673574 0.06502834354576312
5025755340 0.136988344161134 0.060272250128419774
5026250635 0.13924951145523473 0.055036759886302446
5026745930 0.14097513807447334 0.049900471575950324
5027241225 0.1432175173571235 0.045025742955897986
5027736520 0.14500455479872854 0.039851229833929164
5028231815 0.1467633223847339 0.03496272999205088
5028727110 0.14848824472803818 0.02966919678606485
5029222405 0.15024725779106743 0.024920659825990076
5029717700 0.15184961180937917 0.01926121713691636
5030212995 0.1534586462535356 0.014092281901914822
5030708290 0.15491060442046115 0.00921609355626922
5031203585 0.15640057544959218 0.004070085130239788
5031698880 0.15785909875443108 -0.0012224672950412099
5032194175 0.15900931546562597 -0.006541863672043148
5032689470 0.1602056473493576 -0.01161562582772029
5033184765 0.16154863175592923 -0.01698199836047072
5033680060 0.16257507942224803 -0.021922046122582334
5034175355 0.163742427763186 -0.027205315271490497
5034670650 0.16452862714466296 -0.032286030387407856
5035165945 0.16568243268289065 -0.03776327579429275
5035661240 0.1661647989561683 -0.04278817361122683
5036156535 0.1670588333355753 -0.048052759939118436
5036651830 0.1678019338532498 -0.05303261938847994
5037147125 0.1685230818233992 -0.05851684255819572
5037642420 0.1690139629338917 -0.06400907000428752
5038137715 0.16934941160051445 -0.0689076891070918
5038633010 0.16984667825071434 -0.07434450442853727
5039128305 0.17025888436718992 -0.07965607392160516
5039623600 0.17044116478217275 -0.08459404542257912
5040118895 0.17088667185682999 -0.08970252738187187
5040614190 0.17113665295274635 -0.09506194097431082
5041109485 0.1710182028381448 -0.10039921026480825
5041604780 0.17110541462898254 -0.10571583634928654
5042100075 0.17114313809495224 -0.11058074784906287
5042595370 0.17091154738476402 -0.11563965756642192
5043090665 0.17089343776828364 -0.12100452419958617
5043585960 0.17056299667609365 -0.12594154084983625
5044081255 0.17051704384778676 -0.13099252628652672
5044576550 0.17012223209205427 -0.13637132550540723
5045071845 0.16999875401195727 -0.1411879611642737
5045567140 0.16941625977817334 -0.14650798628204748
5046062435 0.16889484226703644 -0.15146447639716298
5046557730 0.16843848793130173 -0.15637714533429398
5047053025 0.16758122334354802 -0.16156968003825137
5047548320 0.16672282313045703 -0.1668599263617867
5048043615 0.1664726585149765 -0.1718460086144899
5048538910 0.1656542436072701 -0.17679809896569504
5049034205 0.16514510465295693 -0.18153263550055654
5049529500 0.1637954382519973 -0.18666176419509084
5050024795 0.1639349468444523 -0.1907921778528314
5050520090 0.16164296943890422 -0.19612003627576327
5051015385 0.1607293659134915 -0.20145229995250702
5051510680 0.15983564210565468 -0.20597587368990244
5052005975 0.15818651412662707 -0.21098698440350985
5052501270 0.15709167797314494 -0.2156733635224794
5052996565 0.15602391644528038 -0.2208185297878165
5053491860 0.1546561333693956 -0.2255556771629735
5053987155 0.15330816491654045 -0.23021728976776726
5054482450 0.15222483167522832 -0.2346498801519996
5054977745 0.1507121708832289 -0.2396229889832045
5055473040 0.14918461990983864 -0.24403652078226992
5055968335 0.14741724729537964 -0.24871406115983663
5056463630 0.14571346969980942 -0.2533264458179474
5056958925 0.1440794460083309 -0.258064014346976
5057454220 0.14239393723638435 -0.2627443514372173
5057949515 0.14034961948269292 -0.2672187654595626
5058444810 0.1389030712215524 -0.27154580699770076
5058940105 0.13666506660612007 -0.27621224679444967
5059435400 0.1349022051221446 -0.2806914103658576
5059930695 0.13277131789609006 -0.2847619323354018
5060425990 0.1309083088448173 -0.2896785202779268
5060921285 0.12869662673849808 -0.2940325595830616
5061416580 0.1261765556900125 -0.29810193181037903
5061911875 0.12441928018080561 -0.30248184894260605
5062407170 0.1219629641426237 -0.30669983123478134
5062902465 0.11966998718286816 -0.3111235138617064
5063397760 0.11687600730281127 -0.31547000063093084
5063893055 0.11472576621331666 -0.319341242313385
5064388350 0.11227169123135115 -0.3234776242783195
5064883645 0.11010236567572544 -0.32760906690045405
5065378940 0.10658422896736547 -0.3317792541102359
5065874235 0.10491438210010529 -0.3357026827962775
5066369530 0.10303128471499995 -0.33943065059812444
5066864825 0.10116825684120781 -0.3430976710821453
5067360120 0.09703006124810169 -0.3474999917180915
5067855415 0.09496665549905677 -0.3514078886885392
5068350710 0.09244576331816222 -0.354901699643386
5068846005 0.08916104114369343 -0.35905733077149643
5069341300 0.08557225803011342 -0.36289779920327037
5069836595 0.08228174165675514 -0.36653577340276616
5070331890 0.08100088019120066 -0.36993619642759623
5070827185 0.0778872919710059 -0.3734526493047413
5071322480 0.0744197235295647 -0.37730800634936285
5071817775 0.07126667350530624 -0.3809284661945544
5072313070 0.06862738140319523 -0.38420834196241277
5072808365 0.06679690942952507 -0.38769814842625666
5073303660 0.06209225148746842 -0.39148145443514776
5073798955 0.058606568331781184 -0.39466559886932373
5074294250 0.05492221230739042 -0.39716156846598577
5074789545 0.052395571023225784 -0.4013527678815942
5075284840 0.04987178017434321 -0.40427858735385697
5075780135 0.045810401243598836 -0.4078515564140521
5076275430 0.04253481308880605 -0.4110242551878879
5076770725 0.03963567806701911 -0.4143617576674411
5077266020 0.03771905404956717 -0.4170055091381073
5077761315 0.032240063246143494 -0.4205218286890733
5078256610 0.029043109891446012 -0.42371709095804316
5078751905 0.02550085261464119 -0.4263131885152114
5079247200 0.023494809963985494 -0.42941925243327494
5079742495 0.01955918957920451 -0.4321628856031518
5080237790 0.01546465487856614 -0.43561217031980815
5080733085 0.011173241428638759 -0.43780041054675456
5081228380 0.00790090854034612 -0.4404403567314148
5081723675 0.004627378118273459 -0.4429841888578315
5082218970 0.0007921697964009486 -0.4462275505065918
5082714265 -0.002804079877310678 -0.4485477632597873
5083209560 -0.0059342881370531885 -0.4512083012806742
5083704855 -0.010318945848235958 -0.45367334704650075
5084200150 -0.014224340992146417 -0.455963040653028
5084695445 -0.01747820653805607 -0.45849233552029256
5085190740 -0.021844456462483657 -0.460955201010955
5085686035 -0.025385671540310507 -0.46298976634678085
5086181330 -0.02894749561030614 -0.4650860554293582
5086676625 -0.032422736287117004 -0.4680631741097099
5087171920 -0.03670894374188624 -0.4698155287065004
5087667215 -0.03991035822975008 -0.47185329700771134
5088162510 -0.045070458987825794 -0.47416998367560537
5088657805 -0.04862884922247184 -0.47603583649585124
5089153100 -0.05178380306614073 -0.4783749596068734
5089648395 -0.05626470223069191 -0.4800575438298677
5090143690 -0.059788747249465236 -0.4818749412109977
5090638985 -0.06365564073386945 -0.4836654835625699
5091134280 -0.06811178044268959 -0.48545009682053014
5091629575 -0.07219769021398142 -0.48759109722940547
5092124870 -0.07552859343980488 -0.4888456589297244
5092620165 -0.08024091116691891 -0.49040173856835617
5093115460 -0.08407223420707803 -0.49210344176543386
5093610755 -0.08772209600398415 -0.49370741216759934
5094106050 -0.09250918148379576 -0.4951915050807752
5094601345 -0.09578800985687658 -0.49642906690898697
5095096640 -0.10014238639881737 -0.4980382135039882
5095591935 -0.10411625669190758 -0.4994246865573682
5096087230 -0.10809749678561562 -0.5012378629885221
5096582525 -0.11223562728417547 -0.5018688534435473
5097077820 -0.11668556065935838 -0.5032703656899301
5097573115 -0.12155804273329283 -0.5041109260759855
5098068410 -0.12468402479824267 -0.5056698761488262
5098563705 -0.12940566712304166 -0.5064904125113237
5099059000 -0.13224856320180392 -0.5077703814757498
5099554295 -0.13879939678468203 -0.5084875790696395
5100049590 -0.1418066369859796 -0.5110117353891072
5100544885 -0.1449403370681562 -0.512069046497345
5101040180 -0.15071764353074527 -0.5124250932743675
5101535475 -0.15319361341627022 -0.5136503200781973
5102030770 -0.1592823729703301 -0.513884961605072
5102526065 -0.16286250713624453 -0.5147167883421245
5103021360 -0.16568008143650859 -0.5155617971169321
5103516655 -0.17141676262805336 -0.5154486737753216
5104011950 -0.1749387728540521 -0.516405651443883
5104507245 -0.18043068521901182 -0.5165113179307235
5105002540 -0.18181408628037102 -0.5179959755194815
5105497835 -0.1889077330890455 -0.5173459209893879
5105993130 -0.19232344941089027 -0.5177568322733829
5106488425 -0.19634315685222023 -0.518018270793714
5106983720 -0.2004454073153044 -0.5182786176079198
5107479015 -0.20416362113074252 -0.5185068626152841
5107974310 -0.2105069560439963 -0.5177094810887387
5108469605 -0.2115989005879352 -0.5190316281820598
5108964900 -0.218001694271439 -0.5179400789110284
5109460195 -0.22006294680269142 -0.5190686112955997
5109955490 -0.22573679371883995 -0.5181557818462974
5110450785 -0.23014937184358897 -0.5178822090751246
5110946080 -0.2333385379690873 -0.5179079959267064
5111441375 -0.23775746163568998 -0.5174506996807299
5111936670 -0.24186411735258603 -0.5171585992762917
5112431965 -0.2461970213212465 -0.5170645243243167
5112927260 -0.2497227701701616 -0.5162936700017828
5113422555 -0.25372947987757233 -0.5163707137107849
5113917850 -0.25786208949590983 -0.5156223240651583
5114413145 -0.26217496865674067 -0.5148726105690002
5114908440 -0.2657810496656518 -0.5146637496195341
5115403735 -0.2707743817254117 -0.5133957517774481
5115899030 -0.27399292117670965 -0.5128109611962971
5116394325 -0.27773108450989975 -0.5126201573171114
5116889620 -0.28208602259033605 -0.5115729915468317
5117384915 -0.2861772148232711 -0.5098783060124046
5117880210 -0.28969211170547887 -0.5094594328027022
5118375505 -0.29396748229076985 -0.5088838495706257
5118870800 -0.29776067482797725 -0.5082588321284244
5119366095 -0.3017028852512962 -0.5068085758309615
5119861390 -0.30561227076932 -0.5059161625410381
5120356685 -0.3090117761963292 -0.5048743894225672
5120851980 -0.3128049342255843 -0.504273627933703
5121347275 -0.31660343941889313 -0.5026813714127791
5121842570 -0.32047349057699503 -0.5016157532993116
5122337865 -0.3243563645764401 -0.4998395944896497
5122833160 -0.3284084938074413 -0.4986614428068462
5123328455 -0.3320069564016242 -0.4970484203413913
5123823750 -0.3363623430854396 -0.4959881039042222
5124319045 -0.3393208415884721 -0.4944394936687068
5124814340 -0.3430947880995901 -0.4930896194357621
5125309635 -0.3462858403983869 -0.491798062073557
5125804930 -0.3505084122482099 -0.49009144933600174
5126300225 -0.35415736625069066 -0.48830621179781464
5126795520 -0.3578282124117801 -0.4860920419818477
5127290815 -0.3614431243193777 -0.4847102212278466
5127786110 -0.3646395896610461 -0.4826366587689048
5128281405 -0.3683786690235138 -0.48100105398579646
5128776700 -0.3716618653975035 -0.4795028896708238
5129271995 -0.3745829259094439 -0.4778628584585692
5129767290 -0.3785778315443742 -0.4753594022048147
5130262585 -0.3814213448449185 -0.47399951282300445
5130757880 -0.3852115744038632 -0.4710455756438406
5131253175 -0.38874301157499613 -0.46936231381014776
5131748470 -0.3913684659882596 -0.4678134212368413
5132243765 -0.3949323390659533 -0.4654428802038494
5132739060 -0.3992109047739129 -0.46284262130134984
5133234355 -0.40098265127131816 -0.4612619092589931
5133729650 -0.40476688899491964 -0.4584008721928847
5134224945 -0.407581754420933 -0.4567972076566596
5134720240 -0.4106677064770146 -0.45461619998279373
5135215535 -0.4141536402074914 -0.45162490167115865
5135710830 -0.41667166822835017 -0.4498249982532702
5136206125 -0.4202103395211069 -0.44764478112521927
5136701420 -0.42309263662288066 -0.44444579670303747
5137196715 -0.4252859385390031 -0.4418685279394451
5137692010 -0.42982279940655355 -0.43830115701022904
5138187305 -0.43143605715350103 -0.43661498552874517
5138682600 -0.4342775784040752 -0.433781435615138
5139177895 -0.4385240172085009 -0.430189815006758
5139673190 -0.43917515089637355 -0.42911257869318914
5140168485 -0.4426789032785516 -0.4269899929824628
5140663780 -0.4472502407274748 -0.42118121134607417
5141159075 -0.4476068192406705 -0.42085902785000046
5141654370 -0.44835665508320455 -0.41991469420884786
5142149665 -0.4527855091973355 -0.4146695497788881
5142644960 -0.45496644158112376 -0.41223865433743123
5143140255 -0.4569263568049983 -0.4094535065324683
5143635550 -0.4598576583360371 -0.40660450489897476
5144130845 -0.4615982535638307 -0.404058072127794
5144626140 -0.4644854790286014 -0.400866941401833
5145121435 -0.4672886980207343 -0.3972475842425698
5145616730 -0.469908921342147 -0.3939347941624491
5146112025 -0.46977585240414266 -0.39332296973780584
5146607320 -0.474962432133524 -0.38701793708299337
5147102615 -0.475266318572195 -0.38610039572966726
5147597910 -0.47745931775946365 -0.3826885991974881
5148093205 -0.4795928534708525 -0.37951896535722834
5148588500 -0.4827310960543783 -0.3756174617692044
5149083795 -0.4832757193791239 -0.3737273310360156
5149579090 -0.48549309216047587 -0.3700297490546578
5150074385 -0.48961015594633 -0.36440106912663106
5150569680 -0.49005936478313644 -0.36298479375086334
5151064975 -0.49138655003748444 -0.3602690445749383
5151560270 -0.49273132179912765 -0.3575628478276102
5152055565 -0.49458124449378565 -0.35372977507741826
5152550860 -0.4959617900220971 -0.3506668539423692
5153046155 -0.49793740636424016 -0.34696694737986516
5153541450 -0.49971571721528707 -0.34343648113702474
5154036745 -0.5009478173757854 -0.34056935498588964
5154532040 -0.5023711637446755 -0.3369674164997904
5155027335 -0.5041806415507668 -0.33304256043936076
5155522630 -0.5050976276397705 -0.3304212956052077
5156017925 -0.5061869840872916 -0.3267789263474314
5156513220 -0.5082965744169134 -0.3230970392101689
5157008515 -0.5089869310981349 -0.320148893092808
5157503810 -0.5101666481871354 -0.31623158329411555
5157999105 -0.511027737667686 -0.3128140866756439
5158494400 -0.5120104865023964 -0.3098198175430298
5158989695 -0.5133867640244333 -0.3050409978941867
5159484990 -0.5139510349223488 -0.30266421876455607
5159980285 -0.5148960916619552 -0.29901066108753804
5160475580 -0.516225843053115 -0.29434664312161896
5160970875 -0.5166737594102558 -0.29167745458452327
5161466170 -0.5174827073749743 -0.2883202182619195
5161961465 -0.5185823911114743 -0.2837718474237542
5162456760 -0.5186760205971567 -0.28116023540496826
5162952055 -0.5198589971191004 -0.2770358622074127
5163447350 -0.520226958550905 -0.2735586229123567
5163942645 -0.5205065106090746 -0.26991708498252065
5164437940 -0.521131832348673 -0.26665296052631576
5164933235 -0.5215674732860766 -0.2625029589000501
5165428530 -0.5217875116749814 -0.2592186488603291
5165923825 -0.5222981415296856 -0.2553361262145795
5166419120 -0.5222568386479428 -0.2524491517167342
5166914415 -0.522398358897159 -0.24878687529187454
5167409710 -0.52292337543086 -0.2445187145157864
5167905005 -0.5227692409565574 -0.2411386864750009
5168400300 -0.5225552038142556 -0.23836082220077515
5168895595 -0.5233801070012545 -0.2332446802603571
5169390890 -0.5226159785923205 -0.23099345282504433
5169886185 -0.522730102664546 -0.2265276218715467
5170381480 -0.5226173934183622 -0.2232836979000192
5170876775 -0.5220762993160047 -0.22055814611284355
5171372070 -0.52223801612854 -0.2154203551380258
5171867365 -0.521199671845687 -0.21384028619841525
5172362660 -0.5216349645664817 -0.20847418590595848
5172857955 -0.5206116971216703 -0.2063073257082387
5173353250 -0.5212934895565635 -0.19933502846642545
5173848545 -0.5200128021993136 -0.19839634550245186
5174343840 -0.5191025232013903 -0.19548225638113523
5174839135 -0.5187108391209653 -0.19148494695362292
5175334430 -0.5182947830150002 -0.1875814426886408
5175829725 -0.5180628268342269 -0.18302666748824872
5176325020 -0.5165036885361922 -0.18193678244164116
5176820315 -0.516286341767562 -0.17679215026529213
5177315610 -0.5154862529353091 -0.1729916247882341
5177810905 -0.5142162159869546 -0.17038506975299433
5178306200 -0.5135584097159537 -0.16637241918789714
5178801495 -0.51255181274916 -0.16263385744471298
5179296790 -0.5112220268500479 -0.1607089693609037
5179792085 -0.5105823999957034 -0.15518575593044884
5180287380 -0.5090898589084023 -0.15440483312857778
5180782675 -0.508250543945714 -0.14932648994420705
5181277970 -0.506531298160553 -0.14709618766056864
5181773265 -0.5056216622653761 -0.14307550223250137
5182268560 -0.5046516217683491 -0.1382813594843212
5182763855 -0.5026429295539856 -0.13737512497525467
5183259150 -0.5017022804210061 -0.13287602365016937
5183754445 -0.5001091533585599 -0.12909189807741264
5184249740 -0.49879828409144755 -0.12584833330229708
5184745035 -0.49682755219308955 -0.12375162973215706
5185240330 -0.4952552914619446 -0.12019965170245421
5185735625 -0.493620155673278 -0.11573302667391927
5186230920 -0.4920251855724736 -0.11429603829195625
5186726215 -0.49061660860714157 -0.11002327148851596
5187221510 -0.4883852663793062 -0.10748778911013353
5187716805 -0.48646513411873266 -0.10435273929646141
5188212100 -0.4846994343556856 -0.1011798138681211
5188707395 -0.48241963668873433 -0.09870141940681558
5189202690 -0.4805864879959508 -0.09545200278884486
5189697985 -0.47876046205821793 -0.09196338802576065
5190193280 -0.47645457794791773 -0.08970194545231368
5190688575 -0.47462094300671626 -0.08630872596251338
5191183870 -0.47217545540709244 -0.08369297377373043
