# HZ S RI R 50
5000000000 -0.41499319672584534 -0.738691298585189
5000495295 -0.4225422630184575 -0.7370267698639318
5000990590 -0.4290503028192018 -0.7343966929536117
5001485885 -0.43671818312845734 -0.7319138646125793
5001981180 -0.44311714799780594 -0.7296442044408697
5002476475 -0.4508106457559686 -0.7266820763286791
5002971770 -0.45602942454187495 -0.7255295640543887
5003467065 -0.4645405882283261 -0.7213907022225229
5003962360 -0.4721073916083888 -0.7185371267168146
5004457655 -0.4786702880733891 -0.7161291492612738
5004952950 -0.4847989254876187 -0.7136589445565876
5005448245 -0.4932127689060412 -0.7099162998952364
5005943540 -0.49844884558727864 -0.7075208927455702
5006438835 -0.5060093402862549 -0.7028074578235024
5006934130 -0.5115387157389992 -0.7017615908070615
5007429425 -0.5198618142228377 -0.6971142637102228
5007924720 -0.5261597005944503 -0.6939951589232997
5008420015 -0.5331294630703173 -0.6905548509798551
5008915310 -0.5404559154259531 -0.6867639453787553
5009410605 -0.5465491037619742 -0.6825079384602999
5009905900 -0.5524001780309176 -0.6797585455994857
5010401195 -0.5589102663491902 -0.6757948618186148
5010896490 -0.564955400793176 -0.6722054732473273
5011391785 -0.5716261581370705 -0.6683205303392912
5011887080 -0.5781070339052301 -0.6634619424217626
5012382375 -0.5835612918201246 -0.660402210135209
5012877670 -0.5906072196207548 -0.6556776573783473
5013372965 -0.5965584673379597 -0.6525557292135138
5013868260 -0.6026267001503393 -0.647093067043706
5014363555 -0.6086269209259435 -0.6431748396471927
5014858850 -0.6155041079772147 -0.6388619730347082
5015354145 -0.620634160543743 -0.6345746015247545
5015849440 -0.6264820789035997 -0.6307990017690157
5016344735 -0.6328673143135873 -0.6257308219608507
5016840030 -0.6380616300984433 -0.6210691175962749
5017335325 -0.6442640486516451 -0.615988458457746
5017830620 -0.6509617316095453 -0.6106054876980028
5018325915 -0.6553164281343159 -0.6066799101076628
5018821210 -0.6618218359194303 -0.6018798382658708
5019316505 -0.6675240554307637 -0.5962798218978079
5019811800 -0.6714611273062857 -0.5921738179106462
5020307095 -0.6774218427507501 -0.5870364057390314
5020802390 -0.6831393085027996 -0.5818481727650291
5021297685 -0.6886540714063143 -0.5765426127534163
5021792980 -0.6942188112359298 -0.5707870910042211
5022288275 -0.6994055195858604 -0.5664163451445731
5022783570 -0.7030455438714278 -0.5619411374393263
5023278865 -0.7092141791393882 -0.5555866548889562
5023774160 -0.7133807571310746 -0.5508998663801896
5024269455 -0.7197066263148659 -0.5440693811366433
5024764750 -0.7237139877520109 -0.539580269863731
5025260045 -0.7296773258008455 -0.5324340117605109
5025755340 -0.7329782780848051 -0.528528160170505
5026250635 -0.7380018579332452 -0.522591139140882
5026745930 -0.7436876987156115 -0.5160793944409019
5027241225 -0.747611801875265 -0.5108501660196405
5027736520 -0.753063722660667 -0.5039952522829959
5028231815 -0.756966581470088 -0.4991127581972825
5028727110 -0.761204016836066 -0.493346664466356
5029222405 -0.7668317650493822 -0.4852522297909385
5029717700 -0.7701702525741175 -0.48061064356251765
5030212995 -0.7745599213399386 -0.474025978853828
5030708290 -0.7793852090835571 -0.46781407531939057
5031203585 -0.7816513557183115 -0.4642527793583117
5031698880 -0.7872611974415026 -0.4552800906331916
5032194175 -0.7913641992368197 -0.44893448917489304
5032689470 -0.7944292081029791 -0.44423620324385793
5033184765 -0.7993297137712178 -0.4357202931454307
5033680060 -0.8018533242376227 -0.4319257516609995
5034175355 -0.8065318151524192 -0.4229481063391033
5034670650 -0.810395171767787 -0.41673033174715546
5035165945 -0.8133985557054219 -0.4110904414402811
5035661240 -0.8171694968876085 -0.4029839681951623
5036156535 -0.8205197359386244 -0.39718543542058843
5036651830 -0.8245729804039001 -0.38920952614985016
5037147125 -0.8274926009931063 -0.3830175838972393
5037642420 -0.8306273504307395 -0.3765940854423924
5038137715 -0.8341100560991388 -0.3688645268741407
5038633010 -0.8370628827496579 -0.3625375487302479
5039128305 -0.8399292261976945 -0.3552166552920091
5039623600 -0.8431899516206038 -0.34848488632001373
5040118895 -0.8459205721554003 -0.3412595814780185
5040614190 -0.8485227321323595 -0.33400814627346237
5041109485 -0.8511669416176645 -0.3270214027480075
5041604780 -0.8541916734293887 -0.3186945632884377
5042100075 -0.8560201902138559 -0.3130613706613842
5042595370 -0.8586095132325825 -0.3053815506006542
5043090665 -0.861929244116733 -0.29630742261284276
5043585960 -0.8628223663882205 -0.29113000945041057
5044081255 -0.866083098085303 -0.2812895868953906
5044576550 -0.8678267190330907 -0.2750279354421716
5045071845 -0.8695425767647592 -0.2678056061267853
5045567140 -0.8723738475849754 -0.25921298328198883
5046062435 -0.8734994248340004 -0.25241585389563914
5046557730 -0.8755077374608893 -0.2444491347199992
5047053025 -0.8771154284477234 -0.2367398699647502
5047548320 -0.8785138255671451 -0.22962718574624313
5048043615 -0.8800831562594363 -0.22148181968613675
5048538910 -0.8816539802049336 -0.21430850891690506
5049034205 -0.8827484595148187 -0.20607773332219376
5049529500 -0.8839709162712097 -0.1976952176345022
5050024795 -0.8850644921001635 -0.19475903244395004
5050520090 -0.8870461143945393 -0.18186885510620318
5051015385 -0.8878983886618363 -0.17453362518235258
5051510680 -0.8888287701104817 -0.16662051097342842
5052005975 -0.8894270250671789 -0.15864474130304237
5052501270 -0.889800140732213 -0.15092754599295163
5052996565 -0.8904420607968381 -0.14216494324960208
5053491860 -0.8910339600161502 -0.1345667878263875
5053987155 -0.8912861817761472 -0.1269787526444385
5054482450 -0.8914204051620082 -0.11868666308490854
5054977745 -0.8918025524992692 -0.11043606894580942
5055473040 -0.8916228633177908 -0.1025606789871266
5055968335 -0.8916136936137551 -0.09424421426497008
5056463630 -0.8914408181843004 -0.08614798203894966
5056958925 -0.8913876351557279 -0.07766465607442354
5057454220 -0.8908780656362835 -0.0700304159208348
5057949515 -0.8902905646123385 -0.060414901689479224
5058444810 -0.8896345276581613 -0.05385016904849755
5058940105 -0.888915877593191 -0.04513035459738029
5059435400 -0.8882716109878138 -0.03621435381079975
5059930695 -0.8870724470991838 -0.02863365529399169
5060425990 -0.8860373026446292 -0.019313564916190348
5060921285 -0.8852472587635642 -0.012571851820930055
5061416580 -0.8835232414697346 -0.003168171957919472
5061911875 -0.8823555017772474 0.0047985689812584924
5062407170 -0.8809614997161063 0.01270852311465301
5062902465 -0.8791452269805106 0.021165635534807256
5063397760 -0.8778081504922164 0.029883387939710366
5063893055 -0.8756808073897111 0.037267982371543586
5064388350 -0.8736797320215326 0.045480870494717045
5064883645 -0.8716844665376764 0.05431287716093816
5065378940 -0.8696937561035156 0.062415748834609985
5065874235 -0.867139270431117 0.07044678455904911
5066369530 -0.8648886774715624 0.0801104671860996
5066864825 -0.8625305169507077 0.08430173012771104
5067360120 -0.859519108345634 0.09613501633468427
5067855415 -0.8569925176469904 0.10394355889997985
5068350710 -0.854494267388394 0.11044654759921525
5068846005 -0.8518145429460626 0.11835841442409314
5069341300 -0.8483901431686 0.12628140378939479
5069836595 -0.8447313998874865 0.13834081668602793
5070331890 -0.8416825721138402 0.14437416352723775
5070827185 -0.8387495593020791 0.14919008157755198
5071322480 -0.8352400189951846 0.15693685882969907
5071817775 -0.8308941251353213 0.16909257440190567
5072313070 -0.8276413177189074 0.17394514303458364
5072808365 -0.8235622958133095 0.18221756502201683
5073303660 -0.8192033140282882 0.1921993839113336
5073798955 -0.8158744259884483 0.19714076032764033
5074294250 -0.8113953596667239 0.20681275348914296
5074789545 -0.8063846167765165 0.21524991800910548
5075284840 -0.8029364033749229 0.21934268192241066
5075780135 -0.7974523870568526 0.22946840995236448
5076275430 -0.7932091135727731 0.23698433214112333
5076770725 -0.7879057840297097 0.24441745014567123
5077266020 -0.7833624042962727 0.2512493753119519
5077761315 -0.7786401290642587 0.25797458071457713
5078256610 -0.7729767623700594 0.2659171615776263
5078751905 -0.7680228070208901 0.2746279804330123
5079247200 -0.7625442555076197 0.2805155076478657
5079742495 -0.7572365309062757 0.2866302007123044
5080237790 -0.7512418251288565 0.29486054966324254
5080733085 -0.7456241626488535 0.30214807548021017
5081228380 -0.7397217123132003 0.3090490887039586
5081723675 -0.7338457076173079 0.31609141042357997
5082218970 -0.7281053568187513 0.321709344261571
5082714265 -0.7216600807089555 0.3287497037335446
5083209560 -0.7166353997431303 0.33463215984796224
5083704855 -0.7094088196754456 0.3427174216822574
5084200150 -0.7023484769620394 0.34845070462477834
5084695445 -0.6962980941722268 0.35454620656214264
5085190740 -0.6894254872673437 0.3612857555088244
5085686035 -0.6826166792919761 0.36773870963799327
5086181330 -0.675959659250159 0.37352419526953445
5086676625 -0.6693304275211535 0.37872561184983505
5087171920 -0.6616514921188354 0.3857904923589606
5087667215 -0.6553728392249659 0.39059531374981526
5088162510 -0.6475147950021845 0.39746870806342677
5088657805 -0.6395358694227118 0.403121469836486
5089153100 -0.632845003353922 0.40774157015900864
5089648395 -0.6250947588368466 0.41389459214712443
5090143690 -0.6175777629802102 0.41969222614639684
5090638985 -0.610343453131224 0.423974157948243
5091134280 -0.6021492355748227 0.429067534835715
5091629575 -0.594394398363013 0.43473310533322784
5092124870 -0.586120533315759 0.4394562809090865
5092620165 -0.5775462200767115 0.4450231288608752
5093115460 -0.5698322308690924 0.4492553362720891
5093610755 -0.5618577693638048 0.453582448394675
5094106050 -0.5530594618696916 0.45867826436695297
5094601345 -0.5454948168051871 0.46202833087820755
5095096640 -0.5364056543300026 0.46687206939647075
5095591935 -0.5290332311078122 0.47028151311372457
5096087230 -0.5193937609070226 0.4750533731360185
5096582525 -0.5099366181775143 0.4793340673572139
5097077820 -0.5022221254675012 0.4826077301251261
5097573115 -0.49321407393405314 0.48570464786730316
5098068410 -0.48600970914489344 0.4876413298280616
5098563705 -0.4736504444950505 0.4952054023742676
5099059000 -0.46662329686315435 0.49594573911867645
5099554295 -0.4583262722743185 0.4987106276185889
5100049590 -0.44813461209598343 0.5041405401731792
5100544885 -0.4410721989054429 0.5050336153883683
5101040180 -0.42926706138410065 0.5103854129188939
5101535475 -0.4186855350670062 0.5136484660600361
5102030770 -0.4114847402823599 0.5143491814011022
5102526065 -0.4036218633777217 0.5157107742209184
5103021360 -0.3926479565469842 0.5194221829113207
5103516655 -0.38266094734794215 0.5224531669365732
5104011950 -0.3725574032256478 0.5240446611454612
5104507245 -0.3650628155783603 0.5242736465052554
5105002540 -0.3556998089740151 0.525941716997247
5105497835 -0.34506432163087947 0.528203967370485
5105993130 -0.3350450522021243 0.5298043426714445
5106488425 -0.3250038561068083 0.5310947142149273
5106983720 -0.31640456538451345 0.5316459348327235
5107479015 -0.30604398721142817 0.5326289283601862
5107974310 -0.29615211486816406 0.5337009618156835
5108469605 -0.287160724401474 0.5340979726690995
5108964900 -0.2768120044156125 0.5345800958181682
5109460195 -0.2673996733991723 0.5352197603175515
5109955490 -0.2571119870010175 0.535059204227046
5110450785 -0.24793482218918048 0.5349800335733514
5110946080 -0.23847544820685135 0.5352658943126076
5111441375 -0.22667702012940458 0.5354276675927011
5111936670 -0.22080396115779877 0.5339621995624743
5112431965 -0.20799934393481204 0.53459169990138
5112927260 -0.19773634013376737 0.5337824790101302
5113422555 -0.18954955355117195 0.5327135512703344
5113917850 -0.17900328416573374 0.5319073012000636
5114413145 -0.16962441880452006 0.5309348859285054
5114908440 -0.16021119528695157 0.5295817350086413
5115403735 -0.14938357158711082 0.5283406847401669
5115899030 -0.14026428445389397 0.5269339461075632
5116394325 -0.13085247811518216 0.5251297637035972
5116889620 -0.12015250874193091 0.5235654366643805
5117384915 -0.11189273509540056 0.5212732616223787
5117880210 -0.1017372278790725 0.5191102843535574
5118375505 -0.09157473280241615 0.5171841414351213
5118870800 -0.08298062023363616 0.5143453698409232
5119366095 -0.071663089488682 0.5118052865329542
5119861390 -0.06303923381002326 0.5092409535458213
5120356685 -0.05389473430420223 0.5069374159762734
5120851980 -0.04368242680242187 0.5032226568774173
5121347275 -0.03529486452278338 0.5004229467166098
5121842570 -0.026056612792767976 0.49741284941372116
5122337865 -0.016533181904570052 0.49418053815239354
5122833160 -0.00707175881650887 0.4910803170580613
5123328455 0.0013815640520892646 0.48729794590096726
5123823750 0.010795978927298597 0.4829919463709781
5124319045 0.02001473699745379 0.4794209599494934
5124814340 0.028472097296463817 0.4751405057154204
5125309635 0.03779322379513791 0.47150536430509465
5125804930 0.045880741586810665 0.46694642619082805
5126300225 0.05499896838476783 0.46270135201905904
5126795520 0.0645240486452454 0.45845591551379156
5127290815 0.07236319270573165 0.4535480988653083
5127786110 0.08074797729128286 0.44858920417333903
5128281405 0.08996791627846266 0.44368885849651535
5128776700 0.09768029968989522 0.43916061050013494
5129271995 0.10669839617453124 0.43349416475546987
5129767290 0.11470423246684827 0.4281415076632249
5130262585 0.12271718916140105 0.42330692943773773
5130757880 0.13140746323685898 0.41750567367202357
5131253175 0.13879733571880742 0.41219595388362285
5131748470 0.14658462373833908 0.40667617477868734
5132243765 0.154715738014171 0.40074886930616277
5132739060 0.1621002523522628 0.3945963335664649
5133234355 0.16946318353477277 0.38888541491408096
5133729650 0.17698369920253754 0.3826795800736076
5134224945 0.18483563159641467 0.37644685098999425
5134720240 0.1922465343224375 0.3701297531002446
5135215535 0.19922047461334028 0.3634985857888272
5135710830 0.20638802647590637 0.3570070658859454
5136206125 0.21488918207193675 0.35067234384386164
5136701420 0.2204691265758715 0.3441263939204969
5137196715 0.22678661189581217 0.3370114611951928
5137692010 0.23537094263654007 0.3295340396856007
5138187305 0.2412562597739069 0.32319643622950506
5138682600 0.24614742555116353 0.31689961333023875
5139177895 0.2544032994069551 0.30863476113269206
5139673190 0.2593250933446382 0.30229180737545613
5140168485 0.26523651261078685 0.29508765747672633
5140663780 0.2734952647435038 0.2862972334811562
5141159075 0.27754538937618856 0.28089281289201035
5141654370 0.28446781792138753 0.2718963560305144
5142149665 0.29001414305285406 0.26443930362400253
5142644960 0.2945246994495392 0.2582343848128068
5143140255 0.3015742631335008 0.24928270986205653
5143635550 0.30706224629753515 0.24062059662844004
5144130845 0.31114666869765834 0.234180906101277
5144626140 0.31673684873079 0.22617957309672707
5145121435 0.3219067579821536 0.2176411951843061
5145616730 0.32641131470077916 0.210222001922758
5146112025 0.3320529633446744 0.2009074993823704
5146607320 0.33595283721622665 0.19384364156346573
5147102615 0.340055093953484 0.18633845605348287
5147597910 0.3449350203338422 0.17751080660443558
5148093205 0.34953052903476517 0.16906074630586723
5148588500 0.3532548656589107 0.16086751065756144
5149083795 0.3575003758857125 0.15271729309307902
5149579090 0.3614338463858554 0.1447744691058209
5150074385 0.3658975096125352 0.13393759178487877
5150569680 0.36944690189863505 0.12653628462239316
5151064975 0.37245948691117137 0.11939963306251325
5151560270 0.3760535732695931 0.11058025336579273
5152055565 0.3791930487281398 0.1022018225569474
5152550860 0.3826547217996497 0.09343094849272778
5153046155 0.3855959255444376 0.08489569315784856
5153541450 0.38865032164674057 0.0764105441538911
5154036745 0.39147576532865824 0.06803443400483382
5154532040 0.3941261548745005 0.058984360804683285
5155027335 0.39693996780797053 0.05093025788664818
5155522630 0.3992243597381993 0.042470407525175495
5156017925 0.4018057443593678 0.033194141560479215
5156513220 0.4039631752591384 0.024673135264923696
5157008515 0.4058395451621005 0.01584710386630736
5157503810 0.4081079724587892 0.007224639681609054
5157999105 0.4098999139509703 -0.0011211382715325606
5158494400 0.4118310918933467 -0.009866887360419097
5158989695 0.41340573994736923 -0.01876659152147017
5159484990 0.4150919412311755 -0.027465203384819784
5159980285 0.4164021140650699 -0.03616285186849142
5160475580 0.41786920553759527 -0.0447767465130279
5160970875 0.4190431205849898 -0.053225832746217124
5161466170 0.42026740469430623 -0.06199626173628004
5161961465 0.42116998998742355 -0.07096146007901744
5162456760 0.42211429696334035 -0.07943157616414522
5162952055 0.4228012938248484 -0.08829421275540401
5163447350 0.42347182411896556 -0.09645988752967433
5163942645 0.4242068685983357 -0.10518956380455118
5164437940 0.4244712308833474 -0.1137896929132311
5164933235 0.4248860086265363 -0.12272659532333675
5165428530 0.4251694020472075 -0.13070076782452433
5165923825 0.4251050698129754 -0.1398876207439523
5166419120 0.4252621656969974 -0.14793015232211665
5166914415 0.4252020371587653 -0.15651732840036092
5167409710 0.424861247602262 -0.16542148119524905
5167905005 0.42483457295518173 -0.17324150000747882
5168400300 0.4242456288714158 -0.18202977431447884
5168895595 0.42366613526093333 -0.19050391959516624
5169390890 0.4231968820095062 -0.19842720345446938
5169886185 0.42242605748929474 -0.20748746630392575
5170381480 0.4215875173869886 -0.21563979277485296
5170876775 0.4211241712695674 -0.22329853161385185
5171372070 0.4195037358685544 -0.23255142491114766
5171867365 0.41916150325223017 -0.23931418045570976
5172362660 0.41734026764568527 -0.24893155380299217
5172857955 0.41574241456232575 -0.2579323288641478
5173353250 0.41469777257818924 -0.2651309731759523
5173848545 0.41436867651186493 -0.27161998968375356
5174343840 0.4115647422639947 -0.2808574234184466
5174839135 0.4094896269472022 -0.29033468114702327
5175334430 0.40833867537347895 -0.29692888573596354
5175829725 0.40572733157559443 -0.3067885558856161
5176325020 0.4055988537637811 -0.3123553646238227
5176820315 0.4028448164463043 -0.3211776049513566
5177315610 0.4006718287342473 -0.32883328356240926
5177810905 0.39910190042696503 -0.33628049022273016
5178306200 0.39552873529885946 -0.3458923399448395
5178801495 0.39530883337322037 -0.3506205332906623
5179296790 0.39173656388332967 -0.35972216097932114
5179792085 0.38774681248162923 -0.36911016232088995
5180287380 0.38752341584155436 -0.3737810536434776
5180782675 0.38415558400907013 -0.3820967642884505
5181277970 0.38094932154605265 -0.3901521108652416
5181773265 0.37860581435655294 -0.3975845355736582
5182268560 0.37537892241227 -0.404635289781972
5182763855 0.37274926273446335 -0.41170283838322286
5183259150 0.3692004696318978 -0.4197044482356624
5183754445 0.3655282337414591 -0.42656535223910685
5184249740 0.3619476666575984 -0.4344322665741569
5184745035 0.3607282434639178 -0.4402638046365035
5185240330 0.35640090547109904 -0.448038355300301
5185735625 0.3531433375258195 -0.45506610838990463
5186230920 0.3493168401090722 -0.4618491342193202
5186726215 0.34575051696676956 -0.4693181059862438
5187221510 0.34204704981101186 -0.47607769621045964
5187716805 0.3382633046100014 -0.4826811614789461
5188212100 0.3344205304196006 -0.4893008219568353
5188707395 0.3302604179633291 -0.4964637285784671
5189202690 0.32637668440216466 -0.5024027416580602
5189697985 0.32276469469070435 -0.5088367085707816
5190193280 0.31871350344858673 -0.5156108109574569
5190688575 0.3140385621472409 -0.5216937504316631
5191183870 0.3101259469985962 -0.5284455042136343
5191679165 0.30626957196938365 -0.5344402727327848
5192174460 0.3018805039556403 -0.5407725509844328
5192669755 0.29701285926919235 -0.5470715290621707
5193165050 0.2933665012058459 -0.5532853634733903
5193660345 0.2893397698276921 -0.5606407680009541
5194155640 0.2839767305474532 -0.5653393645035593
