# HZ S RI R 50
5000000000 0.41058160756763656 -0.08691160223985973
5000495295 0.4109970456675479 -0.09334448528917212
5000990590 0.41056579978842483 -0.1024582766388592
5001485885 0.4103023394158012 -0.11049113422632217
5001981180 0.4099786469810887 -0.11830030264038789
5002476475 0.40975889249851827 -0.12660097370022222
5002971770 0.4090958425873204 -0.13429867672292808
5003467065 0.40812624441949946 -0.14315295062567057
5003962360 0.4075950854703 -0.15037810018188075
5004457655 0.40644209792739466 -0.15933672926927867
5004952950 0.4057743063098506 -0.16706922336628563
5005448245 0.40484533027598735 -0.17454466694279722
5005943540 0.40349843941236796 -0.183100310595412
5006438835 0.4025095575734189 -0.19064306899120934
5006934130 0.401059290296153 -0.1989132659999948
5007429425 0.39964785544495834 -0.20648438836398877
5007924720 0.39798448587718765 -0.21436586113352524
5008420015 0.39660720919307907 -0.22211118826740667
5008915310 0.3945761573942084 -0.2299094756967143
5009410605 0.3930564460001494 -0.237900679048739
5009905900 0.39123917410248205 -0.24478104083161606
5010401195 0.3893580075941588 -0.25298314972927693
5010896490 0.38716415198225723 -0.2599813106812929
5011391785 0.38505885632414566 -0.26761113656194585
5011887080 0.3828749656677246 -0.2759083744726683
5012382375 0.38067428061836645 -0.2832557951149188
5012877670 0.37854130330838653 -0.29087239974423457
5013372965 0.3758693478609386 -0.2977300380405627
5013868260 0.3732488845524035 -0.30499611716521413
5014363555 0.3706223211790386 -0.312236487865448
5014858850 0.36775726393649455 -0.3194672575122432
5015354145 0.3649933557761343 -0.3264694166810889
5015849440 0.36161805454053375 -0.3339549836359526
5016344735 0.35920556438596624 -0.3410661204865104
5016840030 0.3561449254813947 -0.34848190922486155
5017335325 0.3532159218662663 -0.35554398204150955
5017830620 0.3498598007779372 -0.3621980124398282
5018325915 0.3468589453320754 -0.36951483550824615
5018821210 0.3437047945825677 -0.37632137380148234
5019316505 0.34112687644205597 -0.3823812760804829
5019811800 0.336098816833998 -0.3910759797221736
5020307095 0.3336072673923091 -0.39651925940262644
5020802390 0.32954737230351094 -0.40336958201308
5021297685 0.32603707752729716 -0.4097942960889716
5021792980 0.32205763616059957 -0.4165794865081185
5022288275 0.3182269021084434 -0.4229169080131932
5022783570 0.31396645150686564 -0.4295524515603718
5023278865 0.31026063937889903 -0.43575379252433777
5023774160 0.3064824907403243 -0.4424200387377488
5024269455 0.3025394740857576 -0.4483551633985419
5024764750 0.2984453674994017 -0.45445470433486135
5025260045 0.2939918417679636 -0.46094731594386856
5025755340 0.28998338235052007 -0.46694791787549067
5026250635 0.28512084954663325 -0.47320238226338435
5026745930 0.28221145115400614 -0.47818147665575933
5027241225 0.2759065110432474 -0.4852143275110345
5027736520 0.27152707074817856 -0.49098206978095205
5028231815 0.26738029247836065 -0.4966006859352714
5028727110 0.2625916239462401 -0.5023941021216544
5029222405 0.2580906027241757 -0.5082443670222634
5029717700 0.2535422475714433 -0.5136597878054568
5030212995 0.24830080176654615 -0.5196076506062558
5030708290 0.24278567731380463 -0.5253293922072962
5031203585 0.2399393069116693 -0.5293822664963571
5031698880 0.233508731189527 -0.5358682400301883
5032194175 0.22901284067254318 -0.5407679708380448
5032689470 0.22406682450520365 -0.5458613634109497
5033184765 0.21828944196826533 -0.5509171172192222
5033680060 0.21377351958500712 -0.5564418560580203
5034175355 0.2090836198706376 -0.5615398381885729
5034670650 0.20303587380208468 -0.5661238933864393
5035165945 0.19781131571845004 -0.5722767459718805
5035661240 0.19287241446344475 -0.5754403817026239
5036156535 0.1870769176043962 -0.5808478750680622
5036651830 0.18181067313018598 -0.585074926677503
5037147125 0.1764886708636033 -0.5892179169152912
5037642420 0.17114047078709854 -0.5950238296860143
5038137715 0.16573341347669301 -0.5990206567864669
5038633010 0.160076620547395 -0.603390097618103
5039128305 0.15378768193094353 -0.6080017905486258
5039623600 0.14962961563938543 -0.6117470170322218
5040118895 0.14285576186682047 -0.6168295929306432
5040614190 0.13770315521641782 -0.6208935317240263
5041109485 0.13127009413744273 -0.62507227533742
5041604780 0.12503780346167714 -0.6287981554081565
5042100075 0.11960328801682121 -0.6326937895072134
5042595370 0.1141590385844833 -0.6369472647968092
5043090665 0.10810641905194834 -0.6405188127567893
5043585960 0.10169319141852229 -0.6439542927240071
5044081255 0.09542415565566013 -0.6482177596343192
5044576550 0.09032386266871502 -0.65116349333211
5045071845 0.083514939797552 -0.654603195817847
5045567140 0.07823146291469273 -0.6588224454929954
5046062435 0.0725500046422607 -0.6620502064102575
5046557730 0.0653649490130575 -0.6655446698791102
5047053025 0.060366967791005186 -0.6685285066303454
5047548320 0.05441251377526082 -0.6725127916587027
5048043615 0.047733731175723826 -0.674858924589659
5048538910 0.04079709829468476 -0.6781630861131769
5049034205 0.03444704982010942 -0.6804407301701998
5049529500 0.029089013702775304 -0.6841435495175814
5050024795 0.025109410972187395 -0.6866995911849173
5050520090 0.015606882687854139 -0.6894689516017312
5051015385 0.010471511877288944 -0.6924995152573836
5051510680 0.003611396900133083 -0.6948409707922685
5052005975 -0.00339435741893555 -0.6968445181846619
5052501270 -0.009683046735038883 -0.7004233912417763
5052996565 -0.015781223234769545 -0.7029562937585931
5053491860 -0.022077591697636404 -0.7056618583829779
5053987155 -0.028436874578657904 -0.7074282326196369
5054482450 -0.03505434311534229 -0.7095296539758381
5054977745 -0.042050020475136604 -0.7121316602355555
5055473040 -0.048927873961235345 -0.7142742778125563
5055968335 -0.054797096275969556 -0.7160003342126545
5056463630 -0.06132852874304119 -0.7184188836499265
5056958925 -0.06747853442242271 -0.7192732378056175
5057454220 -0.07571241965419367 -0.722508430480957
5057949515 -0.08131333715037296 -0.7231017351150513
5058444810 -0.08827469693986993 -0.7253621126476087
5058940105 -0.09495281467312261 -0.7262935607056868
5059435400 -0.1024070417410449 -0.7273103186958715
5059930695 -0.10851491399501499 -0.7289743894024899
5060425990 -0.11514580759562944 -0.7298793322161624
5060921285 -0.12165254393690511 -0.7316945320681522
5061416580 -0.12891353196219393 -0.7320709510853416
5061911875 -0.1344499768395173 -0.732924853500567
5062407170 -0.14118000629701113 -0.7359376204641241
5062902465 -0.1518549903442985 -0.7350806123331973
5063397760 -0.15235808099571027 -0.7368355079701072
5063893055 -0.16364801008450358 -0.7369396812037418
5064388350 -0.16705901450232455 -0.7379089782112523
5064883645 -0.175191478509652 -0.7380789298760263
5065378940 -0.18210078697455556 -0.7395282136766534
5065874235 -0.1893207234771628 -0.7392373492843226
5066369530 -0.1958331199068772 -0.7402229591419822
5066864825 -0.20190159819628062 -0.7411501909557142
5067360120 -0.21053404635504672 -0.740464383050015
5067855415 -0.2156092195134414 -0.7409876365410654
5068350710 -0.2235990135293258 -0.7409675403645164
5068846005 -0.22841652757243106 -0.7409981395068922
5069341300 -0.23504798271154104 -0.7416894969187284
5069836595 -0.24607420908777336 -0.7399239100907978
5070331890 -0.2484484330603951 -0.7413728707715085
5070827185 -0.2556919314359364 -0.7409284899109289
5071322480 -0.26439181911317927 -0.7397964879086143
5071817775 -0.2689787839588366 -0.7404329306200931
5072313070 -0.2763125645486932 -0.7401171483491596
5072808365 -0.2832356095314026 -0.7389859745376989
5073303660 -0.2902778089046478 -0.7384864750661349
5073798955 -0.29440557329278244 -0.7383279423964652
5074294250 -0.3039941285785876 -0.7368789974011873
5074789545 -0.3102399000996037 -0.7363944304616827
5075284840 -0.31708903532279165 -0.7351129180506656
5075780135 -0.32195604788629634 -0.7347651971013922
5076275430 -0.32916533319573654 -0.732822691139422
5076770725 -0.33644284700092514 -0.7323589105355112
5077266020 -0.3427533852426629 -0.7308283573702762
5077761315 -0.34903836250305176 -0.7297423293716029
5078256610 -0.35624994729694565 -0.7285005952182569
5078751905 -0.3617277427723533 -0.7266529767136825
5079247200 -0.3689940211020018 -0.7257244900653237
5079742495 -0.3752831189255965 -0.7241238418378328
5080237790 -0.3826102347750413 -0.7227511092236167
5080733085 -0.38765061058496175 -0.7207164638920834
5081228380 -0.39486829544368546 -0.718612768148121
5081723675 -0.4003094999413741 -0.7170498967170715
5082218970 -0.4077897103209245 -0.7146216850531729
5082714265 -0.41345120888007314 -0.713387341875779
5083209560 -0.42031768278071757 -0.7112490377928081
5083704855 -0.42635334949744375 -0.7091014918528105
5084200150 -0.43160838672989293 -0.7068974909029508
5084695445 -0.43975195916075455 -0.704770703064768
5085190740 -0.44366202072093364 -0.7031606247550563
5085686035 -0.4508777794085051 -0.7001239782885501
5086181330 -0.4558696166465157 -0.6983056382129067
5086676625 -0.4628903803072478 -0.6952014408613506
5087171920 -0.46929134350073964 -0.692543836016404
5087667215 -0.47546350014837163 -0.6899328796487105
5088162510 -0.48256332152768183 -0.6860294028332359
5088657805 -0.4873273231481251 -0.6845857689255163
5089153100 -0.4941306663186927 -0.6809957121547899
5089648395 -0.49994132393284846 -0.6781453929449383
5090143690 -0.5054565260284826 -0.6757258239545321
5090638985 -0.5112651523790861 -0.6723398064312182
5091134280 -0.5175718225930867 -0.6685234339613664
5091629575 -0.5220842643787986 -0.6656258043489958
5092124870 -0.5273114631050512 -0.6637464353912755
5092620165 -0.5336243886696664 -0.6595940213454398
5093115460 -0.5401526689529419 -0.6558291127807215
5093610755 -0.5445995487664875 -0.6533386299484655
5094106050 -0.5513222186188949 -0.6488651256812247
5094601345 -0.5550780861001265 -0.646185040473938
5095096640 -0.5626658577668039 -0.6411103135661075
5095591935 -0.5665475726127625 -0.639448366667095
5096087230 -0.5735368069849516 -0.6342374745168184
5096582525 -0.5782100526910079 -0.6307175253566942
5097077820 -0.5834869020863583 -0.627361347800807
5097573115 -0.5866124128040514 -0.6247680720530058
5098068410 -0.5941569585549203 -0.6191217115050868
5098563705 -0.598950555450038 -0.6158005720690677
5099059000 -0.6035964928175274 -0.61142519273256
5099554295 -0.6102911673094097 -0.6060162123880888
5100049590 -0.6123688095494321 -0.6057770001260858
5100544885 -0.6192366104376944 -0.5995839269537675
5101040180 -0.62450131930803 -0.5952972675624647
5101535475 -0.6297380673257928 -0.5903694284589667
5102030770 -0.6349223758044996 -0.586630084012684
5102526065 -0.6388852188461706 -0.5823474495034469
5103021360 -0.643581399792119 -0.5781411183507819
5103516655 -0.6491934719838595 -0.5722892660843698
5104011950 -0.6541789519159418 -0.5673477618317855
5104507245 -0.6576983395375704 -0.5641518737140455
5105002540 -0.6618916486438952 -0.5597597893915678
5105497835 -0.6676797615854364 -0.5534896662360743
5105993130 -0.6712160706520081 -0.5500257360307794
5106488425 -0.6757115753073442 -0.5445661827137596
5106983720 -0.68046268036491 -0.5397319574105112
5107479015 -0.6844835783305921 -0.5351271786187825
5107974310 -0.6891703982102243 -0.5296498976255718
5108469605 -0.6929656047570077 -0.5249658509304649
5108964900 -0.6974085977202967 -0.5192651058498182
5109460195 -0.7012853685178255 -0.514438829923931
5109955490 -0.7052922280211198 -0.509120618042193
5110450785 -0.709478563384006 -0.5040355952162492
5110946080 -0.7130701824238426 -0.4989013860100194
5111441375 -0.7176785343571713 -0.49282637709065485
5111936670 -0.7214166239688271 -0.4880483934753819
5112431965 -0.7244728019363001 -0.48230128696090296
5112927260 -0.7283646652573034 -0.476613849401474
5113422555 -0.732114453064768 -0.471163914391869
5113917850 -0.7358575965228834 -0.4659005858396229
5114413145 -0.739858024998715 -0.4595614593279989
5114908440 -0.7428931154702839 -0.4541928030942616
5115403735 -0.7460081075367174 -0.4483428126887271
5115899030 -0.7492205594715319 -0.4430952464279376
5116394325 -0.7532200656439129 -0.43624032798566315
5116889620 -0.7561841042418229 -0.4304266964134417
5117384915 -0.7584927144803499 -0.42578948798932525
5117880210 -0.7618190050125122 -0.4191107483286607
5118375505 -0.7648292027021709 -0.4133205962808509
5118870800 -0.7681986846421894 -0.4068852663040161
5119366095 -0.770167705259825 -0.4002201917924379
5119861390 -0.7735732699695387 -0.39456850760861445
5120356685 -0.7764971036660043 -0.38813599002988713
5120851980 -0.7792209826017681 -0.3824098925841482
5121347275 -0.7812065168430931 -0.3768317966084731
5121842570 -0.7836902706246627 -0.3702403526557119
5122337865 -0.7861974396203694 -0.36388774765165227
5122833160 -0.7888120852018657 -0.35753846325372396
5123328455 -0.7906364986771032 -0.35136117119538157
5123823750 -0.7930177575663516 -0.3447190209438926
5124319045 -0.7948824449589378 -0.33914154611135783
5124814340 -0.7977812509787711 -0.3314647015772368
5125309635 -0.7990275495930722 -0.3258895670112811
5125804930 -0.8009775657402841 -0.3190258004163441
5126300225 -0.8031555539683292 -0.3128357294358705
5126795520 -0.8044793229354056 -0.3066013063255109
5127290815 -0.8065514940964548 -0.29949493470944855
5127786110 -0.808386714834916 -0.29238855838775635
5128281405 -0.8096211144798681 -0.28626454503912674
5128776700 -0.8109729635088068 -0.2797899120732358
5129271995 -0.8126204515758314 -0.27327763563708257
5129767290 -0.8138409037339059 -0.2664505306043123
5130262585 -0.8150028272678977 -0.2601322829723358
5130757880 -0.8161760349022714 -0.2531686629119672
5131253175 -0.8171592323403609 -0.24657617744646573
5131748470 -0.8185137133849295 -0.23901089712193138
5132243765 -0.819837749004364 -0.2311624123861915
5132739060 -0.8199674393001356 -0.22569472460370316
5133234355 -0.8212804574715463 -0.21778436240397
5133729650 -0.8219326075754667 -0.2102148783834357
5134224945 -0.8220147898322657 -0.2054998639382814
5134720240 -0.8226674732409025 -0.19746486058360652
5135215535 -0.8233352993663988 -0.19068486517981478
5135710830 -0.8237029125815943 -0.1819671039518557
5136206125 -0.8238601966908103 -0.17705137164969192
5136701420 -0.8237991144782618 -0.17054679440824608
5137196715 -0.8238657116889954 -0.16369689608875074
5137692010 -0.823976435159382 -0.1554547767890127
5138187305 -0.8243338026498493 -0.14586637286763443
5138682600 -0.8235563196633992 -0.14199759144532054
5139177895 -0.8231710917071292 -0.13562143633240148
5139673190 -0.8233811259269714 -0.12537011621814026
5140168485 -0.8226785314710516 -0.12128528834957826
5140663780 -0.8221499982633089 -0.11197349821266375
5141159075 -0.8215666852499309 -0.10504609973807084
5141654370 -0.8207935973217613 -0.09715485141465538
5142149665 -0.8197403236439353 -0.09133414571222506
5142644960 -0.8189930758978191 -0.08274008725818835
5143140255 -0.8172949552536011 -0.07810402504707638
5143635550 -0.8167526972921271 -0.06704607253011904
5144130845 -0.8150414040214137 -0.06265289591331231
5144626140 -0.8139990599531877 -0.05556960815661832
5145121435 -0.8124616114716781 -0.04917622671315545
5145616730 -0.8109268608846163 -0.041049976490045846
5146112025 -0.8093562471239191 -0.03271413437630001
5146607320 -0.8076188627042269 -0.026978539400979093
5147102615 -0.8058134191914609 -0.02194461804863654
5147597910 -0.8040485570305272 -0.011012915668911055
5148093205 -0.8018533995277003 -0.007284930318986115
5148588500 -0.7996811584422463 0.0024961734092549272
5149083795 -0.797339423706657 0.008080427583895232
5149579090 -0.795038038178494 0.01570567018107364
5150074385 -0.7927910622797514 0.02544197744052661
5150569680 -0.7903157817689996 0.029084320523236926
5151064975 -0.7878351933077762 0.034689393090574366
5151560270 -0.7851171242563348 0.04328307568242675
5152055565 -0.7822216937416478 0.04921039115441473
5152550860 -0.7794312771997953 0.0559630025374262
5153046155 -0.7764690581120943 0.06293541251828796
5153541450 -0.7736860356832805 0.0699413167802911
5154036745 -0.7703518145962766 0.07686715259363777
5154532040 -0.767191093218954 0.08286857644194051
5155027335 -0.7638982722633764 0.0901748988973467
5155522630 -0.7605233380669042 0.09690974299844943
5156017925 -0.756867201704728 0.10328110738804466
5156513220 -0.7533764807801497 0.10938593549163718
5157008515 -0.7498175407710829 0.11611812757818323
5157503810 -0.7458448786484567 0.12304339087323139
5157999105 -0.7419635308416266 0.12953013730676552
5158494400 -0.7380182837185106 0.13662680983543396
5158989695 -0.7337409414743122 0.14266639006765267
5159484990 -0.7296542086099324 0.14916034356543892
5159980285 -0.7253905126923009 0.15514658548330007
5160475580 -0.72093035045423 0.16152439384084
5160970875 -0.7164803555137232 0.16818086881386607
5161466170 -0.7119704610423038 0.17425036900921873
5161961465 -0.70751354568883 0.18007890566399223
5162456760 -0.702452374132056 0.18644207402279503
5162952055 -0.6976667077917802 0.19249782436772397
5163447350 -0.6928703784942627 0.1975694377171366
5163942645 -0.6876685054678666 0.20472746460061325
5164437940 -0.682866350600594 0.20952461110918144
5164933235 -0.6777701597464713 0.21501838690356204
5165428530 -0.6717354027848494 0.22259384785827838
5165923825 -0.6670608332282618 0.22666258482556595
5166419120 -0.6611167255200838 0.23332235060240092
5166914415 -0.6554747851271379 0.23889280071384028
5167409710 -0.6501454303139135 0.24374149504460788
5167905005 -0.6444927861816004 0.24848060858877083
5168400300 -0.6381316781044006 0.25515227098214
5168895595 -0.6326084827121935 0.25971973726623937
5169390890 -0.6264156134505021 0.2650464286929683
5169886185 -0.6212929142148871 0.267788279997675
5170381480 -0.6136595481320432 0.27508750401045146
5170876775 -0.6080410982433119 0.2798439295668351
5171372070 -0.6017014321527983 0.28491453591145965
5171867365 -0.5955374805550826 0.28943151392434774
5172362660 -0.5895129755923623 0.29259606097873886
5172857955 -0.5820049580774809 0.2990203327254245
5173353250 -0.5757774396946556 0.30383812596923426
5173848545 -0.5686326215141698 0.30813766780652496
5174343840 -0.5622596928947851 0.3104147064058404
5174839135 -0.5549533273044386 0.3167034685611725
5175334430 -0.5492605755203649 0.3193812934975875
5175829725 -0.5403491352733812 0.3259141852981166
5176325020 -0.534067480187667 0.32841248888718455
5176820315 -0.5273649629793669 0.33185837927617523
5177315610 -0.5200005957954809 0.33597787900974874
5177810905 -0.5127227494591161 0.3393780275395042
5178306200 -0.5051444863018236 0.3432089278572484
5178801495 -0.49832244452677277 0.3460197982035185
5179296790 -0.48927261484296697 0.3516109224997069
5179792085 -0.4841970848409753 0.35194619862656845
5180287380 -0.4754696441324134 0.35699179925416646
5180782675 -0.4681983637182336 0.3594647300870795
5181277970 -0.4602362544913041 0.36232944852427434
5181773265 -0.4529625255810587 0.36506681693227666
5182268560 -0.4458899952863392 0.3677156598944413
5182763855 -0.43776295216459976 0.3705778514084063
5183259150 -0.4297965921853718 0.3730588069087581
5183754445 -0.4228232565679048 0.3747095669570722
5184249740 -0.4143106937408447 0.37761236335101883
5184745035 -0.40588896368679245 0.3800556487158725
5185240330 -0.3984200719155763 0.3816894998675899
5185735625 -0.38995869693003204 0.384349292830417
5186230920 -0.3825393977918123 0.38536702018035085
5186726215 -0.3742211225785707 0.3885081504520617
5187221510 -0.3664608315417641 0.3888140916824341
5187716805 -0.3581912078355488 0.39066273444577265
5188212100 -0.3495164654756847 0.3923809261698472
5188707395 -0.3416101305108321 0.39374773910171107
5189202690 -0.33290605325447886 0.3948791858397032
5189697985 -0.32544140596138804 0.3958124079202351
5190193280 -0.31674394325206157 0.39696676480142695
5190688575 -0.30853409359329625 0.39772426140935796
5191183870 -0.30094931941283376 0.39800370366949783
5191679165 -0.29224929056669535 0.3988538478550158
5192174460 -0.28404190508942856 0.3991494429738898
5192669755 -0.27585686978540924 0.3991588228627255
5193165050 -0.26770877838134766 0.39991714766151026
