# HZ S RI R 50
5000000000 0.0960536379563181 -0.4400112801476529
5000495295 0.08925125904773411 -0.4441229999065399
5000990590 0.08504558746751986 -0.4483054327337365
5001485885 0.07916668135868876 -0.4527332029844585
5001981180 0.0742482033215071 -0.45633228672178167
5002476475 0.06811550769366716 -0.4603780115905561
5002971770 0.06229425006006893 -0.46426161809971456
5003467065 0.05753371021465251 -0.4680007445184808
5003962360 0.05093258050711531 -0.47135158902720403
5004457655 0.045198064101369756 -0.4752815036397231
5004952950 0.038467255469999816 -0.4784032749502282
5005448245 0.03302738599871334 -0.4816870861931851
5005943540 0.028663827596526397 -0.4850699776097348
5006438835 0.021441180455057246 -0.4879610867876756
5006934130 0.014268187953061178 -0.49093686906914963
5007429425 0.008852815304539706 -0.49362270141902725
5007924720 0.0025434792041778564 -0.49695567080849096
5008420015 -0.0027051090115779324 -0.4997292145302421
5008915310 -0.008836610340758375 -0.5024003637464423
5009410605 -0.015131970965548566 -0.504793245541422
5009905900 -0.022033199177760827 -0.5074286398134733
5010401195 -0.02829578430636933 -0.50951171548743
5010896490 -0.0345717476386773 -0.5119099554262663
5011391785 -0.041292909336717504 -0.5139706605359128
5011887080 -0.04684869964656077 -0.5157869269973353
5012382375 -0.05371878590238722 -0.5175961318768953
5012877670 -0.06021771246665403 -0.5193332653296622
5013372965 -0.0671940983126038 -0.5216754361202842
5013868260 -0.07322838941687032 -0.5227853342106468
5014363555 -0.07973992001069219 -0.5244977850663034
5014858850 -0.08562033388175462 -0.5259634789667631
5015354145 -0.09295186518054259 -0.527016536185616
5015849440 -0.09896495899087504 -0.5286137963596144
5016344735 -0.10550878942012787 -0.529487807499735
5016840030 -0.11212254550896193 -0.5299923388581527
5017335325 -0.11865320997802835 -0.5307223828215348
5017830620 -0.12492640277272776 -0.531317014443247
5018325915 -0.1320437624266273 -0.5321450672651592
5018821210 -0.13941664287918493 -0.5322194130797135
5019316505 -0.1451112212319123 -0.5330083338837874
5019811800 -0.15246367140820152 -0.5329273405827974
5020307095 -0.15838121975723066 -0.5336094780972129
5020802390 -0.16459532787925318 -0.533496053595292
5021297685 -0.17043869432650113 -0.5331919193267822
5021792980 -0.17741873703504862 -0.5334021605943379
5022288275 -0.18486468729219938 -0.5327705207623934
5022783570 -0.18933748493069097 -0.5326646535020125
5023278865 -0.19753219736249825 -0.5317910815540113
5023774160 -0.20298049402864357 -0.5314456914600573
5024269455 -0.20973137726909236 -0.5307992069344771
5024764750 -0.21567059739639885 -0.5300068321980929
5025260045 -0.22258204378579793 -0.5290161214376751
5025755340 -0.22821346474321266 -0.5281703127057928
5026250635 -0.2349756807088852 -0.5270828918406838
5026745930 -0.240888259912792 -0.525731557293942
5027241225 -0.24795712373758616 -0.5240368748966017
5027736520 -0.2539718747138977 -0.5229315444042808
5028231815 -0.2595236254365821 -0.5216739554154245
5028727110 -0.2647694474772403 -0.5202707146343432
5029222405 -0.2732308365796742 -0.5174119786212319
5029717700 -0.2784175119901958 -0.5164487989325273
5030212995 -0.2846031173279411 -0.5141617781237552
5030708290 -0.28987287220201996 -0.5115840278173748
5031203585 -0.2965548744327144 -0.5101938843727112
5031698880 -0.3023327604720467 -0.5081190937443784
5032194175 -0.3078376399843316 -0.5058462776635823
5032689470 -0.31340916690073517 -0.5032563460500616
5033184765 -0.3200681978150418 -0.5003464253325212
5033680060 -0.3256643885060361 -0.4975319441996123
5034175355 -0.33047946032724884 -0.4957600251624459
5034670650 -0.33629255075203746 -0.49270340329722356
5035165945 -0.34248050733616475 -0.48886531591415405
5035661240 -0.3480417759794938 -0.48705827876141194
5036156535 -0.3534023322557148 -0.48323803983236613
5036651830 -0.3582950689290699 -0.48038802021428156
5037147125 -0.36441238930350855 -0.47731648463951915
5037642420 -0.3683934211730957 -0.47418890971886485
5038137715 -0.37476434833125066 -0.46996870480085673
5038633010 -0.37943989352176066 -0.4672548206228959
5039128305 -0.3851246033844195 -0.4628084192150517
5039623600 -0.3896247524964182 -0.4597569641314055
5040118895 -0.39482937047356054 -0.45527552303514984
5040614190 -0.39961909934094075 -0.45107058318037735
5041109485 -0.40370465893494456 -0.44843139460212306
5041604780 -0.40925966595348556 -0.4429214957513307
5042100075 -0.4139488260996969 -0.4395119814496291
5042595370 -0.41842246212457357 -0.43485627205748306
5043090665 -0.422958305007533 -0.4300284275883122
5043585960 -0.4265427652158235 -0.4261728070284191
5044081255 -0.43185698986053467 -0.42146120573344986
5044576550 -0.4351218687860589 -0.41699835658073425
5045071845 -0.4389805432997252 -0.4124207010394649
5045567140 -0.44430445997338547 -0.40708457168779877
5046062435 -0.447416846689425 -0.40217197411938715
5046557730 -0.45177216435733597 -0.39718319867786606
5047053025 -0.455221740823043 -0.39243863758287933
5047548320 -0.4596446736862785 -0.387017907280671
5048043615 -0.46250379869812414 -0.38189242544927093
5048538910 -0.4660798185750058 -0.3771095401362369
5049034205 -0.4685936036862825 -0.3718578533122414
5049529500 -0.47263105292069285 -0.36637003798233836
5050024795 -0.4727053265822561 -0.36329109574619095
5050520090 -0.47769465415101303 -0.3547904914931247
5051015385 -0.48082288315421656 -0.3494430231420617
5051510680 -0.48330393904133845 -0.34354909313352483
5052005975 -0.4860347132933767 -0.33834391989206014
5052501270 -0.4887239227169438 -0.3330193318818745
5052996565 -0.49104579028330353 -0.32671740337422017
5053491860 -0.4930009983087841 -0.32152442869387177
5053987155 -0.49605411604831096 -0.315527584991957
5054482450 -0.49717883844124644 -0.30919107481053
5054977745 -0.4993078159658532 -0.3038343614653537
5055473040 -0.5010300921766382 -0.2976138356484865
5055968335 -0.502597429250416 -0.2920063890908894
5056463630 -0.5042824588323894 -0.2860585325642636
5056958925 -0.5054415527142977 -0.28040190903764023
5057454220 -0.5067165870415536 -0.2741560245815076
5057949515 -0.507874397855056 -0.2680246359423587
5058444810 -0.509255732360639 -0.2614350444392154
5058940105 -0.5098305532806798 -0.2557470767121566
5059435400 -0.5114154250998246 -0.24943802544945165
5059930695 -0.5113077697001005 -0.24381168814081894
5060425990 -0.5116458064631412 -0.2379400549750579
5060921285 -0.5123467853194789 -0.2312662577942798
5061416580 -0.5128326541499088 -0.22559636517574913
5061911875 -0.5127127170562744 -0.21918488725235588
5062407170 -0.5132577231055812 -0.212989573415957
5062902465 -0.5128031812216106 -0.20651743600243017
5063397760 -0.5125517154994764 -0.20126757653136002
5063893055 -0.5123255629288522 -0.19418763800671227
5064388350 -0.5116272819669623 -0.18850956778777272
5064883645 -0.5114505981144152 -0.18238397177897
5065378940 -0.5100623839779904 -0.17689153159919538
5065874235 -0.5091383551296434 -0.17088191446505094
5066369530 -0.5085136137510601 -0.16451368912270195
5066864825 -0.5072710482697738 -0.15904254113373004
5067360120 -0.5058257768028661 -0.15280220461519142
5067855415 -0.5045000095116464 -0.14672053566104487
5068350710 -0.5028578419434396 -0.14112124239143573
5068846005 -0.5012440273636266 -0.1353262584460409
5069341300 -0.4998351131614886 -0.12807591298693105
5069836595 -0.4972587980722126 -0.12409672180288717
5070331890 -0.4957258371930373 -0.11672821327259666
5070827185 -0.49295831824603836 -0.1129594057014114
5071322480 -0.4913155671797301 -0.10479735504639776
5071817775 -0.48831687632359955 -0.10104860130109285
5072313070 -0.48584237694740295 -0.09419939157209899
5072808365 -0.48289861961414937 -0.08999209419677132
5073303660 -0.48056106190932424 -0.08345982471579
5073798955 -0.4772198827643144 -0.07910783824167754
5074294250 -0.4742202947014256 -0.0738520998703806
5074789545 -0.47099084446304723 -0.06773418305735839
5075284840 -0.46785193054299606 -0.06271993466898014
5075780135 -0.4640424173129232 -0.059365312323758475
5076275430 -0.4608273019916133 -0.0526969291661915
5076770725 -0.45689333112616287 -0.048114965032590065
5077266020 -0.4530154043122342 -0.043933702338682976
5077761315 -0.44930743073162277 -0.03886661619732255
5078256610 -0.4452638406502573 -0.035059767138016854
5078751905 -0.4410937459845292 -0.030610091984272003
5079247200 -0.4368917487169567 -0.02606486940854474
5079742495 -0.4327173578111749 -0.02170458886968462
5080237790 -0.4282809511611336 -0.018141956019558404
5080733085 -0.42397934512088176 -0.01304345288755078
5081228380 -0.4192055808870416 -0.010015129013673255
5081723675 -0.4145694359352714 -0.005537659763113449
5082218970 -0.4101176873633736 -0.001915565103684601
5082714265 -0.405184490116019 0.001279253757705814
5083209560 -0.40027863571518346 0.004802950902989036
5083704855 -0.39540559680838333 0.008261345915104213
5084200150 -0.39043232798576355 0.011496213019678467
5084695445 -0.3852160102442691 0.014318593875750116
5085190740 -0.38013661848871333 0.017239069468096682
5085686035 -0.37484413542245565 0.020341115660573308
5086181330 -0.36950951344088506 0.023318933224991747
5086676625 -0.3642624051947343 0.02562972756200715
5087171920 -0.3589621735246558 0.02803514113551692
5087667215 -0.353420648135637 0.029828536373219992
5088162510 -0.34790150429073136 0.03239194490015507
5088657805 -0.34277345004834625 0.03475750492591607
5089153100 -0.3367005147432026 0.03642651144611208
5089648395 -0.3311098453245665 0.03858308337236706
5090143690 -0.32555866555163737 0.03996186526982408
5090638985 -0.31977886745804235 0.04147809998769509
5091134280 -0.3140874473672164 0.04282036384469584
5091629575 -0.30837018552579376 0.04394611206493879
5092124870 -0.3025387321647845 0.04483202217440856
5092620165 -0.2968811847661671 0.046177625263992106
5093115460 -0.2911327528326135 0.04680683679486576
5093610755 -0.28555196209957723 0.047289909500824776
5094106050 -0.2797841649306448 0.04768184533244685
5094601345 -0.2738243231647893 0.04820368399745539
5095096640 -0.2683208067166178 0.048457698014221694
5095591935 -0.26262215407271133 0.04867109950435789
5096087230 -0.25703874544093486 0.04868006568990255
5096582525 -0.25097708953054326 0.04881134295934125
5097077820 -0.2453717307040566 0.04824154863232061
5097573115 -0.239873720627082 0.0480055018867317
5098068410 -0.2340214989687267 0.04695883275646912
5098563705 -0.22844057098815315 0.04697062153565256
5099059000 -0.22282463782712034 0.04589864043028731
5099554295 -0.21766943131622515 0.04498761755071188
5100049590 -0.21331435206689334 0.0447018417088609
5100544885 -0.20804484423838163 0.04277516685818371
5101040180 -0.2028197865737112 0.04145114692418199
5101535475 -0.19730669495306516 0.04111520867598684
5102030770 -0.19209089169376775 0.03846349606388494
5102526065 -0.18690305320840134 0.03707234620263702
5103021360 -0.181838784562914 0.03521645637719255
5103516655 -0.17648764738911077 0.03399253264069557
5104011950 -0.17165354835359672 0.031289880016916675
5104507245 -0.1665460937901547 0.02986782661786205
5105002540 -0.16168074231398732 0.027288225920576798
5105497835 -0.15664540858645187 0.025064155361370036
5105993130 -0.1519564311755331 0.022791581816579167
5106488425 -0.14712459084234739 0.02090271876046532
5106983720 -0.14267670245547043 0.01731486422450919
5107479015 -0.1378818193548604 0.015118673541828206
5107974310 -0.13360744636309774 0.01213583404100255
5108469605 -0.12901273212934794 0.00945113712039433
5108964900 -0.12479930841609051 0.006439126733886569
5109460195 -0.12054468495281119 0.0033298062748814885
5109955490 -0.11633157024258062 0.0006884172264682619
5110450785 -0.1122062194504236 -0.002596341612699785
5110946080 -0.10807448782418903 -0.005618760754403315
5111441375 -0.10412977792714771 -0.009253449836059621
5111936670 -0.10031269686786752 -0.012393244002994738
5112431965 -0.0964867009928352 -0.01595773655725153
5112927260 -0.09291702587353556 -0.01921666727254265
5113422555 -0.08927389704867413 -0.022852074158819097
5113917850 -0.08586961893658888 -0.026418324559926987
5114413145 -0.08220345840642326 -0.030130037351658468
5114908440 -0.07875860560881465 -0.033837486646677316
5115403735 -0.07546539408595938 -0.03734108864476806
5115899030 -0.0721207763019361 -0.041205614609153646
5116394325 -0.06909705894558053 -0.04529534064625439
5116889620 -0.06602527907020167 -0.049036150700167605
5117384915 -0.06305779046133946 -0.05293200282674087
5117880210 -0.060186478064248435 -0.05705485081202105
5118375505 -0.05704533955768535 -0.06117988515057062
5118870800 -0.0544616815290953 -0.06527505697388399
5119366095 -0.051951990903992405 -0.06965421610756924
5119861390 -0.04917605240878306 -0.07363977440093693
5120356685 -0.046769136857045326 -0.07795209868958122
5120851980 -0.04413471684644097 -0.08233522859058882
5121347275 -0.04199416876623505 -0.08653863676284489
5121842570 -0.03987028959550356 -0.09113321139624245
5122337865 -0.03777736621467691 -0.09559418182624013
5122833160 -0.03593390297732855 -0.09975807996172655
5123328455 -0.033837279795031795 -0.10428722398845773
5123823750 -0.03218545980359379 -0.10883813469033492
5124319045 -0.030496704147050257 -0.11312068685104973
5124814340 -0.028634009294604 -0.11791835411598808
5125309635 -0.027355838665052465 -0.12215362567650645
5125804930 -0.026039921041381985 -0.12683032374632985
5126300225 -0.02467505202481621 -0.13137680527411008
5126795520 -0.023715975841409283 -0.13573839476234034
5127290815 -0.02219941888592745 -0.14054978050683675
5127786110 -0.021536325349619512 -0.14500265372426888
5128281405 -0.020342797237007243 -0.14959393833812915
5128776700 -0.019443447652616 -0.1541486555024197
5129271995 -0.0188400337570592 -0.15872080780957876
5129767290 -0.018064891135222035 -0.16305482073834068
5130262585 -0.017595419366108745 -0.16763850497572044
5130757880 -0.017155606103570836 -0.1721229812032298
5131253175 -0.016826590032953965 -0.17694838815613798
5131748470 -0.01628827935967006 -0.1813894227931374
5132243765 -0.016101151312652388 -0.18573612288424843
5132739060 -0.016361362153762264 -0.19043822664963572
5133234355 -0.016175974356500727 -0.19483675454792224
5133729650 -0.01643489389435241 -0.19925911724567413
5134224945 -0.0164112161452833 -0.2036195711085671
5134720240 -0.0167790029786135 -0.20806182450369784
5135215535 -0.017169806420018797 -0.21227746574502243
5135710830 -0.01741610085101504 -0.21640431724096598
5136206125 -0.01820836686774304 -0.22070099413394928
5136701420 -0.018519533209894832 -0.22529958266960948
5137196715 -0.019406374151769438 -0.22899007169823898
5137692010 -0.020352210065251904 -0.23342866489761754
5138187305 -0.02112748807198123 -0.23757328485187731
5138682600 -0.021547792871531687 -0.24159262368553563
5139177895 -0.022921597094912278 -0.24555428875120064
5139673190 -0.024094236524481522 -0.24943497933839498
5140168485 -0.0245696246427925 -0.25339809687514053
5140663780 -0.02661312302868617 -0.2573478300320475
5141159075 -0.02828225111098666 -0.26133264836512116
5141654370 -0.02802566036974129 -0.26527267067055954
5142149665 -0.030187849837698434 -0.2688539106594889
5142644960 -0.030826438512457043 -0.27264924739536484
5143140255 -0.03247542757737009 -0.2761570372079548
5143635550 -0.034536161705067285 -0.2800996005535126
5144130845 -0.035874130106286 -0.28401919885685567
5144626140 -0.036965210382875646 -0.2871351398919758
5145121435 -0.03791621484254536 -0.29095148569659185
5145616730 -0.040928996119060014 -0.29436021415810837
5146112025 -0.043137660740237484 -0.29749817126675654
5146607320 -0.04442472383379936 -0.3009964949206302
5147102615 -0.045855292756306495 -0.30488631756682144
5147597910 -0.047574264830664584 -0.30772599107340765
5148093205 -0.04969556825725656 -0.31097467949515895
5148588500 -0.05220969158567881 -0.31374453557165044
5149083795 -0.05370995676831195 -0.31769527730188873
5149579090 -0.05635401018356022 -0.3206953280850461
5150074385 -0.058778566945540275 -0.32353004970048604
5150569680 -0.05979076321972044 -0.32661524101307515
5151064975 -0.06225416515218584 -0.3297116834866373
5151560270 -0.06420644686410301 -0.33278815213002655
5152055565 -0.06649909795899141 -0.33548251892391007
5152550860 -0.069059871529278 -0.33878091761940404
5153046155 -0.07130825950911171 -0.3412576741293857
5153541450 -0.07378458192473963 -0.3442452753845014
5154036745 -0.07652914602505534 -0.346867079797544
5154532040 -0.0787987050257231 -0.3495417472563292
5155027335 -0.08128165924235393 -0.3522977546641701
5155522630 -0.0837536611055073 -0.35464917829162196
5156017925 -0.08642874226758354 -0.3570326488269003
5156513220 -0.08913974620793995 -0.35984790482019124
5157008515 -0.09230352310757887 -0.3620286693698482
5157503810 -0.09513741888498005 -0.36414615888344615
5157999105 -0.09789405527867769 -0.36651319892782913
5158494400 -0.10011336128962667 -0.36872739697757523
5158989695 -0.10290622593540895 -0.37040964866939347
5159484990 -0.1058583851707609 -0.37269206423508494
5159980285 -0.10896428556818712 -0.37487651956708806
5160475580 -0.11169846708837308 -0.3767400823141399
5160970875 -0.11467675786269338 -0.37852682722242253
5161466170 -0.11789411227954061 -0.38060359578383596
5161961465 -0.12104097008705139 -0.38230907917022705
5162456760 -0.12358487867995312 -0.3840970851873097
5162952055 -0.12637572774761602 -0.38589189868224294
5163447350 -0.12947147927786173 -0.3874687693620983
5163942645 -0.1326593152786556 -0.38845939228409215
5164437940 -0.13598708181004776 -0.39021965861320496
5164933235 -0.1390245407819748 -0.39159390173460307
5165428530 -0.14221938346561633 -0.39298750852283676
5165923825 -0.14530232705568014 -0.3942114851976696
5166419120 -0.1475888663216641 -0.3957899902996264
5166914415 -0.15200154326464 -0.39627668104673686
5167409710 -0.15455805157360278 -0.3980822374946193
5167905005 -0.15780995707762868 -0.39883390696425186
5168400300 -0.16076973159062236 -0.3996787102598893
5168895595 -0.16393666596789108 -0.40052869131690577
5169390890 -0.1675017154530475 -0.4012637734413147
5169886185 -0.170468323324856 -0.40190015341106217
5170381480 -0.17385037713929227 -0.4025496714993527
5170876775 -0.1767603072680925 -0.4031599556144915
5171372070 -0.17940639508397957 -0.40378267827786896
5171867365 -0.18318182622131549 -0.40371943774976227
5172362660 -0.18610570226844989 -0.40434702603440537
5172857955 -0.18905236297532133 -0.4047625676581734
5173353250 -0.19181571195000097 -0.4050900951812142
5173848545 -0.19355696596597372 -0.4058199022945605
5174343840 -0.19814321555589376 -0.4049651105152933
5174839135 -0.20098294788285306 -0.4056098539578287
5175334430 -0.2038147880842811 -0.4052427944384123
5175829725 -0.20614360900301681 -0.40595601891216476
5176325020 -0.20902938042816363 -0.4057969921513608
5176820315 -0.21252244789349406 -0.4054966772857465
5177315610 -0.21613756292744687 -0.40500623615164505
5177810905 -0.21765795506929098 -0.4056592317003953
5178306200 -0.2205329129570409 -0.4055118403936687
5178801495 -0.22344947331830076 -0.4049525260925293
5179296790 -0.22728900768254934 -0.4041856056765506
5179792085 -0.2298185197930587 -0.4031769743091182
5180287380 -0.23136170365308462 -0.40434556572060837
5180782675 -0.23527188363828158 -0.4034254911698793
5181277970 -0.2379175244193328 -0.4028654992580414
5181773265 -0.24107282647961065 -0.4022375862849386
5182268560 -0.24307014048099518 -0.40211848993050425
5182763855 -0.2463246042791166 -0.4011551910325101
5183259150 -0.24850219958706907 -0.4007779924493087
5183754445 -0.2521571218967438 -0.4003956521812238
5184249740 -0.2547931231950459 -0.39877212831848546
5184745035 -0.2555675208568573 -0.399294608517697
5185240330 -0.25920433276578 -0.3976450735016873
5185735625 -0.26195408011737625 -0.39680426999142293
5186230920 -0.2642803003913478 -0.39612606795210586
5186726215 -0.2670966433851342 -0.3938966409156197
5187221510 -0.26946404419447245 -0.3938325753337459
5187716805 -0.27196696714351054 -0.3926827907562256
5188212100 -0.27438099290195267 -0.3910594864895469
5188707395 -0.27634528122450175 -0.39011401251742717
5189202690 -0.2789972001000455 -0.38879147956245824
