# HZ S RI R 50
5000000000 -0.6329138624040704 0.36014101536650406
5000495295 -0.6287969413556551 0.362131267786026
5000990590 -0.6222480064944217 0.3677123471310264
5001485885 -0.6154312522787797 0.37381591765504135
5001981180 -0.6093012596431532 0.37905898847078023
5002476475 -0.60321832644312 0.38330419440018504
5002971770 -0.5982364792572824 0.38683692875661346
5003467065 -0.5904380208567569 0.39262545108795166
5003962360 -0.5837604215270594 0.3980741689079686
5004457655 -0.577368930766457 0.40179421713477687
5004952950 -0.5709074672899748 0.4064887589529941
5005448245 -0.5647408177978114 0.4097381657675693
5005943540 -0.5577010480981124 0.41451018734982137
5006438835 -0.550555850330152 0.4191993757298118
5006934130 -0.5435016406209845 0.42309857042212234
5007429425 -0.5376030865468477 0.42647986819869593
5007924720 -0.5298803480047929 0.4308189937942906
5008420015 -0.5226500316670066 0.4345769741033253
5008915310 -0.5163285198964571 0.43759941741039876
5009410605 -0.5085425910196806 0.4421082499780153
5009905900 -0.5002917317967666 0.4456426469903243
5010401195 -0.49473315634225545 0.4486981473470989
5010896490 -0.48666553277718394 0.45212233380267497
5011391785 -0.4791690017047681 0.45521279542069687
5011887080 -0.4718167891627864 0.45840921998023987
5012382375 -0.46438471110243545 0.4616616885913046
5012877670 -0.4574439227581024 0.4646226497072923
5013372965 -0.44937590862575333 0.46700779074116755
5013868260 -0.44124630093574524 0.47036486393526983
5014363555 -0.43386061568009227 0.47290513546843277
5014858850 -0.42598234666021245 0.47497807992132085
5015354145 -0.41819887882784795 0.47789414932853297
5015849440 -0.4097409640487872 0.4799834207484597
5016344735 -0.4031939616328792 0.4819124842944898
5016840030 -0.3942818814202359 0.4849582785054257
5017335325 -0.38648420572280884 0.4870684382162596
5017830620 -0.37818428246598496 0.48851851726833145
5018325915 -0.3704696266274703 0.4906316101551056
5018821210 -0.3627714248080003 0.49185368104984883
5019316505 -0.3549002424666756 0.49339473561236735
5019811800 -0.34617683918852554 0.495497664338664
5020307095 -0.33833538701659754 0.49672067322229085
5020802390 -0.3305976782974444 0.49731826468517903
5021297685 -0.3218195124676353 0.49866366543267904
5021792980 -0.31449969975571884 0.4994233564326638
5022288275 -0.3051068547524904 0.5014245541472184
5022783570 -0.297335717238878 0.5013881247294577
5023278865 -0.28805764882188095 0.502873674819344
5023774160 -0.28094310823239776 0.502842758831225
5024269455 -0.27294647536779704 0.5029300231682626
5024764750 -0.2642313571352708 0.5037610656336734
5025260045 -0.2569798638946132 0.5035471131927088
5025755340 -0.24683062340083875 0.5041207326085944
5026250635 -0.23920208921557978 0.5037564227455541
5026745930 -0.23070042227443896 0.5038118801618877
5027241225 -0.2230173294481478 0.5032485284303364
5027736520 -0.21394294735632444 0.5030004350762618
5028231815 -0.20566732083496295 0.5027231103495547
5028727110 -0.1982425631661164 0.5018373382718939
5029222405 -0.18810775483909406 0.5015724897384644
5029717700 -0.18105709082201907 0.5003296717217094
5030212995 -0.1724352295461454 0.499308422992104
5030708290 -0.1652832407700388 0.4974935195947948
5031203585 -0.15610115857500778 0.49682203562636124
5031698880 -0.1477807242619364 0.4956322547636534
5032194175 -0.1393252846441771 0.494084169990138
5032689470 -0.13218749824323153 0.4925945589416905
5033184765 -0.12329240731502834 0.4910993450566342
5033680060 -0.1149683833906525 0.4893938851983924
5034175355 -0.10655936637991353 0.48719570511265803
5034670650 -0.09915757963531896 0.48531960970477056
5035165945 -0.09046699694897 0.4831827800524862
5035661240 -0.08359387164053164 0.4811774476578361
5036156535 -0.0743946417381889 0.4788451069279721
5036651830 -0.06712019051376142 0.4759517845354582
5037147125 -0.05892518378402058 0.4736208649058091
5037642420 -0.05184682399818772 0.4713365200318788
5038137715 -0.043037892172211094 0.4686114490032196
5038633010 -0.03532746512638895 0.4653772727439278
5039128305 -0.027537769098815165 0.4628893074236418
5039623600 -0.020047002815102275 0.45953750453497233
5040118895 -0.012367171382433489 0.45705655530879374
5040614190 -0.004192807858711795 0.4533801549359372
5041109485 0.0030678742516197658 0.4498306089325955
5041604780 0.010993062518537045 0.4464607725017949
5042100075 0.017979623063614492 0.44273399992993
5042595370 0.024987858180937014 0.43915330108843353
5043090665 0.033470832987835535 0.4355188106235705
5043585960 0.040202335895676365 0.43122902355696024
5044081255 0.04781470898734896 0.4275477199177993
5044576550 0.05455985057510828 0.4232464228805743
5045071845 0.06162525733050547 0.41916684100502416
5045567140 0.06907577067613602 0.4149378898896669
5046062435 0.07564611105542433 0.41076819206538956
5046557730 0.0834704770853645 0.4059873380159077
5047053025 0.090416267122093 0.40148527371255976
5047548320 0.09771424688790974 0.3969724633191761
5048043615 0.10354480265002501 0.39186624319929825
5048538910 0.11048785126522968 0.38715067505836487
5049034205 0.11674857139587402 0.38229150207419144
5049529500 0.12355147694286547 0.3772485083655307
5050024795 0.12865641948423887 0.3727013029550251
5050520090 0.1369050670611231 0.36701161767307083
5051015385 0.14243061918961375 0.36206236795375224
5051510680 0.1487558625246349 0.3565577566623688
5052005975 0.15494448260257118 0.35062174734316376
5052501270 0.1613116907446008 0.34592893092255844
5052996565 0.16720616190057053 0.339974886492679
5053491860 0.17257900457633168 0.3347744000585456
5053987155 0.17848061181997 0.3288833953832325
5054482450 0.1845127595098395 0.3230269645389758
5054977745 0.19007137025657453 0.3168006711884549
5055473040 0.19576833436363622 0.31157786438339635
5055968335 0.20148114232640518 0.305480033159256
5056463630 0.20682329880563835 0.2993138777582269
5056958925 0.21136932545586637 0.29315869431746633
5057454220 0.2169194731273149 0.2871333658695221
5057949515 0.22244465586386228 0.2806933726135053
5058444810 0.2270063993177916 0.2740760963214071
5058940105 0.23220257853206835 0.26810084989196376
5059435400 0.2372669750138333 0.2619690738226238
5059930695 0.24180858621471807 0.25546745877516897
5060425990 0.2466257277287935 0.24865007557367025
5060921285 0.2510414915649514 0.24200934406958127
5061416580 0.25547171737018387 0.23555985720534073
5061911875 0.2599498284490485 0.22903200748719668
5062407170 0.2640756650974876 0.2225305963503687
5062902465 0.2686112664247814 0.21559075854326548
5063397760 0.27228661744218124 0.2095405561359305
5063893055 0.2763658134560836 0.20238690470394335
5064388350 0.28051124277867767 0.19504182981817345
5064883645 0.2847162249841188 0.18798455125407168
5065378940 0.2879763198526282 0.18190139610516398
5065874235 0.2918396733309093 0.17448101624062187
5066369530 0.29492994515519394 0.1683023673923392
5066864825 0.29875403015237106 0.1608370220974872
5067360120 0.302940214935102 0.15246773236676267
5067855415 0.3053897023200989 0.1470022052526474
5068350710 0.30856070079301534 0.1397273140518289
5068846005 0.3118257616695605 0.13231991937285975
5069341300 0.3149154750924361 0.12460445887164066
5069836595 0.3181576164145219 0.11731981172373421
5070331890 0.3206397985157214 0.11125498186600835
5070827185 0.3231037353214465 0.1042153011811407
5071322480 0.32604825339819254 0.09590597411519602
5071817775 0.3286058667458986 0.08851926264009978
5072313070 0.3312623202800751 0.08187861073958247
5072808365 0.33331872130695145 0.07567945906990453
5073303660 0.33599008855066803 0.06700501355685685
5073798955 0.3381396249720925 0.05943437097103972
5074294250 0.34032715308038813 0.05282960008633764
5074789545 0.34217503823732076 0.045803268489084746
5075284840 0.34402950186478465 0.038714769051263205
5075780135 0.3460058209143187 0.029962662313329547
5076275430 0.34764179744218526 0.023390612515964006
5076770725 0.349348656441036 0.015603299840892615
5077266020 0.3509343815477271 0.008195343231292148
5077761315 0.35227396143110173 0.0007249507072724794
5078256610 0.3537201363789408 -0.006281749345362186
5078751905 0.3549999469204953 -0.014055401773044937
5079247200 0.35599830589796366 -0.021192251949718122
5079742495 0.3572990549238105 -0.028514680893797623
5080237790 0.35825629924473007 -0.036611352311937434
5080733085 0.3590198974860342 -0.043975061687983964
5081228380 0.3597802253145921 -0.051474296929020634
5081723675 0.3606139217552386 -0.05863820643801438
5082218970 0.3611567365495782 -0.06644485655583833
5082714265 0.36183191757453115 -0.0736489095970204
5083209560 0.36226117454077067 -0.08111279497021123
5083704855 0.36242472811749105 -0.08848986813896581
5084200150 0.36280030325839396 -0.09599621986088
5084695445 0.3631112748070767 -0.10323450792776911
5085190740 0.3630899159531844 -0.11024281147279237
5085686035 0.3628775932286915 -0.1183695408858751
5086181330 0.3626814657136014 -0.12537921494559237
5086676625 0.36278381473139715 -0.13261203624700246
5087171920 0.36235067718907404 -0.13970998400136045
5087667215 0.3619532224379088 -0.14751569142467097
5088162510 0.36130679281134354 -0.1547248230168694
5088657805 0.36089607132108587 -0.1617940311369143
5089153100 0.3602131730631778 -0.16922613429395775
5089648395 0.3592617997997685 -0.17632773518562317
5090143690 0.35865038005929245 -0.18352276557370237
5090638985 0.35777960796105235 -0.19089038277927198
5091134280 0.3569792948271099 -0.19782173398293948
5091629575 0.35587198640170853 -0.20457199529597633
5092124870 0.3544304841443112 -0.21224671994384967
5092620165 0.35356007124248306 -0.2190597520062798
5093115460 0.35197015185105174 -0.22598882019519806
5093610755 0.35092871753793015 -0.23265842858113742
5094106050 0.34932943551163925 -0.23978270198169507
5094601345 0.3477658394135927 -0.2468699608978472
5095096640 0.34613650566653203 -0.2534369998856595
5095591935 0.34427258529161153 -0.26084868217769425
5096087230 0.34273399491059153 -0.2673816602481039
5096582525 0.3411286065452977 -0.27377456426620483
5097077820 0.33952055008787857 -0.28051324423990753
5097573115 0.33733759271471125 -0.2874150480094709
5098068410 0.33533229953364324 -0.2942152838957937
5098563705 0.33361046878915085 -0.3002130467640726
5099059000 0.3321005200084887 -0.3061111192954214
5099554295 0.3284045912717518 -0.3143439465447476
5100049590 0.3278951535099431 -0.3212645289145018
5100544885 0.32569336263757004 -0.32786309719085693
5101040180 0.3233118527813962 -0.33411112741420146
5101535475 0.32086911326960516 -0.3403682881279996
5102030770 0.317634221754576 -0.34742504515145956
5102526065 0.3139653943086925 -0.35447629972508077
5103021360 0.31326207832286235 -0.3592896586970279
5103516655 0.3098140829487851 -0.3654078292219262
5104011950 0.30672478518987956 -0.3724500552604073
5104507245 0.3034624096594359 -0.37892840410533707
5105002540 0.30128683855659083 -0.3843053704813907
5105497835 0.29859743149657 -0.3903939112236625
5105993130 0.29523312574938726 -0.39641305647398295
5106488425 0.2921299338340759 -0.40250397512787267
5106983720 0.28815195121263204 -0.4088486495770906
5107479015 0.28735105301204483 -0.4131798681459929
5107974310 0.28227459756951584 -0.42039786828191655
5108469605 0.2792357441626097 -0.4260308899377522
5108964900 0.2762953686086755 -0.4320747899381738
5109460195 0.2722273719938178 -0.4372038966731021
5109955490 0.2685377503696241 -0.4432738376291175
5110450785 0.2657714611605594 -0.4485628275494826
5110946080 0.2612865520151038 -0.45452042786698593
5111441375 0.2586724303270641 -0.45972076058387756
5111936670 0.25380447977467585 -0.4653771645144412
5112431965 0.2506513791648965 -0.4704471199136031
5112927260 0.24645087279771505 -0.47615763074473333
5113422555 0.24268087038868352 -0.4811418354511261
5113917850 0.2384512557795173 -0.48668055942184046
5114413145 0.23415741167570414 -0.4917424572141547
5114908440 0.23076223464388596 -0.4967783611071737
5115403735 0.22711110193478434 -0.5015022409589667
5115899030 0.22228406918676277 -0.5067877330278096
5116394325 0.21842921799735018 -0.5118404532733717
5116889620 0.21415147812742935 -0.5168532446811074
5117384915 0.20959391248853584 -0.5213112642890528
5117880210 0.20596171915531158 -0.5264725873344823
5118375505 0.20109588613635615 -0.5315559443674589
5118870800 0.19682629328025014 -0.5362957559133831
5119366095 0.19362224795316396 -0.540701128934559
5119861390 0.18851496436093984 -0.5454185416823939
5120356685 0.18387247073022941 -0.5496562060556913
5120851980 0.17931660460798363 -0.5547031132798446
5121347275 0.17430316382332853 -0.5588434118973581
5121842570 0.1708784542585674 -0.5631532355358726
5122337865 0.16518955246398323 -0.5678730638403642
5122833160 0.1607078917716679 -0.5717989833731401
5123328455 0.1558434335809005 -0.5760399699211121
5123823750 0.15103979879303983 -0.5806531874757064
5124319045 0.1463488818783509 -0.5840679469861483
5124814340 0.14202131801529935 -0.5895223994004098
5125309635 0.13653856986447385 -0.5923202382890802
5125804930 0.1319179919205214 -0.5962060407588357
5126300225 0.12678356782386177 -0.599946705918563
5126795520 0.12272101483846966 -0.6044505583612543
5127290815 0.11603362544586784 -0.6078442429241381
5127786110 0.11186975711270382 -0.611525645381526
5128281405 0.10652726731802288 -0.6146670893618935
5128776700 0.10087826455894269 -0.6185262673779538
5129271995 0.0965056462507499 -0.6220779387574447
5129767290 0.09125545424850363 -0.6260635758701124
5130262585 0.0856995762963044 -0.6289019082721911
5130757880 0.08128602802753448 -0.6332833359116002
5131253175 0.07541027312216006 -0.6354998412885164
5131748470 0.07027657486890491 -0.638583801294628
5132243765 0.06535841328533072 -0.6419022836183247
5132739060 0.059618464622058366 -0.6450985889685782
5133234355 0.053990274471671956 -0.6480686131276583
5133729650 0.0476510809048226 -0.6509912453199688
5134224945 0.04527983108633443 -0.6538884796594319
5134720240 0.037953420101027736 -0.6565646466455961
5135215535 0.03371382328240495 -0.6596086527171888
5135710830 0.026485891816647428 -0.6619636416435242
5136206125 0.022581716607275763 -0.6659270493607772
5136701420 0.015008041243019857 -0.6675438849549544
5137196715 0.011308196588958564 -0.6704090080763164
5137692010 0.006027714692448315 -0.6725169922176161
5138187305 -0.0013745316353283431 -0.6748042514449671
5138682600 -0.007281188902102019 -0.6772586483704416
5139177895 -0.009283200494552913 -0.6791680612062153
5139673190 -0.017155989759454603 -0.6817390385426974
5140168485 -0.02407415279824483 -0.6839022887380499
5140663780 -0.027792226032991158 -0.6855463667919761
5141159075 -0.03477929601151692 -0.6881611190344158
5141654370 -0.03947817338140387 -0.6901494013635736
5142149665 -0.042221693027960625 -0.6927118144537273
5142644960 -0.05158628131213941 -0.6941796007909273
5143140255 -0.058422120778184185 -0.6953454833281668
5143635550 -0.06281989107006475 -0.6971175482398585
5144130845 -0.06467119565135554 -0.7001135757094935
5144626140 -0.07212766103054348 -0.7006442044910631
5145121435 -0.07909355273372248 -0.7026645447078504
5145616730 -0.086036317050457 -0.7038186882671557
5146112025 -0.0907395736951577 -0.7054323961860255
5146607320 -0.09633322883593409 -0.7066610330029538
5147102615 -0.09971718529337331 -0.7080194416799044
5147597910 -0.1081106866660871 -0.709262098136701
5148093205 -0.11402804365283564 -0.7104010205519827
5148588500 -0.11893521366935027 -0.71175238646959
5149083795 -0.12535795294924787 -0.7132368526960674
5149579090 -0.1309886684543208 -0.7138895612013968
5150074385 -0.1381335807474036 -0.7145836792494121
5150569680 -0.144404126625312 -0.7152510379490099
5151064975 -0.14801426859278427 -0.7166969242848849
5151560270 -0.15386124347385607 -0.7175435298367551
5152055565 -0.1600471766371476 -0.71855838675248
5152550860 -0.16481926409821762 -0.7186310730482403
5153046155 -0.17134254857113487 -0.7195269559559069
5153541450 -0.17667834852871142 -0.7201045186896073
5154036745 -0.18278702622965762 -0.7203544472393236
5154532040 -0.18934564292430878 -0.7208382110846671
5155027335 -0.1939544113058793 -0.7211720190550152
5155522630 -0.2005258210395512 -0.7219273604844746
5156017925 -0.20683284731287704 -0.7216829908521551
5156513220 -0.21225622061051821 -0.722682752107319
5157008515 -0.21792017237136238 -0.7220143048386825
5157503810 -0.22284667350743947 -0.7224601036623904
5157999105 -0.22996491193771362 -0.7219422898794475
5158494400 -0.23518609059484383 -0.7222564722362318
5158989695 -0.24200904369354248 -0.7221119905772962
5159484990 -0.24778026891382118 -0.721145162456914
5159980285 -0.25332815709866974 -0.7210398692833749
5160475580 -0.25818977701036555 -0.7212635404185245
5160970875 -0.26451082135501663 -0.7204402340085883
5161466170 -0.2698980020849328 -0.7203408699286612
5161961465 -0.27554384501356827 -0.7193429752400047
5162456760 -0.2810198194102237 -0.7191067181135479
5162952055 -0.28702379370990555 -0.7186462439988789
5163447350 -0.2926421385062368 -0.717668636849052
5163942645 -0.29912376560662923 -0.7178688519879391
5164437940 -0.3027849213073128 -0.7165901723660921
5164933235 -0.30984787878237274 -0.715170471291793
5165428530 -0.3158955432866749 -0.7137817144393921
5165923825 -0.32198221903098256 -0.7125852923644217
5166419120 -0.32696939455835444 -0.7120610851990549
5166914415 -0.33083180534212214 -0.7114387248691759
5167409710 -0.3387976178997441 -0.7092971488049156
5167905005 -0.3435717523097992 -0.7079555674603111
5168400300 -0.3469787114544919 -0.7081178646338614
5168895595 -0.3547644034812325 -0.705215761536046
5169390890 -0.359988250230488 -0.7042855934092873
5169886185 -0.3659884019901878 -0.7023886536297045
5170381480 -0.37121652145134776 -0.7005992845485085
5170876775 -0.37735503441409063 -0.6988740563392639
5171372070 -0.38239234685897827 -0.6965803347135845
5171867365 -0.38699076834477875 -0.6957304289466456
5172362660 -0.3918808369260085 -0.6944116165763453
5172857955 -0.396515512152722 -0.6932796051627711
5173353250 -0.4004693360705125 -0.6916572765300149
5173848545 -0.40982880560975327 -0.6879090258949682
5174343840 -0.4121347932439101 -0.6882382066626298
5174839135 -0.4185539593822078 -0.6852873438283017
5175334430 -0.42105175476325185 -0.6837082442484403
5175829725 -0.42824296417989227 -0.6808274262829831
5176325020 -0.4326461490831877 -0.6792029079638029
5176820315 -0.43887361413554143 -0.6760028286984092
5177315610 -0.44373236518157155 -0.6741151056791607
5177810905 -0.44903614332801417 -0.6715023015674791
5178306200 -0.4559032807224675 -0.6682212164527491
5178801495 -0.45779797121098165 -0.6670233105358324
5179296790 -0.46501555254584864 -0.6634856838929025
5179792085 -0.4678324947231694 -0.6609980056160375
5180287380 -0.4739625140240318 -0.6592708731952467
5180782675 -0.4790087248149671 -0.6566963321284244
5181277970 -0.4833356926315709 -0.653896407077187
5181773265 -0.48926554071275813 -0.6503820576165852
5182268560 -0.49314460785765396 -0.6483065799662941
5182763855 -0.4974201007893211 -0.6456716280234488
5183259150 -0.5025684613930551 -0.6426289928586859
5183754445 -0.5069684919558073 -0.6391057058384544
5184249740 -0.512348052702452 -0.6362705356196353
5184745035 -0.5167688350928458 -0.633386348423205
5185240330 -0.521485541996203 -0.6299928269888225
5185735625 -0.5263465109624361 -0.6267993324681332
5186230920 -0.5295629877793161 -0.623782123389997
5186726215 -0.5347787424137718 -0.6202196949406674
5187221510 -0.5387557086191679 -0.6175192061223482
5187716805 -0.5438874489382693 -0.6148413168756586
5188212100 -0.548471632756685 -0.6103392682577434
5188707395 -0.5528550116639388 -0.6063684256453263
5189202690 -0.5570524679987054 -0.602857137981214
5189697985 -0.560302270086188 -0.5999533502679122
5190193280 -0.5654465556144714 -0.5960107037895604
5190688575 -0.569456790622912 -0.5922680904990748
5191183870 -0.5729589650505468 -0.5889598382146735
5191679165 -0.5780851244926453 -0.5846113939034311
5192174460 -0.5817157218330785 -0.5812625539930243
5192669755 -0.5847825627577933 -0.5772868457593416
5193165050 -0.5903780585841129 -0.5734223880265888
5193660345 -0.5933199399395993 -0.5697449226128427
