# HZ S RI R 50
5000000000 0.15815688120691399 -0.46645226604060125
5000495295 0.15411541022752462 -0.4705720449748792
5000990590 0.15072844922542572 -0.47487225814869527
5001485885 0.14878592522520767 -0.47850378092966583
5001981180 0.14289685613230654 -0.4828629007464961
5002476475 0.13951176248098673 -0.4868482021909011
5002971770 0.1352576284032119 -0.491127411001607
5003467065 0.13131838017388395 -0.49466226446001155
5003962360 0.1283581390192634 -0.4985604145024952
5004457655 0.12350444495677948 -0.503051873884703
5004952950 0.11973968461940163 -0.506216259379136
5005448245 0.11459333292747799 -0.5102591953779522
5005943540 0.10986355103944477 -0.5140354696073031
5006438835 0.1056011911285551 -0.5175185642744365
5006934130 0.10352599699246257 -0.5211522296855324
5007429425 0.09701800385588094 -0.5247066522899427
5007924720 0.09328740913616984 -0.5286021734538832
5008420015 0.08897500602822554 -0.5315597747501574
5008915310 0.08448522694801029 -0.5353931847371554
5009410605 0.07940172953040976 -0.5386278723415575
5009905900 0.07583673415999663 -0.541746625774785
5010401195 0.07145844321501882 -0.5453076299868131
5010896490 0.06664295769051502 -0.5483843150891756
5011391785 0.06263400241732597 -0.5514681778456035
5011887080 0.05619110480735177 -0.5549655807645697
5012382375 0.05266145106993223 -0.5576266928722984
5012877670 0.04877260621441038 -0.5608275219013816
5013372965 0.043016096479014346 -0.5633174212355363
5013868260 0.03876281510058202 -0.5664617607468053
5014363555 0.03377252523052065 -0.5695093525083441
5014858850 0.029774424178819908 -0.5717891611550984
5015354145 0.025004890992453222 -0.5744949767464086
5015849440 0.02024493788025881 -0.5766863509228355
5016344735 0.015486420475338636 -0.5799564311378881
5016840030 0.010184122396534994 -0.5825738059846979
5017335325 0.004976391743280385 -0.5854470855311343
5017830620 2.1716187659062836e-05 -0.5872126692219785
5018325915 -0.004122842005208919 -0.5901858053709331
5018821210 -0.008161562445916627 -0.5925687488756681
5019316505 -0.01330182730759445 -0.5947233783571344
5019811800 -0.0189068203693942 -0.5966649745640001
5020307095 -0.023486083863597167 -0.598971172382957
5020802390 -0.028846787582886845 -0.6016640349438316
5021297685 -0.03344622862182165 -0.6032188911187021
5021792980 -0.03865886224727882 -0.6051780801070364
5022288275 -0.04373402305339512 -0.6070883368190966
5022783570 -0.0486652582491699 -0.6090256854107505
5023278865 -0.053745784845791365 -0.6110559199985705
5023774160 -0.0580808714424309 -0.6128497594281247
5024269455 -0.06362508982419968 -0.614559132801859
5024764750 -0.06865670257493069 -0.616132958939201
5025260045 -0.07419697783495251 -0.618102468942341
5025755340 -0.07807245968203795 -0.6194610752557453
5026250635 -0.08411193678253576 -0.6209056346040023
5026745930 -0.08839880949572514 -0.6223636269569397
5027241225 -0.09409304002397939 -0.6237932067168387
5027736520 -0.09903896560794428 -0.6254428248656424
5028231815 -0.10479268863012917 -0.6267093200432626
5028727110 -0.10841213754917446 -0.6280965993278905
5029222405 -0.11392603226398167 -0.6292940001738699
5029717700 -0.11944601567167985 -0.6303843949970446
5030212995 -0.12430474436596821 -0.63138642122871
5030708290 -0.13018748477885597 -0.632387616132435
5031203585 -0.1349655923090483 -0.6335859141851726
5031698880 -0.13966166267269536 -0.6343369358464291
5032194175 -0.14485959630263479 -0.6350835718606648
5032689470 -0.15151314986379524 -0.6360101480233041
5033184765 -0.15474043551244235 -0.6367876027759752
5033680060 -0.16141432759008909 -0.63730514990656
5034175355 -0.16496469943146957 -0.6391728959585491
5034670650 -0.17053475740708804 -0.6391557956996717
5035165945 -0.17533945723583824 -0.6393609893949408
5035661240 -0.18200455762838064 -0.6398806697443912
5036156535 -0.18613338156750328 -0.6409710237854406
5036651830 -0.192002324681533 -0.6407555247607984
5037147125 -0.19617811708073868 -0.6414982237313923
5037642420 -0.2012025259043041 -0.6414468100196437
5038137715 -0.20710424686733045 -0.6420237233764247
5038633010 -0.21263988316059113 -0.6417327052668521
5039128305 -0.21732185467293388 -0.6423081536042062
5039623600 -0.22271947248985893 -0.6419285127991124
5040118895 -0.22798637026234678 -0.6428054382926539
5040614190 -0.2342252841121272 -0.6419842682386699
5041109485 -0.23887873166485837 -0.6420110903288189
5041604780 -0.243817316858392 -0.6416644203035455
5042100075 -0.24938597334058663 -0.6413779760661878
5042595370 -0.253511623332375 -0.6417532249500877
5043090665 -0.25938804996641057 -0.6411650055333188
5043585960 -0.2641659002555044 -0.6405493742541263
5044081255 -0.2697556442336032 -0.6401835836862263
5044576550 -0.2752425576511182 -0.6393905940808748
5045071845 -0.2789717065660577 -0.6389837735577634
5045567140 -0.2851429471844121 -0.6382295928503338
5046062435 -0.2898013121203372 -0.6377879569405004
5046557730 -0.2953942543581912 -0.6369632513899552
5047053025 -0.29950193041249323 -0.6368171353089181
5047548320 -0.3045745774319297 -0.6354394084528873
5048043615 -0.3102606629070483 -0.6346185803413391
5048538910 -0.3149298131465912 -0.6339297012278908
5049034205 -0.3196974145738702 -0.6329525960119147
5049529500 -0.3251600610582452 -0.6317217851939955
5050024795 -0.32526039920355143 -0.6327775057993437
5050520090 -0.3331082965198316 -0.6300054443509955
5051015385 -0.3391115947773582 -0.6283346885129025
5051510680 -0.3438430114796287 -0.6273992877257498
5052005975 -0.34848194373281377 -0.6255591637209842
5052501270 -0.3527213884027381 -0.6251885796848097
5052996565 -0.35898814703288834 -0.6233011515516984
5053491860 -0.3633783193011033 -0.622043462176072
5053987155 -0.368619525118878 -0.620547824784329
5054482450 -0.37273090450387253 -0.6189998168694345
5054977745 -0.37751040646904394 -0.6178757391477886
5055473040 -0.3824221287903033 -0.6162662976666501
5055968335 -0.3868955075740814 -0.6142798787669131
5056463630 -0.39150730559700414 -0.612872904852817
5056958925 -0.3961357615495983 -0.6115255920510543
5057454220 -0.4009365251189784 -0.6093529807893854
5057949515 -0.4056991087762933 -0.6077922080692492
5058444810 -0.4104978301023182 -0.605320786174975
5058940105 -0.4149518311023712 -0.603686699741765
5059435400 -0.4197332043396799 -0.6016558596962377
5059930695 -0.42331633599180923 -0.6002348567310133
5060425990 -0.4293273969700462 -0.5977838666815507
5060921285 -0.4331626390155993 -0.595545790697399
5061416580 -0.4373562963385331 -0.5939878413551732
5061911875 -0.4425411349848697 -0.5907813091027109
5062407170 -0.44582988400208323 -0.5899200282598797
5062902465 -0.4511657388586747 -0.58645739994551
5063397760 -0.4556469556532408 -0.5843599093587775
5063893055 -0.45968507936126307 -0.5821676599351984
5064388350 -0.46335942494241816 -0.579964628345088
5064883645 -0.4686559564188907 -0.5772847031292162
5065378940 -0.4726783382265191 -0.5748689111910368
5065874235 -0.47739784654818085 -0.5719347690281115
5066369530 -0.4812820632206766 -0.5696401627440202
5066864825 -0.48713128190291555 -0.5662567803734228
5067360120 -0.4894230757888995 -0.564515022855056
5067855415 -0.4948935336188266 -0.5609783404751828
5068350710 -0.4971436779750021 -0.5594867624734577
5068846005 -0.5016314073612815 -0.5566540203596416
5069341300 -0.5067413166949624 -0.5529844666782179
5069836595 -0.5112218825440658 -0.5490660541935971
5070331890 -0.5137613447088945 -0.5476973715581392
5070827185 -0.5181243451018083 -0.5446071530643263
5071322480 -0.5227902343398646 -0.5404013363938582
5071817775 -0.5267486038960909 -0.5375474660020125
5072313070 -0.5300928887568022 -0.5346066041996604
5072808365 -0.533257898531462 -0.5322530081397608
5073303660 -0.5369256797589754 -0.5295949013609635
5073798955 -0.5442503878944799 -0.5225810596817418
5074294250 -0.5450557878142909 -0.522181655231275
5074789545 -0.5475295248784517 -0.5198542632554707
5075284840 -0.5526066955767179 -0.5150019683335957
5075780135 -0.5565256507773149 -0.5116180306986758
5076275430 -0.5582834670418187 -0.5100020452549583
5076770725 -0.5633839902124906 -0.5045954585075378
5077266020 -0.5671587366806833 -0.5003732395799536
5077761315 -0.5688734619241012 -0.4991694296661176
5078256610 -0.5735690907428139 -0.4939438873215726
5078751905 -0.577102221940693 -0.49018602935891403
5079247200 -0.5812305180650008 -0.4854907816962192
5079742495 -0.5820122235699704 -0.48513342989118474
5080237790 -0.5876355798620927 -0.4789150043537742
5080733085 -0.5919903014835558 -0.47286626069169296
5081228380 -0.5928886187703986 -0.471940605263961
5081723675 -0.5971684204904657 -0.46708334590259354
5082218970 -0.5996954221474496 -0.4642492956236789
5082714265 -0.6030681823429308 -0.45967269728058263
5083209560 -0.6049531227663943 -0.4567950211073223
5083704855 -0.6095461782656217 -0.45022003587923554
5084200150 -0.6116010358459071 -0.44789635507684006
5084695445 -0.6140719558063307 -0.44404062471891703
5085190740 -0.6175084616008558 -0.4394710707037072
5085686035 -0.6195717171618813 -0.4358885445092854
5086181330 -0.6228186017588565 -0.43104714155197144
5086676625 -0.6249395608901978 -0.4277625491744594
5087171920 -0.627966162405516 -0.4235810606103194
5087667215 -0.6306127498024389 -0.4187334901408145
5088162510 -0.6331737480665508 -0.41477873137122706
5088657805 -0.6359049207285831 -0.41028511053637456
5089153100 -0.6383171928556342 -0.40628983472522934
5089648395 -0.6409763442842584 -0.4013045116474754
5090143690 -0.6426113122387936 -0.3976820126960152
5090638985 -0.6457359477093345 -0.3925535239671406
5091134280 -0.6478074255742525 -0.38855080228102834
5091629575 -0.650321016186162 -0.3831851905898044
5092124870 -0.6525442882588035 -0.37893101102427434
5092620165 -0.6541947471468073 -0.374451640405153
5093115460 -0.6566573318682218 -0.36961878600873443
5093610755 -0.6584985726758054 -0.3662222451285312
5094106050 -0.6607542320301658 -0.3607730677253322
5094601345 -0.6623636295920924 -0.3565206417911931
5095096640 -0.6643445523161637 -0.3513829253221813
5095591935 -0.6662148676420513 -0.3464258971967195
5096087230 -0.66768794624429 -0.3427147473159589
5096582525 -0.6700159625003212 -0.33688713845453766
5097077820 -0.6709782261597482 -0.3327119209264454
5097573115 -0.6728620152724417 -0.3279385723565754
5098068410 -0.6749924484052157 -0.32228256526746246
5098563705 -0.6759514777283919 -0.31792059383894267
5099059000 -0.6777194016858151 -0.3123083961637397
5099554295 -0.6788403360467208 -0.30814967500536067
5100049590 -0.6817159182146976 -0.3013833118112464
5100544885 -0.6822070510763871 -0.29804121663695887
5101040180 -0.6837048499207747 -0.29219359159469604
5101535475 -0.6845536545703286 -0.28804480558947515
5102030770 -0.6852064697366012 -0.2837584316730499
5102526065 -0.6865963182951275 -0.27772489346955953
5103021360 -0.6876124990613837 -0.2725502472174795
5103516655 -0.6882587263458654 -0.2684308996326045
5104011950 -0.6894906320069966 -0.26207708371312993
5104507245 -0.6900057039762798 -0.2569866635297474
5105002540 -0.6906468523176092 -0.2516834900567406
5105497835 -0.6906255201289528 -0.2487501776532123
5105993130 -0.6911415269500331 -0.2438528890672483
5106488425 -0.692958254563181 -0.23469836696198113
5106983720 -0.6925681013810007 -0.23210655858642176
5107479015 -0.693023333424016 -0.2269019139440436
5107974310 -0.6927520193551716 -0.22382383440670214
5108469605 -0.6935413824884515 -0.21694698851359517
5108964900 -0.6944446751945897 -0.20919704045120038
5109460195 -0.6939729169795388 -0.2062538642632334
5109955490 -0.6937158233241031 -0.20149342166750053
5110450785 -0.6936013698577881 -0.19679594118344157
5110946080 -0.6943251427851225 -0.1899333196251016
5111441375 -0.6940988741422954 -0.18468189161074788
5111936670 -0.6937373531492133 -0.17969120411496414
5112431965 -0.6931609762342352 -0.174994032633932
5112927260 -0.6931726085512262 -0.16906838197457164
5113422555 -0.6929284459666202 -0.16429319115061508
5113917850 -0.6924247616215756 -0.15917129030353144
5114413145 -0.6916304011093942 -0.15425280363936172
5114908440 -0.6914431327267697 -0.14837796201831416
5115403735 -0.690587109641025 -0.1436043852253964
5115899030 -0.6900007787503695 -0.1380835826459684
5116394325 -0.6892534180691368 -0.13362634103549154
5116889620 -0.6887142344524986 -0.1271414654819589
5117384915 -0.6876551257936578 -0.1223684549331665
5117880210 -0.6864455028584129 -0.1171301944475425
5118375505 -0.6857289044480575 -0.11152770017322741
5118870800 -0.6842977969270003 -0.10707151458451622
5119366095 -0.683415739159835 -0.10161674061888143
5119861390 -0.6820268505497983 -0.0967673302481049
5120356685 -0.6809629076405576 -0.09138166433886478
5120851980 -0.6794010118434304 -0.0864364881264536
5121347275 -0.677802540754017 -0.08148314646984402
5121842570 -0.6768498138377541 -0.07518596751125235
5122337865 -0.6747980525619105 -0.070738601057153
5122833160 -0.6734071279826918 -0.06596082684240843
5123328455 -0.6715243427376998 -0.05987229884455079
5123823750 -0.6700034768957841 -0.05563191598967502
5124319045 -0.6680947824528343 -0.0502571502798482
5124814340 -0.6662837643372385 -0.04543982014844292
5125309635 -0.6643795998472917 -0.0399788006355888
5125804930 -0.662068972462102 -0.035729189060236276
5126300225 -0.660079676853983 -0.03106316139823512
5126795520 -0.658044695854187 -0.025482320275745894
5127290815 -0.6555522523428264 -0.02031529028164713
5127786110 -0.6533743111710799 -0.014612717210854354
5128281405 -0.6509842307944047 -0.010387709609379894
5128776700 -0.6485648563033656 -0.005532036780526764
5129271995 -0.6459798122707167 -0.0004620808911950965
5129767290 -0.6435663825587222 0.0035938601940870285
5130262585 -0.6409898306194105 0.00856838669431837
5130757880 -0.6381799892375344 0.013367604023139728
5131253175 -0.6355114453717282 0.018194422910087986
5131748470 -0.6327091424088729 0.02269524541732512
5132243765 -0.6296570614764565 0.027494708664323155
5132739060 -0.6269158564115825 0.03211245176039244
5133234355 -0.6238430299256977 0.03690252962865328
5133729650 -0.6208811684658653 0.040824314089197865
5134224945 -0.6175588871303358 0.04596020438169178
5134720240 -0.6146572044021205 0.05017734162117306
5135215535 -0.6110436571271796 0.054079412237594
5135710830 -0.607566868004046 0.05933154903744396
5136206125 -0.6044152818228069 0.06318666570280727
5136701420 -0.6011899050913359 0.06788484320828789
5137196715 -0.5976125221503409 0.07186453946326908
5137692010 -0.593870787244094 0.07694612796369352
5138187305 -0.5903764680812233 0.08093729615211487
5138682600 -0.5868704005291587 0.08394110869420202
5139177895 -0.5830858977217424 0.08857571216006029
5139673190 -0.5790759042689675 0.0924292802810669
5140168485 -0.575365850799962 0.09811646373648393
5140663780 -0.5716137854676497 0.09979071468114853
5141159075 -0.5677296017345629 0.10446404587281377
5141654370 -0.5633742401474401 0.10889888986160881
5142149665 -0.5596748276760704 0.11295437106960698
5142644960 -0.5555163182710346 0.11569521654593318
5143140255 -0.5509522431775143 0.12155104899092724
5143635550 -0.5472252557152196 0.1225400857235256
5144130845 -0.5425648563786557 0.12768264781487615
5144626140 -0.5384346591798883 0.13089731100358462
5145121435 -0.533772907759014 0.13545652596574081
5145616730 -0.5294806957244873 0.1381120713133561
5146112025 -0.5248590362699408 0.14281408959313444
5146607320 -0.5208627707079837 0.144204033832801
5147102615 -0.5162059476501063 0.14754873514175415
5147597910 -0.5110628259809393 0.15215472406462618
5148093205 -0.5059376829548886 0.1567539682513789
5148588500 -0.5021020299509952 0.15726911943209798
5149083795 -0.4971967229717656 0.1614033752366116
5149579090 -0.49229085288549723 0.16493332621298337
5150074385 -0.4873957900624526 0.16871056039082377
5150569680 -0.4824532709623638 0.1710903503392872
5151064975 -0.4778869559890346 0.172884276038722
5151560270 -0.47310726266158254 0.17492560963881643
5152055565 -0.4675254288472627 0.17904203894891238
5152550860 -0.4627174625271245 0.1808741022097437
5153046155 -0.4577145843129409 0.18378762508693494
5153541450 -0.4523259887569829 0.1866243528692346
5154036745 -0.4471551791617745 0.18850473432164444
5154532040 -0.44231364444682475 0.19026464380716024
5155027335 -0.4364778713176125 0.19407365902474052
5155522630 -0.431339387830935 0.19586156779213956
5156017925 -0.42598537238020645 0.19786697547686727
5156513220 -0.42054542585423116 0.20010319352149963
5157008515 -0.41536692412276016 0.2021965376640621
5157503810 -0.41001837190828827 0.2038727465428804
5157999105 -0.40461643902879013 0.2054363057801598
5158494400 -0.39892594124141495 0.2076502826653029
5158989695 -0.39335153761662933 0.2094403050447765
5159484990 -0.38792658793298823 0.2109099744181884
5159980285 -0.38234667087856095 0.21263982512448965
5160475580 -0.37697978866727727 0.21409180995665097
5160970875 -0.37135614846882065 0.21567353527796895
5161466170 -0.3654595550737883 0.2171464327134584
5161961465 -0.3600321459142785 0.21817351014990555
5162456760 -0.35416180679672643 0.21970446329367788
5162952055 -0.348665819356316 0.22054659614437505
5163447350 -0.3427504630465257 0.22173954154315748
5163942645 -0.33735492198090805 0.22242638547169535
5164437940 -0.33155294625382675 0.22357926635365738
5164933235 -0.3255031093170768 0.22456599693549306
5165428530 -0.32006743079737615 0.22544272400830923
5165923825 -0.31398896480861466 0.2261482320333782
5166419120 -0.3083805332058354 0.22688469290733337
5166914415 -0.30276511687981456 0.2271682431823329
5167409710 -0.2969604620808049 0.22767111110059837
5167905005 -0.29117537642780106 0.2282512266384928
5168400300 -0.2855694591999054 0.2281442951214941
5168895595 -0.2796788576402162 0.22874414528671064
5169390890 -0.2737829371502525 0.22930658412607094
5169886185 -0.2683243767211312 0.22877829874816694
5170381480 -0.2615823855525569 0.22952114202474294
5170876775 -0.2567271919626939 0.22885571890755704
5171372070 -0.24981234732427096 0.23006408779244675
5171867365 -0.2446141407678002 0.22898664599970767
5172362660 -0.23892505937501005 0.22843117227679804
5172857955 -0.23261069388766037 0.2287658005952835
5173353250 -0.22717680350730293 0.22823796852638847
5173848545 -0.2211199065572337 0.22787967637965553
5174343840 -0.21556621084087774 0.22741481426515078
5174839135 -0.21046292468121178 0.22584821989661769
5175334430 -0.20389493437189804 0.22603254647631393
5175829725 -0.19750616973952242 0.22543376684188843
5176325020 -0.19208680642278572 0.2244342040074499
5176820315 -0.18660721810240494 0.22338125972371353
5177315610 -0.18086849780459152 0.22236286182152598
5177810905 -0.1749064381185331 0.22125545928352758
5178306200 -0.16955745377038656 0.2202157088016209
5178801495 -0.16320739843343435 0.2192653825408534
5179296790 -0.1575510870469244 0.21787166124895999
5179792085 -0.1524146081585633 0.21589134711968272
5180287380 -0.1467506595348057 0.21466875468429766
5180782675 -0.1415747482525675 0.2129257093918951
5181277970 -0.13543437029186048 0.21154983498548208
5181773265 -0.12982791897497678 0.21003146626447378
5182268560 -0.12416383820144754 0.20822965392940923
5182763855 -0.1191024788116154 0.2063135575307043
5183259150 -0.11339219816421207 0.20446259959747917
5183754445 -0.1079417698477444 0.20255685558444575
5184249740 -0.10229109776647467 0.2005779029507386
5184745035 -0.09743569556035493 0.19807156293015732
5185240330 -0.09169313782139828 0.19613548093720487
5185735625 -0.08617872195808511 0.1940250028120844
5186230920 -0.0807734951376915 0.19186324351712278
5186726215 -0.07576165191437069 0.18923864709703545
5187221510 -0.07047957887775019 0.18697009196406916
5187716805 -0.06496671469588029 0.1848579880438353
5188212100 -0.05992301710342106 0.18200237343185827
5188707395 -0.05465458392312652 0.17930212695347636
5189202690 -0.04988334033834307 0.17678413030348325
5189697985 -0.04468868221891554 0.1740093929202933
5190193280 -0.039300496640958284 0.17104834631869667
5190688575 -0.03456150485496772 0.16844278730844198
5191183870 -0.02951557855857046 0.1653824009393391
5191679165 -0.024463379461514324 0.16254828086024836
5192174460 -0.019815299169797646 0.15947403484269193
