# HZ S RI R 50
5000000000 0.6233521260713276 -0.4800004786566684
5000495295 0.6222692351592215 -0.4842715969211177
5000990590 0.6171413095373857 -0.4926939889004356
5001485885 0.6142855600306862 -0.49825565438521535
5001981180 0.6090171117531625 -0.5070073698696337
5002476475 0.6038570529536197 -0.5151720423447458
5002971770 0.601457373092049 -0.5207244879321048
5003467065 0.5971171416734394 -0.5280818405904268
5003962360 0.593718735795272 -0.5336726496094152
5004457655 0.5885942797911795 -0.5419004402662578
5004952950 0.5848513527920371 -0.5474963627363506
5005448245 0.5783978135962236 -0.5562139310334858
5005943540 0.5753184964782313 -0.561791783884952
5006438835 0.570722084296377 -0.5688011771754214
5006934130 0.5663832206475107 -0.5754202070989107
5007429425 0.5616217820267928 -0.5813650112403067
5007924720 0.5571130670999226 -0.5887235559915242
5008420015 0.5524390371222245 -0.5947214866939344
5008915310 0.547931454683605 -0.600101257625379
5009410605 0.543422774264687 -0.6071169031293768
5009905900 0.5390661798025432 -0.6132600872140181
5010401195 0.5338863667688871 -0.6198305456261886
5010896490 0.5292138331814816 -0.6257672717696742
5011391785 0.5246217909612154 -0.6318509798300894
5011887080 0.5193932087797868 -0.6383751536670484
5012382375 0.5149795538500735 -0.6438249851527967
5012877670 0.5103745899702373 -0.6493476158694217
5013372965 0.5042877856053805 -0.6555801473165813
5013868260 0.4997777515336087 -0.661740757917103
5014363555 0.494805318744559 -0.667013798889361
5014858850 0.48939720737306697 -0.6725836270733884
5015354145 0.483836315180126 -0.6786905966306988
5015849440 0.4772950912776746 -0.6845466023997256
5016344735 0.4732238117017244 -0.6898115904707658
5016840030 0.4690274172707608 -0.6956025612981696
5017335325 0.4638095121634634 -0.7008778358760633
5017830620 0.458271252481561 -0.7058025504413404
5018325915 0.4537466686022909 -0.7110476462464583
5018821210 0.44976737467866196 -0.7159588462428043
5019316505 0.4423883180869253 -0.7221044490211889
5019811800 0.43820552449477346 -0.7269908377998754
5020307095 0.43218193712987396 -0.7316913981186716
5020802390 0.42662032968119573 -0.7372978957075822
5021297685 0.4213783537086688 -0.7416680486578691
5021792980 0.41606968170718145 -0.7465624589669076
5022288275 0.41068074264024435 -0.7516216761187503
5022783570 0.40514517144152995 -0.7567660651708904
5023278865 0.39910457949889333 -0.7611186629847476
5023774160 0.39382459772260564 -0.7659655558435541
5024269455 0.3884648853226712 -0.7702707616906417
5024764750 0.3821208994639547 -0.7758744390387284
5025260045 0.3774728869137011 -0.779620132948223
5025755340 0.371738590692219 -0.7831541488045141
5026250635 0.3636271812413868 -0.7894291971859179
5026745930 0.36006312621267217 -0.793321502836127
5027241225 0.35398706636930766 -0.7978272281194988
5027736520 0.3497294360085538 -0.8018154878365366
5028231815 0.34115902687373917 -0.806862821704463
5028727110 0.3363143597778521 -0.8107663643987555
5029222405 0.331633050190775 -0.8145559430122375
5029717700 0.3262270641954322 -0.8185164301018966
5030212995 0.319537396493711 -0.8228274364220468
5030708290 0.31294772028923035 -0.8262556258000826
5031203585 0.307463454572778 -0.8312966823577881
5031698880 0.302825203067378 -0.8352499008178711
5032194175 0.29615438611883865 -0.8389327682946858
5032689470 0.2902096180539382 -0.8427551325998808
5033184765 0.28417633866008957 -0.8468738700214186
5033680060 0.2788417245212354 -0.8498075290730125
5034175355 0.2725575472179212 -0.8539923209893076
5034670650 0.2673264067423971 -0.8570590960352045
5035165945 0.25974834122155843 -0.8615648715119613
5035661240 0.2534220532367104 -0.8652820053853487
5036156535 0.24878753408005364 -0.8684573832311129
5036651830 0.24092064797878265 -0.8713023286116751
5037147125 0.23527524345799497 -0.8749763840123227
5037642420 0.230058480250208 -0.8779731455602144
5038137715 0.22332661481280075 -0.8816682664971602
5038633010 0.21772656158397072 -0.8846714747579474
5039128305 0.21126563847064972 -0.8883640421064276
5039623600 0.2056360723156678 -0.8906446569844296
5040118895 0.1995866424159 -0.8946195056563929
5040614190 0.1933351441433555 -0.8974834837411579
5041109485 0.1862446328527049 -0.9011815754990828
5041604780 0.18037276048409312 -0.9041169285774231
5042100075 0.17408279368751928 -0.9062824562976235
5042595370 0.16851425170898438 -0.9091505878850034
5043090665 0.16084608514057963 -0.9119998749933744
5043585960 0.15580081939697266 -0.9157211686435499
5044081255 0.14825618267059326 -0.9183340637307418
5044576550 0.14247926363819524 -0.9203111686204609
5045071845 0.13597939751650157 -0.9236424032010531
5045567140 0.12979230363118022 -0.9255645933904146
5046062435 0.12351592512507188 -0.9287587153284174
5046557730 0.11668081895301216 -0.9313968953333402
5047053025 0.11107901601414931 -0.9336790316983273
5047548320 0.10370616144255589 -0.9355416799846449
5048043615 0.09795393167357695 -0.9379205829218814
5048538910 0.09157817497065193 -0.9403937741329795
5049034205 0.08480877546887648 -0.942874362594203
5049529500 0.07907117354242425 -0.9445963125479849
5050024795 0.07478761006342738 -0.9470670317348681
5050520090 0.06608356535434723 -0.9495670042539898
5051015385 0.059589218348264694 -0.9514693304112083
5051510680 0.05226785277849749 -0.9537991975483141
5052005975 0.04672735949095927 -0.9561476927054556
5052501270 0.03946943169361666 -0.9576366700624165
5052996565 0.033080642650786196 -0.9594538745127226
5053491860 0.02676020445008027 -0.961116025322362
5053987155 0.019836555382138805 -0.9628874753650866
5054482450 0.013584863345481847 -0.9651995960034823
5054977745 0.006177447785280253 -0.9665703679385939
5055473040 9.741545899918205e-05 -0.9687114075610512
5055968335 -0.006124959033178656 -0.9702862877594797
5056463630 -0.012852786697055163 -0.9715837553927773
5056958925 -0.019493687407750832 -0.9743613820326956
5057454220 -0.026072599876083825 -0.9749432676716855
5057949515 -0.03280540849817427 -0.9763500408122414
5058444810 -0.03997471791348959 -0.9766893763291208
5058940105 -0.046092032405890916 -0.9786167301629719
5059435400 -0.05297870561480522 -0.9804316508142572
5059930695 -0.059660511777589194 -0.9812579939239904
5060425990 -0.06619887053966522 -0.9828253764855234
5060921285 -0.07357968350774363 -0.9839482401546679
5061416580 -0.07984645547051179 -0.9845768715205946
5061911875 -0.08631878228564012 -0.98591800426182
5062407170 -0.09350114747097618 -0.9867368528717443
5062902465 -0.10092372996242423 -0.9893046272428412
5063397760 -0.10812648189695258 -0.9887070216630635
5063893055 -0.1151955362997557 -0.989953521050905
5064388350 -0.11871774416220815 -0.9906603662591231
5064883645 -0.1273079216480255 -0.9909862656342355
5065378940 -0.13531141845803513 -0.9926070884654397
5065874235 -0.14328127472024216 -0.9926668562387165
5066369530 -0.1508170711366754 -0.9932094843764054
5066864825 -0.1522805753507112 -0.9945521103708368
5067360120 -0.16163729523357592 -0.9951357590524774
5067855415 -0.1695811136772758 -0.9951819087329664
5068350710 -0.17619147896766663 -0.9960028529167175
5068846005 -0.18346913394175077 -0.9957861649362665
5069341300 -0.18734304685341685 -0.9967595683900934
5069836595 -0.19684513148508573 -0.9967689890610544
5070331890 -0.2054695039987564 -0.9961398714467099
5070827185 -0.2112094759941101 -0.9967683930146066
5071322480 -0.21536408286345632 -0.9978917366579959
5071817775 -0.22508679016640312 -0.9969387462264613
5072313070 -0.23406726357183957 -0.9965255919255709
5072808365 -0.23829399441417895 -0.9973316380852147
5073303660 -0.2448303487740065 -0.9969402739876195
5073798955 -0.2534478683220713 -0.9964576269450941
5074294250 -0.2590209763301046 -0.9969106096970407
5074789545 -0.26934670617705897 -0.9956680222561485
5075284840 -0.27451572763292414 -0.9954719919907419
5075780135 -0.28085777320359884 -0.9952169280303153
5076275430 -0.2896641586956225 -0.9944219746087727
5076770725 -0.29612122397673757 -0.9945629709645322
5077266020 -0.3037647385346262 -0.9933365552048934
5077761315 -0.31002164043878255 -0.9930759636979354
5078256610 -0.31626244908884954 -0.9924471252842954
5078751905 -0.3245349965597454 -0.9915966109225625
5079247200 -0.3324045052653865 -0.9903598270918194
5079742495 -0.3373335709697322 -0.9902175288451346
5080237790 -0.3451975348748659 -0.9887033324492606
5080733085 -0.35182208450216995 -0.9876913020485326
5081228380 -0.36033441832191065 -0.9864070164529901
5081723675 -0.3669695524792922 -0.9853624701499939
5082218970 -0.3745796162831156 -0.9840301996783206
5082714265 -0.38087080968053716 -0.9832548028544376
5083209560 -0.38852622948194804 -0.9826673237900985
5083704855 -0.3958019002487785 -0.9799704771292838
5084200150 -0.4016113312620866 -0.9779402205818578
5084695445 -0.40961167216300964 -0.9767089768459922
5085190740 -0.41519176803137126 -0.9756129070332176
5085686035 -0.4241126744370711 -0.973927124550468
5086181330 -0.4303173909061833 -0.9719541857117101
5086676625 -0.437511964848167 -0.9708327337315208
5087171920 -0.44441581556671544 -0.9684663007133886
5087667215 -0.4518379286715859 -0.9667741468078211
5088162510 -0.4598466361823835 -0.9635060429573059
5088657805 -0.4662178205816369 -0.9621256684002123
5089153100 -0.47412446768660294 -0.9600832211343866
5089648395 -0.4790236416615938 -0.9584776100359464
5090143690 -0.48749644662204544 -0.9551795815166674
5090638985 -0.492952237003728 -0.9534119085261696
5091134280 -0.5014536176857195 -0.9505821654671117
5091629575 -0.5090710740340384 -0.9479846577895316
5092124870 -0.5146571680119163 -0.9461130060647663
5092620165 -0.5216631010959023 -0.9429740152860943
5093115460 -0.5278323261361373 -0.940917266042609
5093610755 -0.5350381888841328 -0.9377977471602591
5094106050 -0.5385374646437796 -0.9368536315466228
5094601345 -0.5530442407256678 -0.929524236603787
5095096640 -0.5546255425402993 -0.9296323092360246
5095591935 -0.5619501879340724 -0.9265489609617936
5096087230 -0.567985032734118 -0.9233160709079943
5096582525 -0.5760892566881681 -0.919610509746953
5097077820 -0.5819717739757738 -0.9166319464382372
5097573115 -0.5888163102300543 -0.912559753970096
5098068410 -0.5950432231551722 -0.9101331359461734
5098563705 -0.600822997720618 -0.9073450784934195
5099059000 -0.6102888207686575 -0.9018202110340721
5099554295 -0.613645801418706 -0.9006116013777884
5100049590 -0.6225141851525557 -0.894693694616619
5100544885 -0.6290123305822674 -0.8907526480524164
5101040180 -0.6323292004434686 -0.8894002374849821
5101535475 -0.6413895895606593 -0.8838016422171342
5102030770 -0.6484576338215878 -0.8798192112069381
5102526065 -0.6527760813110753 -0.877261735891041
5103021360 -0.6602088620788172 -0.8722240171934429
5103516655 -0.6667064365587736 -0.868686876798931
5104011950 -0.673198750144557 -0.8644663440553766
5104507245 -0.6782821950159574 -0.8608239324469316
5105002540 -0.684448097881518 -0.8568119469441866
5105497835 -0.6913294792175293 -0.8516543821284646
5105993130 -0.6975746092043424 -0.8480381244107297
5106488425 -0.701963700746235 -0.8444940008615193
5106983720 -0.7079354650095889 -0.8405399698960153
5107479015 -0.7162039562275535 -0.834509087236304
5107974310 -0.721853560522983 -0.830343412725549
5108469605 -0.7275386985979582 -0.8257681194104647
5108964900 -0.7328669711163169 -0.8218787751699749
5109460195 -0.7395344188338832 -0.8168609361899527
5109955490 -0.7453417401564749 -0.8120144448782268
5110450785 -0.7507705688476562 -0.8076131532066747
5110946080 -0.7566627797327543 -0.8028414343532763
5111441375 -0.7626619119393198 -0.7976863917551542
5111936670 -0.7693864828661868 -0.7923294494026586
5112431965 -0.7740371572343927 -0.788865183529101
5112927260 -0.7805844513993514 -0.7823901992095145
5113422555 -0.7854539720635665 -0.7791165646753813
5113917850 -0.7920917398051212 -0.7727071109570955
5114413145 -0.7966944794905814 -0.7687263739736456
5114908440 -0.8030141529284025 -0.762614181167201
5115403735 -0.807977491303494 -0.7573854358572709
5115899030 -0.8141204746145951 -0.752146115428523
5116394325 -0.8191962242126465 -0.7475040115808186
5116889620 -0.8241527394244546 -0.7423336035326907
5117384915 -0.8301915557760942 -0.736444332097706
5117880210 -0.8353662459473861 -0.7309800292316236
5118375505 -0.8411684820526525 -0.7253160790393227
5118870800 -0.8469619280413577 -0.7191726628102755
5119366095 -0.8514930041212785 -0.7135055598459745
5119861390 -0.8570857079405534 -0.7080654941107097
5120356685 -0.8628457345460591 -0.702032274321506
5120851980 -0.8670791764008371 -0.6964271319539923
5121347275 -0.8726934508273476 -0.6906023150996158
5121842570 -0.877886386294114 -0.6847516392406664
5122337865 -0.883067924725382 -0.6782707760208532
5122833160 -0.8885058070483961 -0.6722685726065385
5123328455 -0.8934588400941146 -0.6660054231944837
5123823750 -0.8978596361059892 -0.6612057623110319
5124319045 -0.9029462870798612 -0.6542376436685261
5124814340 -0.9070341555695784 -0.6482499837875366
5125309635 -0.9133595479162115 -0.6410319648290935
5125804930 -0.9173525414968792 -0.6352959714437786
5126300225 -0.9227893979925859 -0.6280819742303145
5126795520 -0.9273280877816049 -0.6216124358930086
5127290815 -0.9319767104951959 -0.614670289190192
5127786110 -0.9367885275890953 -0.6082716678318224
5128281405 -0.9411689890058417 -0.6017271939076876
5128776700 -0.9466605939363179 -0.594079786225369
5129271995 -0.9505320410979422 -0.5877418988629391
5129767290 -0.955393019475435 -0.5804791544613085
5130262585 -0.9603146534217032 -0.5724842767966422
5130757880 -0.964144440073716 -0.5655877433325115
5131253175 -0.9683558376211869 -0.5591901132934972
5131748470 -0.9732862240389774 -0.5511763817385623
5132243765 -0.9769451084889864 -0.5442279294917458
5132739060 -0.9817623433313871 -0.5363061898633054
5133234355 -0.9850736448639318 -0.5302629125745673
5133729650 -0.9900880173632973 -0.5212510949686954
5134224945 -0.9933262404642607 -0.5146677588161669
5134720240 -0.9980697192643818 -0.5058258677783766
5135215535 -1.0009266796864962 -0.4998441385595422
5135710830 -1.0050066270326312 -0.49223798356558146
5136206125 -1.0098224250893844 -0.4820694907715446
5136701420 -1.013817178575616 -0.47408169037417364
5137196715 -1.015579763211702 -0.46916554476085465
5137692010 -1.0203265579123246 -0.45878008949129206
5138187305 -1.0230983746679205 -0.4523938047258477
5138682600 -1.027382298519737 -0.4418375790119171
5139177895 -1.0308104878977726 -0.43419428561863144
5139673190 -1.0340915165449445 -0.42551173191321523
5140168485 -1.0370714538975765 -0.4181015193462372
5140663780 -1.0407960728595131 -0.40769774035403605
5141159075 -1.044380081327338 -0.39823807070129796
5141654370 -1.0477377239026522 -0.3883496742499502
5142149665 -1.0493944444154437 -0.38269065242064626
5142644960 -1.051314065330907 -0.37646826160581487
5143140255 -1.055407724882427 -0.36443773696297094
5143635550 -1.0572315328999569 -0.35806289942641006
5144130845 -1.0623728727039539 -0.34233472221776057
5144626140 -1.0628063051324141 -0.33836676415644196
5145121435 -1.0649272642637555 -0.32943050798616913
5145616730 -1.0668443504132723 -0.32166097666087906
5146112025 -1.0704809552744816 -0.30938422523046794
5146607320 -1.071942555276971 -0.3023947775363922
5147102615 -1.0739431694934243 -0.2925946539954135
5147597910 -1.076051624197709 -0.28275333266509206
5148093205 -1.0780859871914512 -0.27222136604158503
5148588500 -1.0800811052322388 -0.26213915097086055
5149083795 -1.08109912746831 -0.25423419240273926
5149579090 -1.0829484462738037 -0.2423879010112662
5150074385 -1.0852244339491193 -0.23054772537005574
5150569680 -1.0863564390885203 -0.2215543585388284
5151064975 -1.0868490181471173 -0.2147787691731202
5151560270 -1.0879297193727995 -0.20449089768685794
5152055565 -1.0888586608987105 -0.19512095655265607
5152550860 -1.090006753018028 -0.18469528226475967
5153046155 -1.090733157960992 -0.17354218897066617
5153541450 -1.0911944665406879 -0.16532725174176066
5154036745 -1.0918467170313786 -0.1534217760751122
5154532040 -1.0923996285388344 -0.14352451813848396
5155027335 -1.0927887025632357 -0.13314886861725858
5155522630 -1.0927472804722034 -0.1229905062600186
5156017925 -1.092766799424824 -0.11342321100987886
5156513220 -1.0925752928382473 -0.10242777631471031
5157008515 -1.092371244179575 -0.09219330470812948
5157503810 -1.0921615675876015 -0.0813208124355266
5157999105 -1.0915580799705105 -0.07132784512482192
5158494400 -1.0908715662203337 -0.06070778714983087
5158989695 -1.0901936857323897 -0.04940088485416613
5159484990 -1.0895519633042186 -0.038992667276608314
5159980285 -1.088360773889642 -0.027584820593658247
5160475580 -1.0871492373315912 -0.01746749373054818
5160970875 -1.085889088480096 -0.007707782972015832
5161466170 -1.0841145076249774 0.004342470072994107
5161961465 -1.0827126753957648 0.014921308102968493
5162456760 -1.0807544055737948 0.025556592858935658
5162952055 -1.079030099668001 0.03663340857938716
5163447350 -1.0769398965333636 0.046772469815454985
5163942645 -1.0747791591443514 0.05732577764674237
5164437940 -1.0726346969604492 0.07086635302556188
5164933235 -1.070177906437924 0.08022651899802058
5165428530 -1.0674801688445241 0.09049348023376967
5165923825 -1.0645966843554848 0.10150622850970219
5166419120 -1.061717899222123 0.1135435982754356
5166914415 -1.0585580311323468 0.12402697142801787
5167409710 -1.0556410927521556 0.13079488199008138
5167905005 -1.051828001674853 0.14647738243404188
5168400300 -1.0480106629823382 0.15747710513441185
5168895595 -1.0448819022429616 0.16531305015087128
5169390890 -1.0408634449306287 0.17711932957172394
5169886185 -1.0361069315358211 0.19118557399825045
5170381480 -1.0323031889764887 0.20066373363921516
5170876775 -1.0283653359664113 0.2093219529641302
5171372070 -1.0240943369112516 0.21794795676281578
5171867365 -1.0181664918598377 0.23479097454171433
5172362660 -1.0137187305249666 0.24346282372349187
5172857955 -1.0090701580047607 0.2524201438615197
5173353250 -1.0026625018370778 0.26780539751052856
5173848545 -0.9984459092742518 0.2731666486514242
5174343840 -0.9921590058427108 0.2879315065710168
5174839135 -0.9872175925656369 0.2943796656633678
5175334430 -0.9810067540720889 0.30644116119334575
5175829725 -0.9734799391344974 0.3213666097113961
5176325020 -0.9688517012094197 0.32710903098708705
5176820315 -0.9615767660893892 0.33994867456586736
5177315610 -0.9555336299695467 0.34980062434547826
5177810905 -0.9484549007917705 0.35986182721037613
5178306200 -0.9419650058997305 0.36945505204953644
5178801495 -0.9341212950254741 0.3813719514169191
5179296790 -0.9273751346688521 0.38945721638830083
5179792085 -0.9197854493793688 0.4001529655958477
5180287380 -0.912325802602266 0.4097753276950435
5180782675 -0.9042258105779949 0.42128723075515345
5181277970 -0.8966711194891679 0.4294065205674422
5181773265 -0.887798852042148 0.44060109163585465
5182268560 -0.8795308282500819 0.4499697528387371
5182763855 -0.8714936720697504 0.458944077554502
5183259150 -0.8621101567619726 0.47003436715979324
5183754445 -0.8541249632835388 0.47789676565872996
5184249740 -0.8452507288832414 0.4873069697304776
5184745035 -0.8356935193664149 0.4967492599236338
5185240330 -0.8265110693479839 0.5053010551553023
5185735625 -0.8170136934832523 0.514534614588085
5186230920 -0.8078385120943973 0.5227878344686407
5186726215 -0.7978171486603586 0.5327355485213431
5187221510 -0.7876763343811035 0.5403414243145993
5187716805 -0.7774758809491208 0.548486235894655
5188212100 -0.7674155894078707 0.5575221337770161
5188707395 -0.7571281539766412 0.5658062727827775
5189202690 -0.7464689737872073 0.573095374985745
5189697985 -0.7354809484983745 0.5820429481958088
5190193280 -0.7253278305656031 0.5885819980972692
5190688575 -0.7142637748467294 0.5970908748476129
5191183870 -0.703255361632297 0.6041471989531266
5191679165 -0.6917433111291182 0.6113849752827695
5192174460 -0.6801430959450571 0.6189309421338534
5192669755 -0.6691919063266955 0.6257163756772092
5193165050 -0.6568597272822732 0.632799722646412
5193660345 -0.6448373951409992 0.6393577048653051
5194155640 -0.6335874513575905 0.6457296358911615
