# HZ S RI R 50
5000000000 0.21904929766529485 -0.42603454621214615
5000495295 0.2152844863502603 -0.43019901451311615
5000990590 0.2114817053079605 -0.4352103958004399
5001485885 0.20752350829149546 -0.4391455713071321
5001981180 0.20429837546850504 -0.4434840208605716
5002476475 0.19909052942928515 -0.44832156206432144
5002971770 0.19630010033908643 -0.4524181359692624
5003467065 0.19187906541322408 -0.4561961387333117
5003962360 0.18741053499673543 -0.460628584811562
5004457655 0.18291061175496956 -0.4652658308807172
5004952950 0.1780969539755269 -0.4691924782175767
5005448245 0.17521313303395322 -0.47270913971097844
5005943540 0.1699601113796234 -0.4766906123412283
5006438835 0.16655803903153069 -0.4810149481422023
5006934130 0.160870025032445 -0.4848503344937375
5007429425 0.15702141586102938 -0.48854810626883255
5007924720 0.15254874135318555 -0.49196310733494003
5008420015 0.1482268109133369 -0.49557216857608993
5008915310 0.14472405690895884 -0.4991012262670617
5009410605 0.1393738412543347 -0.5026706300283733
5009905900 0.1346038415243751 -0.5065376413495917
5010401195 0.1288917252891942 -0.5098997291765714
5010896490 0.1255651006573125 -0.5129275165106121
5011391785 0.12113097231639058 -0.5160489396045083
5011887080 0.11620423785950008 -0.5195427693818745
5012382375 0.11125612180483968 -0.522540199129205
5012877670 0.10642323133192565 -0.5256051609390661
5013372965 0.10221397014040697 -0.5291844229949149
5013868260 0.09737032651901245 -0.5321200270401804
5014363555 0.09229295583147752 -0.5348834865971616
5014858850 0.08808002111158873 -0.5379024493066888
5015354145 0.08358873073991976 -0.5405951675615812
5015849440 0.07848362781499561 -0.5433847684609262
5016344735 0.07303540839960701 -0.5467946999951413
5016840030 0.06887868752605036 -0.5489484793261478
5017335325 0.06358005067235545 -0.5516155958175659
5017830620 0.058728768833373725 -0.554185826527445
5018325915 0.05357323018343825 -0.5566171125361794
5018821210 0.04896476747174012 -0.5593244778482538
5019316505 0.043816324127347844 -0.5614701666330036
5019811800 0.03883679838556992 -0.5637684935017636
5020307095 0.034183507491099205 -0.5666338613158778
5020802390 0.02893120187677835 -0.5683019506303888
5021297685 0.02434085593803933 -0.5706854682219656
5021792980 0.020315286262254966 -0.5728000967126143
5022288275 0.015024264539150815 -0.575095650396849
5022783570 0.009396550245583057 -0.5770632875593085
5023278865 0.004818858382733245 -0.5790435891402396
5023774160 -0.00032942099986892 -0.5807756467869407
5024269455 -0.0057560250065044356 -0.5824027720250582
5024764750 -0.010505147964546555 -0.5841317647381833
5025260045 -0.015352036117723114 -0.5860160087284288
5025755340 -0.02027312411289466 -0.5870518966724998
5026250635 -0.025123473746996177 -0.5894629704324823
5026745930 -0.031012321871362235 -0.5912827284712541
5027241225 -0.035056959249471366 -0.5926529890612552
5027736520 -0.039478492579962075 -0.5941619653450815
5028231815 -0.045757209195902475 -0.5955069943478233
5028727110 -0.05086532490033852 -0.5968522868658367
5029222405 -0.05452671470610719 -0.5983095074954786
5029717700 -0.060384483517784825 -0.5994205286628321
5030212995 -0.066091624921874 -0.6010235014714693
5030708290 -0.06958650523110439 -0.6011901058648762
5031203585 -0.07506287842988968 -0.6028530880024559
5031698880 -0.08093724478232234 -0.6036940938548038
5032194175 -0.08531775207895982 -0.6046592781418249
5032689470 -0.09107698068806999 -0.6056024840003565
5033184765 -0.09683316553893842 -0.6064769374696832
5033680060 -0.10087480945022483 -0.6071787382427015
5034175355 -0.10562932452088908 -0.6079526951438502
5034670650 -0.11010387892785825 -0.6096012937395197
5035165945 -0.11519579197231092 -0.6091077641436928
5035661240 -0.12067933694312447 -0.6104542079724764
5036156535 -0.12578283328759043 -0.6106240874842593
5036651830 -0.1308598141921194 -0.6113410027403581
5037147125 -0.1378481890025892 -0.6118313701529252
5037642420 -0.14020702634987078 -0.612591426623495
5038137715 -0.14527037190763573 -0.6128302028304652
5038633010 -0.15217960037683187 -0.612761516320078
5039128305 -0.15622532132424807 -0.6128702759742737
5039623600 -0.16089315947733426 -0.6133186974023518
5040118895 -0.16623076404395856 -0.6131520804605985
5040614190 -0.17077951917522832 -0.6131155114424857
5041109485 -0.17572393229133204 -0.6134083333768343
5041604780 -0.18078901422651192 -0.6134182183366073
5042100075 -0.18577653012777628 -0.6133033570490385
5042595370 -0.19125128890338697 -0.6129789195562664
5043090665 -0.1959034141741301 -0.612080599132337
5043585960 -0.200260969369035 -0.6125983062543368
5044081255 -0.20575138377515892 -0.6127550256879706
5044576550 -0.2102588736697247 -0.6122633438361319
5045071845 -0.21527466648503354 -0.6118103422616658
5045567140 -0.2207322724555668 -0.6111145364610773
5046062435 -0.22508573061541506 -0.6106384114215249
5046557730 -0.22972866814387471 -0.6101070297391791
5047053025 -0.23480538161177383 -0.6096751846765217
5047548320 -0.24015675720415616 -0.6090055766858553
5048043615 -0.24415868363882365 -0.6082300826122886
5048538910 -0.24885724328066172 -0.6075878519760934
5049034205 -0.252772237125196 -0.607453349389528
5049529500 -0.25878489644903885 -0.6060695052146912
5050024795 -0.26037511072660746 -0.6064137596833078
5050520090 -0.2686039946581188 -0.6037578865101463
5051015385 -0.2725170301763635 -0.6033690258076316
5051510680 -0.27688572438139664 -0.6022032593425951
5052005975 -0.2812883602945428 -0.6014764873605025
5052501270 -0.285687328953492 -0.6006837675445958
5052996565 -0.29098077824241236 -0.5986082177413138
5053491860 -0.29529818578770284 -0.597780820570494
5053987155 -0.2992920075592242 -0.5967849712622794
5054482450 -0.3044599467202237 -0.5950845134885687
5054977745 -0.3083101824710244 -0.5933256870821902
5055473040 -0.31291176300299794 -0.5922188288287112
5055968335 -0.3175723019399141 -0.5911095456073159
5056463630 -0.32243022008946065 -0.589247044764067
5056958925 -0.32657708462915924 -0.5881420217062298
5057454220 -0.3310908345799697 -0.5859203087656122
5057949515 -0.33539155909889623 -0.5850056221610621
5058444810 -0.33900296688079834 -0.5827356231840033
5058940105 -0.344541155978253 -0.5815478657421312
5059435400 -0.3477281614353782 -0.5801787784225062
5059930695 -0.35290410330421046 -0.5779839440395957
5060425990 -0.35606984872567027 -0.5767574969090914
5060921285 -0.3602983449634753 -0.5747047537251523
5061416580 -0.36564746812770244 -0.5729588646637765
5061911875 -0.3687571130300823 -0.5714688018748635
5062407170 -0.37294330251844304 -0.5688761629556355
5062902465 -0.3764234796950692 -0.5670680466451143
5063397760 -0.38112546111408035 -0.5654755140605726
5063893055 -0.38457509247880234 -0.5626665604741949
5064388350 -0.38866622353854935 -0.5613047010020206
5064883645 -0.3926684934841959 -0.5587211753192701
5065378940 -0.39696316499459117 -0.556095069960544
5065874235 -0.4011029208961286 -0.5537016234899822
5066369530 -0.40377968236019735 -0.5523710501821417
5066864825 -0.4072516858577728 -0.5500572888474715
5067360120 -0.41192550408212764 -0.5474532152477064
5067855415 -0.41612272670394496 -0.5446232714151081
5068350710 -0.4205039802350496 -0.5414802494801974
5068846005 -0.42230446558249624 -0.5409810605802035
5069341300 -0.4268645565760763 -0.5369751986704374
5069836595 -0.4300307223671361 -0.5355615427619532
5070331890 -0.4327210031057659 -0.5335223298323782
5070827185 -0.438106075713509 -0.5297702958709315
5071322480 -0.43969426500169856 -0.5282849920423407
5071817775 -0.445276141166687 -0.5242003076954892
5072313070 -0.4482698111157668 -0.5216731084020514
5072808365 -0.4506393184787349 -0.5196185519820765
5073303660 -0.45562140722023814 -0.5155233866290042
5073798955 -0.4580017359633195 -0.5136633546728837
5074294250 -0.46112552442048726 -0.511677811020299
5074789545 -0.4650851613596866 -0.507079187192415
5075284840 -0.46713024534677206 -0.5054302905735216
5075780135 -0.46998143509814616 -0.5027632164327722
5076275430 -0.476164543314984 -0.49815764082105535
5076770725 -0.47687351076226486 -0.4965414953859229
5077266020 -0.4804983515488474 -0.49294907168338176
5077761315 -0.48261499718615886 -0.49100565126067713
5078256610 -0.4867442956096248 -0.4870931835551011
5078751905 -0.4878603878774141 -0.48628209609734385
5079247200 -0.49282253259106684 -0.4802030732757167
5079742495 -0.49414940570530136 -0.47887713030764933
5080237790 -0.4973865653339185 -0.47535160497615214
5080733085 -0.5005708352515572 -0.4722402848695454
5081228380 -0.5034541487693787 -0.4691404872818997
5081723675 -0.5058079581511649 -0.465795110715063
5082218970 -0.5086556077003479 -0.4627634286880493
5082714265 -0.5117179343574926 -0.45908311479970026
5083209560 -0.5136165336558693 -0.45656792584218475
5083704855 -0.5169071335541574 -0.45273814232725845
5084200150 -0.5189585277908727 -0.4497920243363631
5084695445 -0.5218877353166279 -0.4458516945964412
5085190740 -0.5241931363155967 -0.4429219584715994
5085686035 -0.5266180226677343 -0.4397065482641521
5086181330 -0.5286342156560797 -0.4365129988444479
5086676625 -0.5305053905436867 -0.4333590253403312
5087171920 -0.5334655015092147 -0.42949839485319036
5087667215 -0.5360707672018754 -0.4263514986163692
5088162510 -0.5384386119089628 -0.4226455876701756
5088657805 -0.5403755118972376 -0.41858594041121633
5089153100 -0.5417449348851254 -0.4155055504096182
5089648395 -0.5444203364221674 -0.41196347380939285
5090143690 -0.546318951405977 -0.4085264158876319
5090638985 -0.5488539212628415 -0.4040451661536568
5091134280 -0.5504352356258192 -0.40097174205278097
5091629575 -0.5520457060713517 -0.3977694495728141
5092124870 -0.5541109787790399 -0.3942012363358548
5092620165 -0.5567285857702556 -0.39027678182250575
5093115460 -0.5573366284370422 -0.3866660641996484
5093610755 -0.5597022991431387 -0.3825402636277048
5094106050 -0.5610572287910863 -0.3797122522404319
5094601345 -0.562772368129931 -0.3760339429503993
5095096640 -0.5640047694507399 -0.37201869958325434
5095591935 -0.5657970466111836 -0.36814912212522405
5096087230 -0.5666413369931673 -0.3650414473132083
5096582525 -0.5686898670698467 -0.36099813486400406
5097077820 -0.5702305561617801 -0.35759034752845764
5097573115 -0.5707302783664904 -0.35433634017643173
5098068410 -0.5733720158275805 -0.34817411397632797
5098563705 -0.5742446341012654 -0.34627182703269155
5099059000 -0.5745764468845568 -0.34305595567351893
5099554295 -0.5751276988732187 -0.340898429092608
5100049590 -0.579007487548025 -0.3342968021568499
5100544885 -0.5795499305976065 -0.33157996284334285
5101040180 -0.5811172849253604 -0.3267722710182792
5101535475 -0.5824206847893564 -0.32257523348456935
5102030770 -0.5832704995807848 -0.31887732838329513
5102526065 -0.5831660722431383 -0.31705815384262487
5103021360 -0.5850515679309243 -0.31129585755498784
5103516655 -0.5856490009709409 -0.308683770267587
5104011950 -0.5865056169660467 -0.304347530791634
5104507245 -0.5867826342582703 -0.30106604726690994
5105002540 -0.5875025830770794 -0.2974008321762085
5105497835 -0.5885652084099618 -0.29308407243929413
5105993130 -0.5897101791281449 -0.2876014944754149
5106488425 -0.5897283836414939 -0.28550181890788834
5106983720 -0.5902856807959708 -0.2813987418224937
5107479015 -0.5910046163358187 -0.2766090788339314
5107974310 -0.590873614737862 -0.27423746805442006
5108469605 -0.5918746120051334 -0.269417394148676
5108964900 -0.5923821110474435 -0.26580196619033813
5109460195 -0.592061205914146 -0.2631606632157376
5109955490 -0.5926863143318578 -0.2592320410828841
5110450785 -0.593042863042731 -0.25417301058769226
5110946080 -0.5936731256936726 -0.24884130531235746
5111441375 -0.5929505730930128 -0.24709965367066233
5111936670 -0.5935404143835369 -0.24240666941592567
5112431965 -0.5930430481308385 -0.24017943912430814
5112927260 -0.5933324412295693 -0.23467675243553363
5113422555 -0.5931469233412492 -0.23137181683590538
5113917850 -0.5930960460713035 -0.22768589383677432
5114413145 -0.5931766723331652 -0.22319269729288002
5114908440 -0.5926513389537209 -0.22001385218218752
5115403735 -0.5928787777298375 -0.215199959905524
5115899030 -0.5922014587803891 -0.2122325034517991
5116394325 -0.5914683185125652 -0.20868878066539764
5116889620 -0.5914541796634072 -0.20405076444149017
5117384915 -0.5911195435022053 -0.20033523205079531
5117880210 -0.5905771726056149 -0.1967022740527203
5118375505 -0.589922403034411 -0.1930902200309854
5118870800 -0.5893400280099166 -0.18948576795427421
5119366095 -0.5889739645154852 -0.1853669662224619
5119861390 -0.5880281423267565 -0.1818553703395944
5120356685 -0.5872783692259538 -0.1780773048338137
5120851980 -0.5865008517315513 -0.17457933723926544
5121347275 -0.585685814681806 -0.1707980193589863
5121842570 -0.5846451928741053 -0.1674504750653317
5122337865 -0.5837699488589638 -0.16372368916084892
5122833160 -0.5829690945775885 -0.15952686808611216
5123328455 -0.5818852343057331 -0.15675109703289836
5123823750 -0.5810156056755468 -0.15229009248708425
5124319045 -0.5799700931498879 -0.14924606916151548
5124814340 -0.5784653425216675 -0.14638539756599225
5125309635 -0.5775657735372844 -0.14196287487682543
5125804930 -0.5762901588490135 -0.13858379031482496
5126300225 -0.5749729150219968 -0.13524802029132843
5126795520 -0.5741621004907709 -0.1316698742540259
5127290815 -0.5723833190767389 -0.1286867629540594
5127786110 -0.5711482324098286 -0.12467550917675621
5128281405 -0.5696537400546827 -0.1218664857902025
5128776700 -0.5681963970786647 -0.11856852589469206
5129271995 -0.5667464105706466 -0.11519141769722889
5129767290 -0.5653404060162996 -0.11186075485066364
5130262585 -0.5634650117472598 -0.10918324401504115
5130757880 -0.5622183178600512 -0.10525959259585331
5131253175 -0.5605425866026628 -0.10214314609766006
5131748470 -0.5587899810389468 -0.09874008086166884
5132243765 -0.5572578812900343 -0.09606959631568507
5132739060 -0.5554605659685636 -0.09292299418072951
5133234355 -0.553779169132835 -0.08970144940050025
5133729650 -0.5518607026652286 -0.08690653153155979
5134224945 -0.5500395486229345 -0.0838671024692686
5134720240 -0.5482585179178339 -0.0810891299655563
5135215535 -0.546607073984648 -0.07763358715333436
5135710830 -0.5444808978783456 -0.07375151664018631
5136206125 -0.5427320066251253 -0.07247567059178102
5136701420 -0.5406980106705114 -0.06847927444859554
5137196715 -0.5390157166280245 -0.06591208553627918
5137692010 -0.5367409555535567 -0.0629903252579664
5138187305 -0.5348185049860101 -0.05965689863813551
5138682600 -0.5326721699614274 -0.05699882224986428
5139177895 -0.5306294999624553 -0.05460753762408307
5139673190 -0.528423127375151 -0.0517050065100193
5140168485 -0.5261627686651129 -0.04921582909791093
5140663780 -0.5242453311619005 -0.044554143163718675
5141159075 -0.5218209059614884 -0.042690148086924305
5141654370 -0.5194835411874872 -0.0414062961935997
5142149665 -0.5170972723709909 -0.03758294860783376
5142644960 -0.5149342229491786 -0.03615188226103783
5143140255 -0.5124920732096622 -0.03319824349723364
5143635550 -0.5099423904167978 -0.029807493580799354
5144130845 -0.5074386345712762 -0.028474244044015284
5144626140 -0.5050561428070068 -0.02679629153326938
5145121435 -0.5025372316962794 -0.022704216112431726
5145616730 -0.499911041636216 -0.02204575536674575
5146112025 -0.497643862899981 -0.017678790872818546
5146607320 -0.49481580288786636 -0.015810848409800154
5147102615 -0.49234771728515625 -0.01569656821850099
5147597910 -0.4899522003374602 -0.010825953103209796
5148093205 -0.48716771288921956 -0.009994119062627616
5148588500 -0.48461583099867167 -0.006830060315367423
5149083795 -0.4818701461741799 -0.0056480951607227325
5149579090 -0.47904085799267415 -0.003954983365378882
5150074385 -0.476459801197052 0.0006809893897489497
5150569680 -0.4737661904410312 0.0012483164962185057
5151064975 -0.4710571107111479 0.0015313860127016117
5151560270 -0.4682803859836177 0.005353531800210476
5152055565 -0.46566648546018097 0.006163441968199454
5152550860 -0.46264639967366267 0.007272851065193352
5153046155 -0.4600574625165839 0.009957452696797094
5153541450 -0.4572086773420635 0.01192243446252848
5154036745 -0.45439146223821136 0.013180176531405826
5154532040 -0.4518555230215976 0.014322430434587755
5155027335 -0.4488988126579084 0.016212989233042065
5155522630 -0.44620404117985774 0.01783183648398048
5156017925 -0.4431401695075788 0.019281878185115363
5156513220 -0.44040601504476445 0.02110823165429266
5157008515 -0.4375302399459638 0.022749713180880798
5157503810 -0.43474408199912623 0.02389332544254629
5157999105 -0.4317456013277957 0.02530824726349429
5158494400 -0.4289678241077222 0.026569540465348644
5158989695 -0.42609625741055135 0.027929674441877165
5159484990 -0.4230483644887021 0.0292746822692846
5159980285 -0.42034583656411423 0.030350903735349054
5160475580 -0.41733414405270625 0.03151217573567441
5160970875 -0.41465829391228526 0.032873358773557765
5161466170 -0.4115464028559233 0.034197924756690076
5161961465 -0.408675502789648 0.03544598092374049
5162456760 -0.4055285830246775 0.036293070175145804
5162952055 -0.4026345500820561 0.037223319866155326
5163447350 -0.39987241437560633 0.03858168109467155
5163942645 -0.39704543352127075 0.03961139662485374
5164437940 -0.39397982076594706 0.040099679835532843
5164933235 -0.39115473157481145 0.041470142767617575
5165428530 -0.3881032513944726 0.042214297346378625
5165923825 -0.38505280958978755 0.0428410033254247
5166419120 -0.3823548351463519 0.04372217957126467
5166914415 -0.37926269204992996 0.044202928676417
5167409710 -0.37631980996382863 0.04535999149084091
5167905005 -0.3734288027412013 0.04603210522940284
5168400300 -0.3703439972902599 0.046931015033470955
5168895595 -0.3673577951757531 0.04720321866242509
5169390890 -0.3645381096162294 0.04773733137469543
5169886185 -0.3616032412177638 0.0486239024290913
5170381480 -0.35842972366433395 0.048779821513514766
5170876775 -0.35558761107294184 0.04984770205460096
5171372070 -0.35264190874601664 0.04992433539346645
5171867365 -0.3497493957218371 0.0503480648131747
5172362660 -0.3467292785644531 0.050954241109521764
5172857955 -0.3438169532700589 0.05096088938022915
5173353250 -0.3406627429159064 0.05292406266457156
5173848545 -0.33776352123210307 0.053411215151611124
5174343840 -0.33497679076696696 0.052474386401866614
5174839135 -0.3320917110694082 0.05236801563909179
5175334430 -0.3291228303783818 0.052490509850414174
5175829725 -0.3262623423024228 0.052840923400301686
5176325020 -0.323175344027971 0.053967549024443874
5176820315 -0.32034996622487116 0.05316755234410888
5177315610 -0.3173474042039168 0.054214916731181895
5177810905 -0.31461334542224284 0.053202813981395015
5178306200 -0.31154822205242355 0.05378767279417891
5178801495 -0.3089535785348792 0.053370037361195215
5179296790 -0.3057856638180582 0.05435055376667725
5179792085 -0.3032138567221792 0.05338492303302413
5180287380 -0.3001971370295474 0.05297201832658366
5180782675 -0.29725920212896245 0.05433562025427818
5181277970 -0.2946825262747313 0.052820461753167604
5181773265 -0.29179614625479044 0.05285318450708138
5182268560 -0.2887500634318904 0.05324891837019669
5182763855 -0.286074067416944 0.05278723824181055
5183259150 -0.2834607205892864 0.05175292884048663
5183754445 -0.28051490846433136 0.0522325374186039
5184249740 -0.27761270497974594 0.052014779299497604
5184745035 -0.275090272489347 0.05164728333291255
5185240330 -0.27228719937173945 0.05120144686416576
5185735625 -0.26959900009004695 0.05084792975532381
5186230920 -0.2669191768294887 0.05028646733415754
5186726215 -0.26396925825821727 0.050308022059892356
5187221510 -0.2613371845922972 0.049809661742888
5187716805 -0.258759468793869 0.04914840408845952
5188212100 -0.25617731401794835 0.048721915012911746
5188707395 -0.25361386725777074 0.048183511158353405
5189202690 -0.2506650623522307 0.04754987261012981
5189697985 -0.2481382740171332 0.04717336261742994
5190193280 -0.24563009331100866 0.04641987834321825
5190688575 -0.24295604934817866 0.045961142762711175
5191183870 -0.2404082095936725 0.045171559837303664
