# HZ S RI R 50
5000000000 -0.5633466118260434 -0.6482233561967549
5000495295 -0.5671837329864502 -0.6452306603130541
5000990590 -0.5748273573423687 -0.6391849611934862
5001485885 -0.5781744153876054 -0.6374523953387612
5001981180 -0.5845319064039933 -0.6320960804035789
5002476475 -0.5906490118880021 -0.6273524980796011
5002971770 -0.5949806037702059 -0.6249207007257562
5003467065 -0.6005651041081077 -0.6193632452111495
5003962360 -0.6066099687626487 -0.6145912879391721
5004457655 -0.6113499936304594 -0.6105203126606188
5004952950 -0.6173618718197471 -0.6054779636232477
5005448245 -0.6221655042547929 -0.6011762901356346
5005943540 -0.6262465746779191 -0.5974600064127069
5006438835 -0.6327302393160368 -0.5920042050512213
5006934130 -0.6366140434616491 -0.5877386080591303
5007429425 -0.6422556105412935 -0.5833794976535597
5007924720 -0.6470337008175097 -0.5779698208758706
5008420015 -0.6515710008771796 -0.5732009724566811
5008915310 -0.6558320239970559 -0.5685689010118183
5009410605 -0.6609706000277871 -0.563627302646637
5009905900 -0.6662093369584334 -0.5573929956084803
5010401195 -0.6704557004727816 -0.5538004354426735
5010896490 -0.6765611297205875 -0.5465470332848398
5011391785 -0.6797284107459219 -0.5427451384694952
5011887080 -0.6841605650751215 -0.5371987945155093
5012382375 -0.6888823603328905 -0.5321073877184015
5012877670 -0.6939715303872761 -0.5260562677132455
5013372965 -0.6976748830393741 -0.5216137108049894
5013868260 -0.7019363359401101 -0.5161176135665492
5014363555 -0.7061343004829005 -0.510063394119865
5014858850 -0.7108731489432486 -0.5044885622827631
5015354145 -0.7142099487154108 -0.49971132686263636
5015849440 -0.718949440278505 -0.49248072191288594
5016344735 -0.7229636844835783 -0.48725648145926626
5016840030 -0.7265658064892417 -0.48156685578195674
5017335325 -0.7302864382141515 -0.47581238025113154
5017830620 -0.7340139840778551 -0.4699466479452033
5018325915 -0.7381310180613869 -0.46381547890211405
5018821210 -0.742127283623344 -0.4573371300571843
5019316505 -0.7458230664855555 -0.4516489693993016
5019811800 -0.7487588493447555 -0.4463473087862918
5020307095 -0.7523315799863715 -0.44051928582944366
5020802390 -0.7559154472853008 -0.4331592305710441
5021297685 -0.7584248404753836 -0.4285280814296321
5021792980 -0.7627312164557608 -0.4210056866470136
5022288275 -0.765483137808348 -0.41514782685982554
5022783570 -0.7678192351993761 -0.41040877605739395
5023278865 -0.7721000627467507 -0.4022874455702932
5023774160 -0.7739601166624772 -0.39773242097151906
5024269455 -0.7765159606933594 -0.3914764303910105
5024764750 -0.7813884302189475 -0.38210353882689224
5025260045 -0.782949613897424 -0.3776492554890482
5025755340 -0.7851539505155463 -0.37129807942791987
5026250635 -0.7887291249475981 -0.36390586118949086
5026745930 -0.7901903547738728 -0.35913947381471334
5027241225 -0.7933895525179411 -0.3512005727542074
5027736520 -0.7969739280248943 -0.3417153609426398
5028231815 -0.7979148281247992 -0.3376659217633699
5028727110 -0.8005985931346291 -0.33087089187220525
5029222405 -0.8027776354237607 -0.3241193420008609
5029717700 -0.8043156140729001 -0.3181301872981222
5030212995 -0.8070820507250334 -0.30899902550797714
5030708290 -0.8088393744669462 -0.3037691555525127
5031203585 -0.8108293759195428 -0.29641226875154597
5031698880 -0.8128145493959126 -0.2887934258109645
5032194175 -0.8133425336135062 -0.2845760536821265
5032689470 -0.8159590457615099 -0.27633247406859146
5033184765 -0.8179374086229425 -0.26647169966446727
5033680060 -0.8188788577129966 -0.2619351964247854
5034175355 -0.8201148290383188 -0.2548529991978093
5034670650 -0.8214174069856343 -0.24748830732546354
5035165945 -0.8226602140225863 -0.24147102707310727
5035661240 -0.8241073206851357 -0.23222119949365916
5036156535 -0.8250912490643953 -0.22536358158839376
5036651830 -0.8259826208415785 -0.21929537700979332
5037147125 -0.8270778624634993 -0.21129679836724935
5037642420 -0.8278025576942846 -0.20554988713640915
5038137715 -0.8281062339481554 -0.19725525379180908
5038633010 -0.8294783234596252 -0.18782774790337212
5039128305 -0.8293199068621585 -0.18370993592237173
5039623600 -0.8299913751451593 -0.17538371368458397
5040118895 -0.8300789563279403 -0.16807196563795992
5040614190 -0.8305031531735471 -0.16032640871248746
5041109485 -0.830395990296414 -0.15378457386242717
5041604780 -0.8307457252552635 -0.1464315033272693
5042100075 -0.8308011607119912 -0.13858498083917717
5042595370 -0.8308997593427959 -0.13169586580050618
5043090665 -0.8306431833066439 -0.12290140476665999
5043585960 -0.8302502820366308 -0.11651441847023211
5044081255 -0.8301533335133603 -0.1081103298224901
5044576550 -0.829416601281417 -0.10153961495349281
5045071845 -0.8287906489874187 -0.09537112281510704
5045567140 -0.8283245092944095 -0.08622347877213829
5046062435 -0.8271923378894204 -0.07988006543172033
5046557730 -0.8265164714110526 -0.072318487261471
5047053025 -0.8255371231781808 -0.0638069718291885
5047548320 -0.8243896898470426 -0.05771898713551069
5048043615 -0.823401689529419 -0.0493813062969007
5048538910 -0.8217317430596602 -0.041879936856658834
5049034205 -0.820586693914313 -0.035543449419109446
5049529500 -0.8188583348926745 -0.02684634051432735
5050024795 -0.8178261675332722 -0.025036850552025595
5050520090 -0.8163344514997382 -0.012624727071900117
5051015385 -0.8143855709778635 -0.00522210355848074
5051510680 -0.8126017953220167 0.00169074515763082
5052005975 -0.8105546643859461 0.009935312610315649
5052501270 -0.8083090154748214 0.01614653608320575
5052996565 -0.8061510418590746 0.024630788811727575
5053491860 -0.8038627442560697 0.03112476966098735
5053987155 -0.8013356924057007 0.03904530856954424
5054482450 -0.798827030156788 0.04621071368455887
5054977745 -0.7962166949322349 0.05280995172889609
5055473040 -0.793669769638463 0.06132716960028598
5055968335 -0.7907250931388453 0.06820992694089287
5056463630 -0.7879561374061986 0.07511958440667704
5056958925 -0.7846451903644361 0.0816503359298957
5057454220 -0.7814336105396873 0.08960279273359399
5057949515 -0.7785925896544206 0.09560269274209675
5058444810 -0.7751823130406832 0.10334133709731855
5058940105 -0.7718693143443057 0.11059923470020294
5059435400 -0.7680648502550627 0.11720476887728039
5059930695 -0.7646984269744471 0.12364644165101804
5060425990 -0.7607674190872594 0.13157305278276143
5060921285 -0.7568121991659466 0.1378278646029924
5061416580 -0.753111836157347 0.14454757382995204
5061911875 -0.7494424612898576 0.15109771097961225
5062407170 -0.7449173707711069 0.15795241217864187
5062902465 -0.7407457326587877 0.16488633422475113
5063397760 -0.736764016904329 0.17078949197342522
5063893055 -0.7325980129994845 0.1774717114473644
5064388350 -0.7276683732082969 0.1842853042640184
5064883645 -0.7225475593617088 0.19348543490234174
5065378940 -0.7187818884849548 0.19572500806105764
5065874235 -0.7137452677676552 0.20283248001023343
5066369530 -0.7092534899711609 0.20926923500864128
5066864825 -0.7035320934496427 0.21648523368333517
5067360120 -0.698379817761873 0.22305506075683393
5067855415 -0.6934849274785895 0.22868167569762782
5068350710 -0.6886335266263861 0.23328937825403714
5068846005 -0.6828212832149706 0.24067315223969912
5069341300 -0.6766466310149745 0.24805557414105064
5069836595 -0.6726433289678473 0.2504970925418954
5070331890 -0.6665365664582503 0.25684174424723577
5070827185 -0.6608257576038963 0.26282399265389694
5071322480 -0.6532061100006104 0.2718572773431477
5071817775 -0.6486970750909102 0.2748822240453017
5072313070 -0.6434053810019242 0.27860700770428304
5072808365 -0.636980088133561 0.28461090043971415
5073303660 -0.6307428667419835 0.2902727362356688
5073798955 -0.6246448378813895 0.2959675914362857
5074294250 -0.6180976001839888 0.3015779601900201
5074789545 -0.6129422438772101 0.30389090117655304
5075284840 -0.605394510846389 0.3104681702036607
5075780135 -0.5984195125730414 0.31627777375672994
5076275430 -0.5930994215764498 0.3200168970384096
5076770725 -0.5857140610092565 0.3248997565947081
5077266020 -0.5788664974664387 0.3293898811465816
5077761315 -0.5718776238592047 0.33375118594420583
5078256610 -0.5642511028992502 0.3394832736567447
5078751905 -0.5578420162200928 0.34269381824292633
5079247200 -0.5512867507181669 0.34618969183219106
5079742495 -0.5444415870465731 0.35025891191081
5080237790 -0.5363425361482721 0.3546510228985234
5080733085 -0.5293140129039162 0.35857809060498286
5081228380 -0.5217482416253341 0.3629729230152933
5081723675 -0.5150558979887712 0.3661117083147952
5082218970 -0.5077761443037736 0.36906324719127853
5082714265 -0.4992414430568093 0.37367481150125204
5083209560 -0.49287402786706624 0.3759519238221018
5083704855 -0.48429723319254425 0.3800506983932696
5084200150 -0.47640939135300486 0.38243190395204646
5084695445 -0.46951781448565033 0.3850370174960086
5085190740 -0.46128826706033005 0.3886169838277917
5085686035 -0.4534197418313277 0.3915473238417977
5086181330 -0.44600174458403335 0.39412637917619003
5086676625 -0.43804118194078145 0.39626158695471914
5087171920 -0.42998422447003815 0.3989206850528717
5087667215 -0.42193456072556346 0.40150800661036845
5088162510 -0.41368768717113297 0.404221059460389
5088657805 -0.40552445932438497 0.4061772274343591
5089153100 -0.3981872232336747 0.40724248321432815
5089648395 -0.3894463793227547 0.40968979973542063
5090143690 -0.381511893711592 0.41117718345240545
5090638985 -0.3735728185427816 0.41261404752731323
5091134280 -0.3651852090107767 0.41388845443725586
5091629575 -0.35706896060391474 0.4151373725188406
5092124870 -0.34923906702744334 0.4162828059572923
5092620165 -0.33994207884136 0.41806830544220774
5093115460 -0.3319160091249566 0.4188284324972253
5093610755 -0.32390173642258896 0.4195863071240877
5094106050 -0.31527984142303467 0.4205483998122968
5094601345 -0.3075552033750634 0.420599584516726
5095096640 -0.2987751035313857 0.4212002440502769
5095591935 -0.2907736709243373 0.42135377149832876
5096087230 -0.28281578264738383 0.4210534801608638
5096582525 -0.27454868429585505 0.4212041105094709
5097077820 -0.2657003465451692 0.4218856974651939
5097573115 -0.25742839198363454 0.42132487579395894
5098068410 -0.24954008977664144 0.4209307589029011
5098563705 -0.24205670388121353 0.4203519758425261
5099059000 -0.23302003505982852 0.41990989446640015
5099554295 -0.2233732593686957 0.42009239134035614
5100049590 -0.21659308358242638 0.42038295457237645
5100544885 -0.20868360996246338 0.41969885324176986
5101040180 -0.20138618899019142 0.4179915283855639
5101535475 -0.191983741364981 0.41747586193837616
5102030770 -0.18437810555884712 0.4160659172033009
5102526065 -0.17550879795300334 0.4150002583077079
5103021360 -0.1688002308732585 0.4129179229861812
5103516655 -0.16053348544396853 0.41154949916036504
5104011950 -0.15203434072042765 0.41006393338504593
5104507245 -0.14278970109788994 0.4088072337602314
5105002540 -0.13698658268702657 0.40612545295765523
5105497835 -0.12875315860698097 0.40398688692795603
5105993130 -0.11970328853318565 0.40244340112334803
5106488425 -0.11254606474387019 0.3997800005109687
5106983720 -0.1043477140759167 0.3977499274831069
5107479015 -0.09786653008900191 0.39479467272758484
5107974310 -0.08818770082373369 0.39262467936465617
5108469605 -0.08114313961643922 0.38973480933590937
5108964900 -0.07420517229720165 0.38662975869680705
5109460195 -0.06574126254571111 0.38427529836955826
5109955490 -0.058277094050457605 0.3809151131855814
5110450785 -0.050705333093279285 0.37790770593442413
5110946080 -0.04368901723309567 0.37463896525533574
5111441375 -0.036653730234033184 0.37108771267690155
5111936670 -0.029014852486158673 0.3679980086652856
5112431965 -0.021080159435146732 0.3647517059978686
5112927260 -0.013885992481128165 0.36069480996382863
5113422555 -0.007644064969530231 0.3568168956982462
5113917850 -0.00014110634985722994 0.3532153367996216
5114413145 0.007097475524795682 0.34915764865122345
5114908440 0.014381574074688711 0.34524714319329514
5115403735 0.02164914949159873 0.3408245271758029
5115899030 0.028089958880292743 0.3367917255351418
5116394325 0.03446526511719352 0.33243584789727865
5116889620 0.041671504903780784 0.32791804953625325
5117384915 0.04806898044128167 0.3234372546798305
5117880210 0.05499489860315072 0.31852099456285177
5118375505 0.060999624038997446 0.314113692233437
5118870800 0.067158122203852 0.30932830509386566
5119366095 0.0735034566176565 0.3043547555019981
5119861390 0.08011600335961894 0.29912272409388896
5120356685 0.08629126023305089 0.29430929924312393
5120851980 0.09244034439325333 0.28885593069227117
5121347275 0.0977866414346193 0.2840177950106169
5121842570 0.10382651616083949 0.27846932724902507
5122337865 0.10990955915890242 0.2730969159226668
5122833160 0.1156571519217993 0.267699586717706
5123328455 0.12138165023766066 0.262083732768109
5123823750 0.12658416832748212 0.2567968290103109
5124319045 0.132244694389795 0.25108863021198075
5124814340 0.13721905413426852 0.24538889997883848
5125309635 0.14274668928823972 0.23981195060830368
5125804930 0.14785277686621012 0.23383450743399167
5126300225 0.15304626367594065 0.22799964876551376
5126795520 0.1579747819586804 0.22244187562089218
5127290815 0.1627402352659326 0.21609746390267423
5127786110 0.16731498821785576 0.2099904378778056
5128281405 0.17213921797902962 0.20407241818151975
5128776700 0.17715140000769966 0.19778251804803548
5129271995 0.18160991292250783 0.19134771431747236
5129767290 0.18586970395163485 0.18540847458337484
5130262585 0.18987728655338287 0.17943101101800016
5130757880 0.19448683371669367 0.17252114258314433
5131253175 0.1983763026563745 0.16644035122896494
5131748470 0.2023830405975643 0.16008786543419487
5132243765 0.20632288016771017 0.15365952959186152
5132739060 0.2102835962646886 0.1470540801161214
5133234355 0.21423126600290598 0.14019686140512166
5133729650 0.2175767555048591 0.13399783404249893
5134224945 0.2212366022561726 0.12711464731316818
5134720240 0.2246377193614056 0.12057034828160938
5135215535 0.22787790078865855 0.11383667235311709
5135710830 0.23095202681265378 0.10746138150754728
5136206125 0.23416569123142644 0.10087993466540386
5136701420 0.2374270150535985 0.09347412264660786
5137196715 0.2401131007232164 0.08758662523407686
5137692010 0.2430449449702313 0.0801681009562392
5138187305 0.2459634730690404 0.07352917484546963
5138682600 0.2485547959804535 0.06690884852095653
5139177895 0.25107282556985555 0.06017835183363212
5139673190 0.2535867989063263 0.052823156902664585
5140168485 0.25597058785589116 0.04583321884274483
5140663780 0.25810123901618154 0.03969185642505947
5141159075 0.2602272708165018 0.03300444036722183
5141654370 0.2625016036786531 0.025151774777393592
5142149665 0.2643774889017406 0.018613719920578756
5142644960 0.26615844274822037 0.01171512460630191
5143140255 0.268294715567639 0.003929921916048778
5143635550 0.2695845302782561 -0.0017559648932595003
5144130845 0.27105680735487686 -0.008450452679474103
5144626140 0.2726571575591439 -0.016091801912376757
5145121435 0.27395515849715785 -0.023858487508014628
5145616730 0.27531104652505173 -0.029970730703912284
5146112025 0.2765095939761714 -0.03656545261803426
5146607320 0.27761043686615794 -0.04350573942065239
5147102615 0.27844344471630295 -0.05120743615062613
5147597910 0.2793769852111214 -0.05780139153725222
5148093205 0.28001821354815837 -0.06446932020940278
5148588500 0.2808524856441899 -0.07140656678300154
5149083795 0.28155644159567983 -0.07773324259017643
5149579090 0.282030303227274 -0.08503731889160056
5150074385 0.2819980555459073 -0.09316505530947133
5150569680 0.2827466820415698 -0.09894755129751406
5151064975 0.2829944946263966 -0.10559665686205814
5151560270 0.28352144517396627 -0.1117909848690033
5152055565 0.2831079003057982 -0.11966375536040257
5152550860 0.28328541548628555 -0.12607902955067785
5153046155 0.28348809323812785 -0.13229372626856753
5153541450 0.2830910259171536 -0.13921596502002917
5154036745 0.2828893128194307 -0.14578182446329216
5154532040 0.2825072705745697 -0.15232289700131668
5155027335 0.28216676178731415 -0.15885732205290543
5155522630 0.2818299030002795 -0.165246161191087
5156017925 0.28104765321079056 -0.17218712913362602
5156513220 0.2802302664832065 -0.17880125657508247
5157008515 0.2797161246600904 -0.1847167869931773
5157503810 0.27867563147293894 -0.19155356052674746
5157999105 0.27796958622179535 -0.1979690217658093
5158494400 0.2773231848290092 -0.20427096439035317
5158989695 0.2760862017932691 -0.21086086724933825
5159484990 0.2749828539396587 -0.2170442554511522
5159980285 0.2738726688058753 -0.2235010242775867
5160475580 0.272563509250942 -0.229873032162064
5160970875 0.2712180959550958 -0.23570925311038368
5161466170 0.2699355922247234 -0.24216065673451675
5161961465 0.26819719295752675 -0.24836096716554543
5162456760 0.2667031256776107 -0.2543335996176067
5162952055 0.2649610293538947 -0.26071902325278834
5163447350 0.26311441471702174 -0.267047466416108
5163942645 0.26181926068506745 -0.27226092313465317
5164437940 0.2594008084974791 -0.2788578036584352
5164933235 0.2580503868429284 -0.28457671560739217
5165428530 0.25576842144915934 -0.290267299664648
5165923825 0.25364462952864797 -0.29610657064538254
5166419120 0.25191688223888997 -0.30171803581087214
5166914415 0.24977564733279378 -0.30749779155379847
5167409710 0.2469167199574019 -0.3135220361383338
5167905005 0.2449465699886021 -0.3189152134092231
5168400300 0.24297740977061422 -0.3244023605396873
5168895595 0.24015046028714432 -0.3299544500677209
5169390890 0.23772310504787847 -0.3352678449530351
5169886185 0.23585679264445053 -0.3402792607483111
5170381480 0.23167688360339717 -0.34645092173626546
5170876775 0.23038742652064875 -0.3514663906473863
5171372070 0.22697191489370247 -0.3568656522976725
5171867365 0.22543307668284365 -0.3615672462864926
5172362660 0.22251781272260765 -0.36664789130813197
5172857955 0.2185657361620351 -0.3726386365137602
5173353250 0.21611670208604714 -0.37802907981370626
5173848545 0.21351705099406995 -0.3823405959104237
5174343840 0.21018782807023903 -0.3871606039373498
5174839135 0.20778121916871323 -0.39207239370597036
5175334430 0.2051454351136559 -0.396972667229803
5175829725 0.20068497877371938 -0.40247521588676854
5176325020 0.19748056248614662 -0.40704361074849177
5176820315 0.19461091568595484 -0.4115840557374452
5177315610 0.1924668981840736 -0.41553266424881785
5177810905 0.1884614197831405 -0.4207113228346172
5178306200 0.18353059417323062 -0.4258006952310863
5178801495 0.18145132849090978 -0.42994066131742376
5179296790 0.1777403535027253 -0.4345530412699047
5179792085 0.17385461299042954 -0.4391698398088154
5180287380 0.17127177589818052 -0.4428765005186984
5180782675 0.16693882565749318 -0.4473291510029843
5181277970 0.1624034721600382 -0.45226119066539566
5181773265 0.1596636176109314 -0.45556189825660304
5182268560 0.15708764446409126 -0.4597213221223731
5182763855 0.15285133452791916 -0.4637782307047593
5183259150 0.14837282817614705 -0.46790670721154465
5183754445 0.1448320111161784 -0.4716682716419822
5184249740 0.14132273510882729 -0.47558741036214325
5184745035 0.13768771447633443 -0.47969407000039754
5185240330 0.13351249067406906 -0.48345305574567693
5185735625 0.12911703555207504 -0.48685561355791596
5186230920 0.12516735925486214 -0.49058714195301656
5186726215 0.12081722758318249 -0.49382515486918
5187221510 0.11759489578636069 -0.49786827595610367
5187716805 0.11469329579880364 -0.5005821005294198
5188212100 0.10933348536491394 -0.5044611598315992
5188707395 0.10499159481964614 -0.5077263367803473
5189202690 0.10133060263959985 -0.5109829996761522
5189697985 0.09736254732859762 -0.5141280418948123
5190193280 0.09274475119615856 -0.5173825339267129
5190688575 0.08926483831907574 -0.520294820007525
5191183870 0.08466013834664696 -0.5234585498508654
5191679165 0.07999109829726972 -0.526207127069172
5192174460 0.07625509680886018 -0.5292745765886808
5192669755 0.0718715881046496 -0.5316049550708971
5193165050 0.06725035098038222 -0.5341734760685971
